(1787603091.408598) can0 1E1#0213271A020D020D
(1787603091.409637) can0 1F5#0000000000000000
(1787603091.410737) can0 0800A6A9#0000000000000000
(1787603091.411692) can0 1000A6A9#13029213344E4D4D
(1787603091.412732) can0 1C00A6A9#0000010000030000
(1787603091.413732) can0 02018100#1003021300000000
(1787603091.414730) can0 02028100#000A013464000000
(1787603091.415742) can0 02038100#0CF901100CF70101
(1787603091.416704) can0 02048100#4E01014D01030000
(1787603091.417607) can0 1AD#C014F6FF59341C1C
(1787603091.418605) can0 2AD#F90C800CC0140016
(1787603091.419625) can0 3AD#000000000000C014
(1787603091.420624) can0 4AD#EB00000000000000
(1787603091.421627) can0 76A#7F00000000000000
(1787603091.480466) can0 0000E005#17C04B0003B60591
(1787603091.481010) can0 1806E5F4#148B010003B6023A
(1787603091.481702) can0 0000E000#148B148B0213000A
(1787603091.482708) can0 0000E004#1C1B03B603B601F3
(1787603091.483673) can0 0000E006#0CF70CF70CF70CF7
(1787603091.484735) can0 0000E007#0CF70CF70CF70CF7
(1787603091.485682) can0 0000E008#0CF70CF70CF70CF7
(1787603091.486679) can0 0000E009#0CF70CF70CF70CF9
(1787603091.487738) can0 0000E010#0000000000000000
(1787603091.488736) can0 0000E011#0000000000000000
(1787603091.489729) can0 0000E012#0CF8000100000000
(1787603091.490744) can0 0000F001#0000000000000000
(1787603091.491712) can0 18FF28F4#1034000002130000
(1787603091.492743) can0 18FE28F4#0CF90CF744430000
(1787603091.493706) can0 18FD28F4#17C0FA6F00000000
(1787603091.494620) can0 4D4#0000340A7D130203
(1787603091.495611) can0 4D5#F70CF90C43440000
(1787603091.496710) can0 18914010#0CF9100CF7010000
(1787603091.497681) can0 18904010#02130213753A020D
(1787603091.498695) can0 18FA28F4#D03EA12C1A270000
(1787603091.499693) can0 18FB28F4#F90CF70C44430000
(1787603091.500755) can0 18FC28F4#3A34000013020000
(1787603091.501672) can0 18F810F3#1302DD0334640100
(1787603091.502736) can0 18F815F3#0000000010030000
(1787603091.503609) can0 273#0000000013023400
(1787603091.504610) can0 1E1#0213271A020D020D
(1787603091.505632) can0 1F5#0000000000000000
(1787603091.506709) can0 0800A6A9#0000000000000000
(1787603091.507683) can0 1000A6A9#13029213344E4D4D
(1787603091.508710) can0 1C00A6A9#0000010000030000
(1787603091.509710) can0 02018100#1003021300000000
(1787603091.510735) can0 02028100#000A013464000000
(1787603091.511711) can0 02038100#0CF901100CF70101
(1787603091.512711) can0 02048100#4E01014D01030000
(1787603091.513605) can0 1AD#C014F6FF59341C1C
(1787603091.514612) can0 2AD#F90C800CC0140016
(1787603091.515622) can0 3AD#000000000000C014
(1787603091.516629) can0 4AD#EB00000000000000
(1787603091.517621) can0 76A#7F00000000000000
(1787603091.573668) can0 00000E00#00354C4331343233
(1787603091.581386) can0 0000E005#17C04B0003B60591
(1787603091.581963) can0 1806E5F4#148B010003B6023A
(1787603091.582692) can0 0000E000#148B148B0213000A
(1787603091.583713) can0 0000E004#1C1B03B603B601F3
(1787603091.584677) can0 0000E006#0CF70CF70CF70CF7
(1787603091.585675) can0 0000E007#0CF70CF70CF70CF7
(1787603091.586665) can0 0000E008#0CF70CF70CF70CF7
(1787603091.587686) can0 0000E009#0CF70CF70CF70CF9
(1787603091.588743) can0 0000E010#0000000000000000
(1787603091.589742) can0 0000E011#0000000000000000
(1787603091.590709) can0 0000E012#0CF8000100000000
(1787603091.591741) can0 0000F001#0000000000000000
(1787603091.592714) can0 18FF28F4#1034000002130000
(1787603091.593685) can0 18FE28F4#0CF90CF744430000
(1787603091.594714) can0 18FD28F4#17C0FA6F00000000
(1787603091.595619) can0 4D4#0000340A7D130203
(1787603091.596589) can0 4D5#F70CF90C43440000
(1787603091.597696) can0 18914010#0CF9100CF7010000
(1787603091.598684) can0 18904010#02130213753A020D
(1787603091.599708) can0 18FA28F4#D03EA12C1A270000
(1787603091.600698) can0 18FB28F4#F90CF70C44430000
(1787603091.601714) can0 18FC28F4#3A34000013020000
(1787603091.602683) can0 18F810F3#1302DD0334640100
(1787603091.603716) can0 18F815F3#0000000010030000
(1787603091.604617) can0 273#0000000013023400
(1787603091.605616) can0 1E1#0213271A020D020D
(1787603091.606634) can0 1F5#0000000000000000
(1787603091.607715) can0 0800A6A9#0000000000000000
(1787603091.608676) can0 1000A6A9#13029213344E4D4D
(1787603091.609714) can0 1C00A6A9#0000010000030000
(1787603091.610714) can0 02018100#1003021300000000
(1787603091.611717) can0 02028100#000A013464000000
(1787603091.612696) can0 02038100#0CF901100CF70101
(1787603091.613715) can0 02048100#4E01014D01030000
(1787603091.614615) can0 1AD#C014F6FF59341C1C
(1787603091.615615) can0 2AD#F90C800CC0140016
(1787603091.616633) can0 3AD#000000000000C014
(1787603091.617630) can0 4AD#EB00000000000000
(1787603091.618618) can0 76A#7F00000000000000
(1787603091.680398) can0 0000E005#17C04B0003B60591
(1787603091.680948) can0 1806E5F4#148B010003B6023A
(1787603091.681692) can0 0000E000#148B148B0213000B
(1787603091.682683) can0 0000E004#1C1B03B603B601F3
(1787603091.683674) can0 0000E006#0CF70CF70CF70CF7
(1787603091.684673) can0 0000E007#0CF70CF90CF70CF7
(1787603091.685673) can0 0000E008#0CF70CF70CF70CF7
(1787603091.686679) can0 0000E009#0CF70CF70CF70CF9
(1787603091.687749) can0 0000E010#0000000000000000
(1787603091.688721) can0 0000E011#0000000000000000
(1787603091.689721) can0 0000E012#0CF8000100000000
(1787603091.690721) can0 0000F001#0000000000000000
(1787603091.691721) can0 18FF28F4#1034000002130000
(1787603091.692683) can0 18FE28F4#0CF90CF744430000
(1787603091.693703) can0 18FD28F4#17C0FA6F00000000
(1787603091.694618) can0 4D4#0000340B7D130203
(1787603091.695597) can0 4D5#F70CF90C43440000
(1787603091.696701) can0 18914010#0CF9060CF7010000
(1787603091.697683) can0 18904010#02130213753B020D
(1787603091.698689) can0 18FA28F4#D03EA12C1B270000
(1787603091.699695) can0 18FB28F4#F90CF70C44430000
(1787603091.700721) can0 18FC28F4#3A34000013020000
(1787603091.701692) can0 18F810F3#1302DC0334640100
(1787603091.702722) can0 18F815F3#0000000010030000
(1787603091.703625) can0 273#0000000013023400
(1787603091.704624) can0 1E1#0213271B020D020D
(1787603091.705632) can0 1F5#0000000000000000
(1787603091.706718) can0 0800A6A9#0000000000000000
(1787603091.707704) can0 1000A6A9#13029313344E4D4D
(1787603091.708721) can0 1C00A6A9#0000010000030000
(1787603091.709723) can0 02018100#1003021300000000
(1787603091.710718) can0 02028100#000B013464000000
(1787603091.711724) can0 02038100#0CF901060CF70101
(1787603091.712705) can0 02048100#4E01014D01030000
(1787603091.713598) can0 1AD#C014F5FF59341C1C
(1787603091.714598) can0 2AD#F90C800CC0140016
(1787603091.715665) can0 3AD#000000000000C014
(1787603091.716625) can0 4AD#EB00000000000000
(1787603091.717623) can0 76A#7F00000000000000
(1787603091.780434) can0 0000E005#17C04B0003B60591
(1787603091.781005) can0 1806E5F4#148B010003B6023A
(1787603091.781688) can0 0000E000#148B148B0213000B
(1787603091.782697) can0 0000E004#1C1B03B603B601F3
(1787603091.783663) can0 0000E006#0CF70CF70CF70CF7
(1787603091.784709) can0 0000E007#0CF70CF90CF70CF7
(1787603091.785680) can0 0000E008#0CF70CF70CF70CF7
(1787603091.786670) can0 0000E009#0CF70CF70CF70CF9
(1787603091.787728) can0 0000E010#0000000000000000
(1787603091.788728) can0 0000E011#0000000000000000
(1787603091.789728) can0 0000E012#0CF8000100000000
(1787603091.790728) can0 0000F001#0000000000000000
(1787603091.791703) can0 18FF28F4#1034000002130000
(1787603091.792728) can0 18FE28F4#0CF90CF744430000
(1787603091.793700) can0 18FD28F4#17C0FA6F00000000
(1787603091.794602) can0 4D4#0000340B7D130203
(1787603091.795599) can0 4D5#F70CF90C43440000
(1787603091.796690) can0 18914010#0CF9060CF7010000
(1787603091.797686) can0 18904010#02130213753B020D
(1787603091.798691) can0 18FA28F4#D03EA12C1B270000
(1787603091.799689) can0 18FB28F4#F90CF70C44430000
(1787603091.800754) can0 18FC28F4#3A34000013020000
(1787603091.801678) can0 18F810F3#1302DC0334640100
(1787603091.802710) can0 18F815F3#0000000010030000
(1787603091.803626) can0 273#0000000013023400
(1787603091.804604) can0 1E1#0213271B020D020D
(1787603091.805631) can0 1F5#0000000000000000
(1787603091.806708) can0 0800A6A9#0000000000000000
(1787603091.807674) can0 1000A6A9#13029313344E4D4D
(1787603091.808709) can0 1C00A6A9#0000010000030000
(1787603091.809711) can0 02018100#1003021300000000
(1787603091.810700) can0 02028100#000B013464000000
(1787603091.811699) can0 02038100#0CF901060CF70101
(1787603091.812700) can0 02048100#4E01014D01030000
(1787603091.813602) can0 1AD#C014F5FF59341C1C
(1787603091.814581) can0 2AD#F90C800CC0140016
(1787603091.815624) can0 3AD#000000000000C014
(1787603091.816630) can0 4AD#EB00000000000000
(1787603091.817629) can0 76A#7F00000000000000
(1787603091.897401) can0 0000E005#17C04B0003B60591
(1787603091.897951) can0 1806E5F4#148B010003B6023A
(1787603091.898685) can0 0000E000#148B148B0213000A
(1787603091.899695) can0 0000E004#1C1B03B603B601F3
(1787603091.900677) can0 0000E006#0CF70CF70CF70CF7
(1787603091.901675) can0 0000E007#0CF70CF70CF70CF7
(1787603091.902679) can0 0000E008#0CF70CF70CF70CF9
(1787603091.903669) can0 0000E009#0CF70CF70CF70CF9
(1787603091.904708) can0 0000E010#0000000000000000
(1787603091.905712) can0 0000E011#0000000000000000
(1787603091.906714) can0 0000E012#0CF8000100000000
(1787603091.907668) can0 0000E013#4542323630354C43
(1787603091.908702) can0 0000E014#3134323300000000
(1787603091.909715) can0 0000E015#0000000000000003
(1787603091.910715) can0 0000F000#0000000000000000
(1787603091.911718) can0 0000F001#0000000000000000
(1787603091.912699) can0 18FF28F4#1034000002130000
(1787603091.913677) can0 18FE28F4#0CF90CF744430000
(1787603091.914705) can0 18FD28F4#17C0FA6F00000000
(1787603091.915608) can0 4D4#0000340A7D130203
(1787603091.916583) can0 4D5#F70CF90C43440000
(1787603091.917685) can0 18914010#0CF90C0CF7010000
(1787603091.918677) can0 18904010#02130213753A020D
(1787603091.919696) can0 18924010#4401430300000000
(1787603091.920680) can0 18934010#010100580000C32C
(1787603091.921705) can0 18944010#1003000000000000
(1787603091.922736) can0 18954010#0000000000000000
(1787603091.923718) can0 18954010#0100000000000000
(1787603091.924716) can0 18954010#0200000000000000
(1787603091.925706) can0 18954010#0300000000000000
(1787603091.926706) can0 18954010#0400000000000000
(1787603091.927708) can0 18954010#0500000000000000
(1787603091.928698) can0 18964010#0044444300000000
(1787603091.929716) can0 18974010#0000000000000000
(1787603091.930736) can0 18984010#0000000000000000
(1787603091.931679) can0 18FA28F4#D03EA12C1A270000
(1787603091.932669) can0 18FB28F4#F90CF70C44430000
(1787603091.933697) can0 18FC28F4#3A34000013020000
(1787603091.934677) can0 18F810F3#1302DD0334640100
(1787603091.935687) can0 18F811F3#F90C0C01F70C0101
(1787603091.936687) can0 18F812F3#4401014303010000
(1787603091.937716) can0 18F813F3#0101010000000000
(1787603091.938707) can0 18F814F3#3200A81BA9015F00
(1787603091.939704) can0 18F815F3#0000000010030000
(1787603091.940605) can0 273#0000000013023400
(1787603091.941583) can0 1E1#0213271A020D020D
(1787603091.942638) can0 1F5#0000000000000000
(1787603091.943708) can0 0800A6A9#0000000000000000
(1787603091.944674) can0 1000A6A9#13029213344E4D4D
(1787603091.945698) can0 1C00A6A9#0000010000030000
(1787603091.946762) can0 02018100#1003021300000000
(1787603091.947706) can0 02028100#000A013464000000
(1787603091.948689) can0 02038100#0CF9010C0CF70101
(1787603091.949686) can0 02048100#4E01014D01030000
(1787603091.950594) can0 1AD#C014F6FF59341C1C
(1787603091.951582) can0 2AD#F90C800CC0140016
(1787603091.952610) can0 3AD#000000000000C014
(1787603091.953612) can0 4AD#EB00000000000000
(1787603091.954660) can0 76A#7F00000000000000
(1787603092.013427) can0 0000E005#17C04B0003B60591
(1787603092.013989) can0 1806E5F4#148B010003B6023A
(1787603092.014692) can0 0000E000#148B148B0213000A
(1787603092.015723) can0 0000E004#1C1B03B603B601F3
(1787603092.016672) can0 0000E006#0CF70CF70CF70CF7
(1787603092.017672) can0 0000E007#0CF70CF70CF70CF7
(1787603092.018672) can0 0000E008#0CF70CF70CF70CF9
(1787603092.019662) can0 0000E009#0CF70CF70CF70CF9
(1787603092.020721) can0 0000E010#0000000000000000
(1787603092.021707) can0 0000E011#0000000000000000
(1787603092.022713) can0 0000E012#0CF8000100000000
(1787603092.023768) can0 0000F001#0000000000000000
(1787603092.024709) can0 18FF28F4#1034000002130000
(1787603092.025683) can0 18FE28F4#0CF90CF744430000
(1787603092.026696) can0 18FD28F4#17C0FA6F00000000
(1787603092.027600) can0 4D4#0000340A7D130203
(1787603092.028577) can0 4D5#F70CF90C43440000
(1787603092.029691) can0 18914010#0CF90C0CF7010000
(1787603092.030674) can0 18904010#02130213753A020D
(1787603092.031744) can0 18FA28F4#D03EA12C1A270000
(1787603092.032688) can0 18FB28F4#F90CF70C44430000
(1787603092.033695) can0 18FC28F4#3A34000013020000
(1787603092.034674) can0 18F810F3#1302DD0334640100
(1787603092.035704) can0 18F815F3#0000000010030000
(1787603092.036617) can0 273#0000000013023400
(1787603092.037588) can0 1E1#0213271A020D020D
(1787603092.038619) can0 1F5#0000000000000000
(1787603092.039716) can0 0800A6A9#0000000000000000
(1787603092.040665) can0 1000A6A9#13029213344E4D4D
(1787603092.041704) can0 1C00A6A9#0000010000030000
(1787603092.042705) can0 02018100#1003021300000000
(1787603092.043704) can0 02028100#000A013464000000
(1787603092.044693) can0 02038100#0CF9010C0CF70101
(1787603092.045683) can0 02048100#4E01014D01030000
(1787603092.046582) can0 1AD#C014F6FF59341C1C
(1787603092.047591) can0 2AD#F90C800CC0140016
(1787603092.048617) can0 3AD#000000000000C014
(1787603092.049614) can0 4AD#EB00000000000000
(1787603092.050618) can0 76A#7F00000000000000
(1787603092.113446) can0 0000E005#17C04B0003B60591
(1787603092.113999) can0 1806E5F4#148B010003B6023A
(1787603092.114680) can0 0000E000#148B148B0213000A
(1787603092.115700) can0 0000E004#1C1B03B603B601F3
(1787603092.116677) can0 0000E006#0CF70CF70CF70CF7
(1787603092.117669) can0 0000E007#0CF70CF70CF70CF7
(1787603092.118666) can0 0000E008#0CF70CF70CF70CF9
(1787603092.119666) can0 0000E009#0CF70CF70CF70CF9
(1787603092.120717) can0 0000E010#0000000000000000
(1787603092.121707) can0 0000E011#0000000000000000
(1787603092.122703) can0 0000E012#0CF8000100000000
(1787603092.123708) can0 0000F001#0000000000000000
(1787603092.124708) can0 18FF28F4#1034000002130000
(1787603092.125690) can0 18FE28F4#0CF90CF744430000
(1787603092.126698) can0 18FD28F4#17C0FA6F00000000
(1787603092.127603) can0 4D4#0000340A7D130203
(1787603092.128583) can0 4D5#F70CF90C43440000
(1787603092.129691) can0 18914010#0CF90C0CF7010000
(1787603092.130666) can0 18904010#02130213753A020D
(1787603092.131690) can0 18FA28F4#D03EA12C1A270000
(1787603092.132668) can0 18FB28F4#F90CF70C44430000
(1787603092.133700) can0 18FC28F4#3A34000013020000
(1787603092.134670) can0 18F810F3#1302DD0334640100
(1787603092.135712) can0 18F815F3#0000000010030000
(1787603092.136624) can0 273#0000000013023400
(1787603092.137586) can0 1E1#0213271A020D020D
(1787603092.138622) can0 1F5#0000000000000000
(1787603092.139709) can0 0800A6A9#0000000000000000
(1787603092.140659) can0 1000A6A9#13029213344E4D4D
(1787603092.141709) can0 1C00A6A9#0000010000030000
(1787603092.142699) can0 02018100#1003021300000000
(1787603092.143699) can0 02028100#000A013464000000
(1787603092.144681) can0 02038100#0CF9010C0CF70101
(1787603092.145701) can0 02048100#4E01014D01030000
(1787603092.146569) can0 1AD#C014F6FF59341C1C
(1787603092.147594) can0 2AD#F90C800CC0140016
(1787603092.148624) can0 3AD#000000000000C014
(1787603092.149624) can0 4AD#EB00000000000000
(1787603092.150625) can0 76A#7F00000000000000
(1787603092.213420) can0 0000E005#17C04B0003B60591
(1787603092.213935) can0 1806E5F4#148B010003B6023A
(1787603092.214693) can0 0000E000#148B148B0213000A
(1787603092.215682) can0 0000E004#1C1B03B603B601F3
(1787603092.216655) can0 0000E006#0CF70CF70CF70CF7
(1787603092.217666) can0 0000E007#0CF70CF70CF90CF7
(1787603092.218666) can0 0000E008#0CF70CF70CF70CF7
(1787603092.219667) can0 0000E009#0CF70CF70CF70CF9
(1787603092.220704) can0 0000E010#0000000000000000
(1787603092.221703) can0 0000E011#0000000000000000
(1787603092.222704) can0 0000E012#0CF8000100000000
(1787603092.223716) can0 0000F001#0000000000000000
(1787603092.224696) can0 18FF28F4#1034000002130000
(1787603092.225672) can0 18FE28F4#0CF90CF744430000
(1787603092.226696) can0 18FD28F4#17C0FA6F00000000
(1787603092.227591) can0 4D4#0000340A7D130203
(1787603092.228572) can0 4D5#F70CF90C43440000
(1787603092.229686) can0 18914010#0CF9070CF7010000
(1787603092.230686) can0 18904010#02130213753A020D
(1787603092.231677) can0 18FA28F4#D03EA12C1A270000
(1787603092.232673) can0 18FB28F4#F90CF70C44430000
(1787603092.233695) can0 18FC28F4#3A34000013020000
(1787603092.234673) can0 18F810F3#1302DD0334640100
(1787603092.235696) can0 18F815F3#0000000010030000
(1787603092.236602) can0 273#0000000013023400
(1787603092.237578) can0 1E1#0213271A020D020D
(1787603092.238657) can0 1F5#0000000000000000
(1787603092.239696) can0 0800A6A9#0000000000000000
(1787603092.240666) can0 1000A6A9#13029213344E4D4D
(1787603092.241695) can0 1C00A6A9#0000010000030000
(1787603092.242696) can0 02018100#1003021300000000
(1787603092.243691) can0 02028100#000A013464000000
(1787603092.244686) can0 02038100#0CF901070CF70101
(1787603092.245685) can0 02048100#4E01014D01030000
(1787603092.246612) can0 1AD#C014F6FF59341C1C
(1787603092.247583) can0 2AD#F90C800CC0140016
(1787603092.248608) can0 3AD#000000000000C014
(1787603092.249598) can0 4AD#EB00000000000000
(1787603092.250632) can0 76A#7F00000000000000
(1787603092.313421) can0 0000E005#17C04B0003B60591
(1787603092.313984) can0 1806E5F4#148B010003B6023A
(1787603092.314681) can0 0000E000#148B148B0213000A
(1787603092.315710) can0 0000E004#1C1B03B603B601F3
(1787603092.316660) can0 0000E006#0CF70CF70CF70CF7
(1787603092.317660) can0 0000E007#0CF70CF70CF90CF7
(1787603092.318662) can0 0000E008#0CF70CF70CF70CF7
(1787603092.319663) can0 0000E009#0CF70CF70CF70CF9
(1787603092.320710) can0 0000E010#0000000000000000
(1787603092.321702) can0 0000E011#0000000000000000
(1787603092.322703) can0 0000E012#0CF8000100000000
(1787603092.323762) can0 0000F001#0000000000000000
(1787603092.324689) can0 18FF28F4#1034000002130000
(1787603092.325681) can0 18FE28F4#0CF90CF744430000
(1787603092.326690) can0 18FD28F4#17C0FA6F00000000
(1787603092.327594) can0 4D4#0000340A7D130203
(1787603092.328569) can0 4D5#F70CF90C43440000
(1787603092.329682) can0 18914010#0CF9070CF7010000
(1787603092.330660) can0 18904010#02130213753A020D
(1787603092.331721) can0 18FA28F4#D03EA12C1A270000
(1787603092.332674) can0 18FB28F4#F90CF70C44430000
(1787603092.333693) can0 18FC28F4#3A34000013020000
(1787603092.334671) can0 18F810F3#1302DD0334640100
(1787603092.335702) can0 18F815F3#0000000010030000
(1787603092.336599) can0 273#0000000013023400
(1787603092.337576) can0 1E1#0213271A020D020D
(1787603092.338606) can0 1F5#0000000000000000
(1787603092.339760) can0 0800A6A9#0000000000000000
(1787603092.340663) can0 1000A6A9#13029213344E4D4D
(1787603092.341703) can0 1C00A6A9#0000010000030000
(1787603092.342702) can0 02018100#1003021300000000
(1787603092.343704) can0 02028100#000A013464000000
(1787603092.344692) can0 02038100#0CF901070CF70101
(1787603092.345672) can0 02048100#4E01014D01030000
(1787603092.346579) can0 1AD#C014F6FF59341C1C
(1787603092.347590) can0 2AD#F90C800CC0140016
(1787603092.348601) can0 3AD#000000000000C014
(1787603092.349599) can0 4AD#EB00000000000000
(1787603092.350619) can0 76A#7F00000000000000
(1787603092.430440) can0 0000E005#17C04B0003B60591
(1787603092.430977) can0 1806E5F4#148B010003B6023A
(1787603092.431680) can0 0000E000#148B148B0213000B
(1787603092.432679) can0 0000E004#1C1B03B603B601F3
(1787603092.433669) can0 0000E006#0CF70CF70CF70CF9
(1787603092.434668) can0 0000E007#0CF70CF70CF90CF7
(1787603092.435670) can0 0000E008#0CF70CF70CF70CF7
(1787603092.436669) can0 0000E009#0CF70CF70CF70CF9
(1787603092.437706) can0 0000E010#0000000000000000
(1787603092.438695) can0 0000E011#0000000000000000
(1787603092.439698) can0 0000E012#0CF8000100000000
(1787603092.440669) can0 0000E013#4542323630354C43
(1787603092.441677) can0 0000E014#3134323300000000
(1787603092.442699) can0 0000E015#0000000000000003
(1787603092.443707) can0 0000F000#0000000000000000
(1787603092.444707) can0 0000F001#0000000000000000
(1787603092.445697) can0 18FF28F4#1034000002130000
(1787603092.446669) can0 18FE28F4#0CF90CF744430000
(1787603092.447677) can0 18FD28F4#17C0FA6F00000000
(1787603092.448592) can0 4D4#0000340B7D130203
(1787603092.449571) can0 4D5#F70CF90C43440000
(1787603092.450662) can0 18914010#0CF9040CF7010000
(1787603092.451667) can0 18904010#02130213753B020D
(1787603092.452680) can0 18924010#4401430300000000
(1787603092.453678) can0 18934010#010100590000C32C
(1787603092.454691) can0 18944010#1003000000000000
(1787603092.455708) can0 18954010#0000000000000000
(1787603092.456710) can0 18954010#0100000000000000
(1787603092.457700) can0 18954010#0200000000000000
(1787603092.458701) can0 18954010#0300000000000000
(1787603092.459696) can0 18954010#0400000000000000
(1787603092.460695) can0 18954010#0500000000000000
(1787603092.461711) can0 18964010#0044444300000000
(1787603092.462696) can0 18974010#0000000000000000
(1787603092.463698) can0 18984010#0000000000000000
(1787603092.464669) can0 18FA28F4#D03EA12C1B270000
(1787603092.465670) can0 18FB28F4#F90CF70C44430000
(1787603092.466675) can0 18FC28F4#3A34000013020000
(1787603092.467669) can0 18F810F3#1302DC0334640100
(1787603092.468679) can0 18F811F3#F90C0401F70C0101
(1787603092.469708) can0 18F812F3#4401014303010000
(1787603092.470699) can0 18F813F3#0101010000000000
(1787603092.471669) can0 18F814F3#3200A81BA9015F00
(1787603092.472689) can0 18F815F3#0000000010030000
(1787603092.473595) can0 273#0000000013023400
(1787603092.474584) can0 1E1#0213271B020D020D
(1787603092.475614) can0 1F5#0000000000000000
(1787603092.476700) can0 0800A6A9#0000000000000000
(1787603092.477699) can0 1000A6A9#13029313344E4D4D
(1787603092.478692) can0 1C00A6A9#0000010000030000
(1787603092.479691) can0 02018100#1003021300000000
(1787603092.480690) can0 02028100#000B013464000000
(1787603092.481680) can0 02038100#0CF901040CF70101
(1787603092.482680) can0 02048100#4E01014D01030000
(1787603092.483587) can0 1AD#C014F5FF59341C1C
(1787603092.484572) can0 2AD#F90C800CC0140016
(1787603092.485665) can0 3AD#000000000000C014
(1787603092.486604) can0 4AD#EB00000000000000
(1787603092.487610) can0 76A#7F00000000000000
(1787603092.546433) can0 0000E005#17C04B0003B60591
(1787603092.546981) can0 1806E5F4#148B010003B6023A
(1787603092.547676) can0 0000E000#148B148B0213000B
(1787603092.548686) can0 0000E004#1C1B03B603B601F3
(1787603092.549675) can0 0000E006#0CF70CF70CF70CF9
(1787603092.550672) can0 0000E007#0CF70CF70CF90CF7
(1787603092.551676) can0 0000E008#0CF70CF70CF70CF7
(1787603092.552675) can0 0000E009#0CF70CF70CF70CF9
(1787603092.553716) can0 0000E010#0000000000000000
(1787603092.554735) can0 0000E011#0000000000000000
(1787603092.555695) can0 0000E012#0CF8000100000000
(1787603092.556704) can0 0000F001#0000000000000000
(1787603092.557685) can0 18FF28F4#1034000002130000
(1787603092.558675) can0 18FE28F4#0CF90CF744430000
(1787603092.559687) can0 18FD28F4#17C0FA6F00000000
(1787603092.560600) can0 4D4#0000340B7D130203
(1787603092.561579) can0 4D5#F70CF90C43440000
(1787603092.562724) can0 18914010#0CF9040CF7010000
(1787603092.563676) can0 18904010#02130213753B020D
(1787603092.564677) can0 18FA28F4#D03EA12C1B270000
(1787603092.565675) can0 18FB28F4#F90CF70C44430000
(1787603092.566685) can0 18FC28F4#3A34000013020000
(1787603092.567675) can0 18F810F3#1302DC0334640100
(1787603092.568703) can0 18F815F3#0000000010030000
(1787603092.569602) can0 273#0000000013023400
(1787603092.570645) can0 1E1#0213271B020D020D
(1787603092.571608) can0 1F5#0000000000000000
(1787603092.572697) can0 0800A6A9#0000000000000000
(1787603092.573678) can0 1000A6A9#13029313344E4D4D
(1787603092.574697) can0 1C00A6A9#0000010000030000
(1787603092.575695) can0 02018100#1003021300000000
(1787603092.576695) can0 02028100#000B013464000000
(1787603092.577685) can0 02038100#0CF901040CF70101
(1787603092.578681) can0 02048100#4E01014D01030000
(1787603092.579571) can0 1AD#C014F5FF59341C1C
(1787603092.580579) can0 2AD#F90C800CC0140016
(1787603092.581610) can0 3AD#000000000000C014
(1787603092.582609) can0 4AD#EB00000000000000
(1787603092.583603) can0 76A#7F00000000000000
(1787603092.646369) can0 0000E005#17C04B0003B60591
(1787603092.646930) can0 1806E5F4#148B010003B6023A
(1787603092.647681) can0 0000E000#148B148B0213000B
(1787603092.648679) can0 0000E004#1C1B03B603B601F3
(1787603092.649654) can0 0000E006#0CF70CF70CF70CF9
(1787603092.650683) can0 0000E007#0CF70CF70CF90CF7
(1787603092.651654) can0 0000E008#0CF70CF70CF70CF7
(1787603092.652654) can0 0000E009#0CF70CF70CF70CF9
(1787603092.653700) can0 0000E010#0000000000000000
(1787603092.654703) can0 0000E011#0000000000000000
(1787603092.655693) can0 0000E012#0CF8000100000000
(1787603092.656712) can0 0000F001#0000000000000000
(1787603092.657684) can0 18FF28F4#1034000002130000
(1787603092.658656) can0 18FE28F4#0CF90CF744430000
(1787603092.659683) can0 18FD28F4#17C0FA6F00000000
(1787603092.660584) can0 4D4#0000340B7D130203
(1787603092.661566) can0 4D5#F70CF90C43440000
(1787603092.662682) can0 18914010#0CF9040CF7010000
(1787603092.663675) can0 18904010#02130213753B020D
(1787603092.664683) can0 18FA28F4#D03EA12C1B270000
(1787603092.665654) can0 18FB28F4#F90CF70C44430000
(1787603092.666682) can0 18FC28F4#3A34000013020000
(1787603092.667650) can0 18F810F3#1302DC0334640100
(1787603092.668702) can0 18F815F3#0000000010030000
(1787603092.669585) can0 273#0000000013023400
(1787603092.670587) can0 1E1#0213271B020D020D
(1787603092.671597) can0 1F5#0000000000000000
(1787603092.672692) can0 0800A6A9#0000000000000000
(1787603092.673654) can0 1000A6A9#13029313344E4D4D
(1787603092.674691) can0 1C00A6A9#0000010000030000
(1787603092.675689) can0 02018100#1003021300000000
(1787603092.676692) can0 02028100#000B013464000000
(1787603092.677683) can0 02038100#0CF901040CF70101
(1787603092.678682) can0 02048100#4E01014D01030000
(1787603092.679558) can0 1AD#C014F5FF59341C1C
(1787603092.680577) can0 2AD#F90C800CC0140016
(1787603092.681607) can0 3AD#000000000000C014
(1787603092.682597) can0 4AD#EB00000000000000
(1787603092.683598) can0 76A#7F00000000000000
(1787603092.746450) can0 0000E005#17C04B0003B60591
(1787603092.746991) can0 1806E5F4#148B010003B6023A
(1787603092.747687) can0 0000E000#148B148B0213000A
(1787603092.748683) can0 0000E004#1C1B03B603B601F3
(1787603092.749661) can0 0000E006#0CF70CF70CF70CF7
(1787603092.750661) can0 0000E007#0CF70CF70CF90CF7
(1787603092.751662) can0 0000E008#0CF70CF70CF70CF9
(1787603092.752657) can0 0000E009#0CF70CF70CF70CF9
(1787603092.753709) can0 0000E010#0000000000000000
(1787603092.754709) can0 0000E011#0000000000000000
(1787603092.755688) can0 0000E012#0CF8000100000000
(1787603092.756698) can0 0000F001#0000000000000000
(1787603092.757688) can0 18FF28F4#1034000002130000
(1787603092.758661) can0 18FE28F4#0CF90CF744430000
(1787603092.759688) can0 18FD28F4#17C0FA6F00000000
(1787603092.760580) can0 4D4#0000340A7D130203
(1787603092.761582) can0 4D5#F70CF90C43440000
(1787603092.762663) can0 18914010#0CF9070CF7010000
(1787603092.763661) can0 18904010#02130213753A020D
(1787603092.764663) can0 18FA28F4#D03EA12C1A270000
(1787603092.765660) can0 18FB28F4#F90CF70C44430000
(1787603092.766687) can0 18FC28F4#3A34000013020000
(1787603092.767662) can0 18F810F3#1302DD0334640100
(1787603092.768689) can0 18F815F3#0000000010030000
(1787603092.769613) can0 273#0000000013023400
(1787603092.770575) can0 1E1#0213271A020D020D
(1787603092.771603) can0 1F5#0000000000000000
(1787603092.772683) can0 0800A6A9#0000000000000000
(1787603092.773661) can0 1000A6A9#13029213344E4D4D
(1787603092.774689) can0 1C00A6A9#0000010000030000
(1787603092.775690) can0 02018100#1003021300000000
(1787603092.776689) can0 02028100#000A013464000000
(1787603092.777721) can0 02038100#0CF901070CF70101
(1787603092.778663) can0 02048100#4E01014D01030000
(1787603092.779568) can0 1AD#C014F6FF59341C1C
(1787603092.780584) can0 2AD#F90C800CC0140016
(1787603092.781591) can0 3AD#000000000000C014
(1787603092.782592) can0 4AD#EB00000000000000
(1787603092.783605) can0 76A#7F00000000000000
(1787603092.846453) can0 0000E005#17C04B0003B60591
(1787603092.846969) can0 1806E5F4#148B010003B6023A
(1787603092.847695) can0 0000E000#148B148B0213000A
(1787603092.848668) can0 0000E004#1C1B03B603B601F3
(1787603092.849662) can0 0000E006#0CF70CF70CF70CF7
(1787603092.850666) can0 0000E007#0CF70CF70CF90CF7
(1787603092.851669) can0 0000E008#0CF70CF70CF70CF9
(1787603092.852640) can0 0000E009#0CF70CF70CF70CF9
(1787603092.853703) can0 0000E010#0000000000000000
(1787603092.854734) can0 0000E011#0000000000000000
(1787603092.855693) can0 0000E012#0CF8000100000000
(1787603092.856695) can0 0000F001#0000000000000000
(1787603092.857687) can0 18FF28F4#1034000002130000
(1787603092.858668) can0 18FE28F4#0CF90CF744430000
(1787603092.859696) can0 18FD28F4#17C0FA6F00000000
(1787603092.860578) can0 4D4#0000340A7D130203
(1787603092.861567) can0 4D5#F70CF90C43440000
(1787603092.862706) can0 18914010#0CF9070CF7010000
(1787603092.863648) can0 18904010#02130213753A020D
(1787603092.864668) can0 18FA28F4#D03EA12C1A270000
(1787603092.865648) can0 18FB28F4#F90CF70C44430000
(1787603092.866694) can0 18FC28F4#3A34000013020000
(1787603092.867669) can0 18F810F3#1302DD0334640100
(1787603092.868695) can0 18F815F3#0000000010030000
(1787603092.869587) can0 273#0000000013023400
(1787603092.870619) can0 1E1#0213271A020D020D
(1787603092.871611) can0 1F5#0000000000000000
(1787603092.872696) can0 0800A6A9#0000000000000000
(1787603092.873666) can0 1000A6A9#13029213344E4D4D
(1787603092.874697) can0 1C00A6A9#0000010000030000
(1787603092.875696) can0 02018100#1003021300000000
(1787603092.876693) can0 02028100#000A013464000000
(1787603092.877669) can0 02038100#0CF901070CF70101
(1787603092.878669) can0 02048100#4E01014D01030000
(1787603092.879570) can0 1AD#C014F6FF59341C1C
(1787603092.880572) can0 2AD#F90C800CC0140016
(1787603092.881588) can0 3AD#000000000000C014
(1787603092.882590) can0 4AD#EB00000000000000
(1787603092.883599) can0 76A#7F00000000000000
(1787603092.963404) can0 0000E005#17C04B0003B60591
(1787603092.963963) can0 1806E5F4#148B010003B6023A
(1787603092.964673) can0 0000E000#148B148B0213000A
(1787603092.965673) can0 0000E004#1C1B03B603B601F3
(1787603092.966644) can0 0000E006#0CF70CF70CF70CF9
(1787603092.967675) can0 0000E007#0CF90CF70CF90CF9
(1787603092.968637) can0 0000E008#0CF70CF70CF70CF7
(1787603092.969655) can0 0000E009#0CF90CF70CF70CF9
(1787603092.970700) can0 0000E010#0000000000000000
(1787603092.971695) can0 0000E011#0000000000000000
(1787603092.972700) can0 0000E012#0CF8000100000000
(1787603092.973645) can0 0000E013#4542323630354C43
(1787603092.974676) can0 0000E014#3134323300000000
(1787603092.975679) can0 0000E015#0000000000000003
(1787603092.976700) can0 0000F000#0000000000000000
(1787603092.977702) can0 0000F001#0000000000000000
(1787603092.978676) can0 18FF28F4#1034000002130000
(1787603092.979657) can0 18FE28F4#0CF90CF744430000
(1787603092.980674) can0 18FD28F4#17C0FA6F00000000
(1787603092.981586) can0 4D4#0000340A7D130203
(1787603092.982576) can0 4D5#F70CF90C43440000
(1787603092.983669) can0 18914010#0CF9040CF7010000
(1787603092.984657) can0 18904010#02130213753A020D
(1787603092.985676) can0 18924010#4401430300000000
(1787603092.986676) can0 18934010#0101005A0000C32C
(1787603092.987679) can0 18944010#1003000000000000
(1787603092.988701) can0 18954010#0000000000000000
(1787603092.989701) can0 18954010#0100000000000000
(1787603092.990701) can0 18954010#0200000000000000
(1787603092.991702) can0 18954010#0300000000000000
(1787603092.992714) can0 18954010#0400000000000000
(1787603092.993677) can0 18954010#0500000000000000
(1787603092.994676) can0 18964010#0044444300000000
(1787603092.995699) can0 18974010#0000000000000000
(1787603092.996677) can0 18984010#0000000000000000
(1787603092.997658) can0 18FA28F4#D03EA12C1A270000
(1787603092.998662) can0 18FB28F4#F90CF70C44430000
(1787603092.999672) can0 18FC28F4#3A34000013020000
(1787603093.000675) can0 18F810F3#1302DD0334640100
(1787603093.001656) can0 18F811F3#F90C0401F70C0101
(1787603093.002656) can0 18F812F3#4401014303010000
(1787603093.003702) can0 18F813F3#0101010000000000
(1787603093.004677) can0 18F814F3#3200A81BA9015F00
(1787603093.005704) can0 18F815F3#0000000010030000
(1787603093.006589) can0 273#0000000013023400
(1787603093.007574) can0 1E1#0213271A020D020D
(1787603093.008629) can0 1F5#0000000000000000
(1787603093.009707) can0 0800A6A9#0000000000000000
(1787603093.010642) can0 1000A6A9#13029213344E4D4D
(1787603093.011682) can0 1C00A6A9#0000010000030000
(1787603093.012676) can0 02018100#1003021300000000
(1787603093.013678) can0 02028100#000A013464000000
(1787603093.014676) can0 02038100#0CF901040CF70101
(1787603093.015677) can0 02048100#4E01014D01030000
(1787603093.016589) can0 1AD#C014F6FF59341C1C
(1787603093.017579) can0 2AD#F90C800CC0140016
(1787603093.018601) can0 3AD#000000000000C014
(1787603093.019596) can0 4AD#EB00000000000000
(1787603093.020599) can0 76A#7F00000000000000
(1787603093.079356) can0 0000E005#17C04B0003B60591
(1787603093.079909) can0 1806E5F4#148B010003B6023A
(1787603093.080676) can0 0000E000#148B148B0213000A
(1787603093.081659) can0 0000E004#1C1B03B603B601F3
(1787603093.082641) can0 0000E006#0CF70CF70CF70CF9
(1787603093.083655) can0 0000E007#0CF90CF70CF90CF9
(1787603093.084632) can0 0000E008#0CF70CF70CF70CF7
(1787603093.085682) can0 0000E009#0CF90CF70CF70CF9
(1787603093.086710) can0 0000E010#0000000000000000
(1787603093.087708) can0 0000E011#0000000000000000
(1787603093.088681) can0 0000E012#0CF8000100000000
(1787603093.089707) can0 0000F001#0000000000000000
(1787603093.090682) can0 18FF28F4#1034000002130000
(1787603093.091664) can0 18FE28F4#0CF90CF744430000
(1787603093.092678) can0 18FD28F4#17C0FA6F00000000
(1787603093.093624) can0 4D4#0000340A7D130203
(1787603093.094558) can0 4D5#F70CF90C43440000
(1787603093.095663) can0 18914010#0CF9040CF7010000
(1787603093.096652) can0 18904010#02130213753A020D
(1787603093.097664) can0 18FA28F4#D03EA12C1A270000
(1787603093.098642) can0 18FB28F4#F90CF70C44430000
(1787603093.099683) can0 18FC28F4#3A34000013020000
(1787603093.100652) can0 18F810F3#1302DD0334640100
(1787603093.101730) can0 18F815F3#0000000010030000
(1787603093.102585) can0 273#0000000013023400
(1787603093.103558) can0 1E1#0213271A020D020D
(1787603093.104596) can0 1F5#0000000000000000
(1787603093.105683) can0 0800A6A9#0000000000000000
(1787603093.106635) can0 1000A6A9#13029213344E4D4D
(1787603093.107684) can0 1C00A6A9#0000010000030000
(1787603093.108683) can0 02018100#1003021300000000
(1787603093.109684) can0 02028100#000A013464000000
(1787603093.110683) can0 02038100#0CF901040CF70101
(1787603093.111680) can0 02048100#4E01014D01030000
(1787603093.112557) can0 1AD#C014F6FF59341C1C
(1787603093.113584) can0 2AD#F90C800CC0140016
(1787603093.114596) can0 3AD#000000000000C014
(1787603093.115584) can0 4AD#EB00000000000000
(1787603093.116591) can0 76A#7F00000000000000
(1787603093.179415) can0 0000E005#17C04B0003B60591
(1787603093.179969) can0 1806E5F4#148B010003B6023A
(1787603093.180660) can0 0000E000#148B148B0213000A
(1787603093.181657) can0 0000E004#1C1B03B603B601F3
(1787603093.182637) can0 0000E006#0CF70CF70CF70CF9
(1787603093.183651) can0 0000E007#0CF90CF70CF90CF9
(1787603093.184628) can0 0000E008#0CF70CF70CF70CF7
(1787603093.185647) can0 0000E009#0CF90CF70CF70CF9
(1787603093.186711) can0 0000E010#0000000000000000
(1787603093.187689) can0 0000E011#0000000000000000
(1787603093.188683) can0 0000E012#0CF8000100000000
(1787603093.189687) can0 0000F001#0000000000000000
(1787603093.190669) can0 18FF28F4#1034000002130000
(1787603093.191652) can0 18FE28F4#0CF90CF744430000
(1787603093.192668) can0 18FD28F4#17C0FA6F00000000
(1787603093.193590) can0 4D4#0000340A7D130203
(1787603093.194562) can0 4D5#F70CF90C43440000
(1787603093.195657) can0 18914010#0CF9040CF7010000
(1787603093.196639) can0 18904010#02130213753A020D
(1787603093.197659) can0 18FA28F4#D03EA12C1A270000
(1787603093.198664) can0 18FB28F4#F90CF70C44430000
(1787603093.199672) can0 18FC28F4#3A34000013020000
(1787603093.200645) can0 18F810F3#1302DD0334640100
(1787603093.201688) can0 18F815F3#0000000010030000
(1787603093.202590) can0 273#0000000013023400
(1787603093.203565) can0 1E1#0213271A020D020D
(1787603093.204590) can0 1F5#0000000000000000
(1787603093.205687) can0 0800A6A9#0000000000000000
(1787603093.206637) can0 1000A6A9#13029213344E4D4D
(1787603093.207691) can0 1C00A6A9#0000010000030000
(1787603093.208683) can0 02018100#1003021300000000
(1787603093.209688) can0 02028100#000A013464000000
(1787603093.210669) can0 02038100#0CF901040CF70101
(1787603093.211670) can0 02048100#4E01014D01030000
(1787603093.212560) can0 1AD#C014F6FF59341C1C
(1787603093.213565) can0 2AD#F90C800CC0140016
(1787603093.214588) can0 3AD#000000000000C014
(1787603093.215602) can0 4AD#EB00000000000000
(1787603093.216591) can0 76A#7F00000000000000
(1787603093.279408) can0 0000E005#17C04B0003B60591
(1787603093.279972) can0 1806E5F4#148B010003B6023A
(1787603093.280664) can0 0000E000#148B148B0213000B
(1787603093.281657) can0 0000E004#1C1B03B603B601F3
(1787603093.282644) can0 0000E006#0CF70CF70CF70CF7
(1787603093.283657) can0 0000E007#0CF70CF70CF70CF9
(1787603093.284634) can0 0000E008#0CF70CF70CF70CF7
(1787603093.285641) can0 0000E009#0CF90CF70CF70CF9
(1787603093.286694) can0 0000E010#0000000000000000
(1787603093.287693) can0 0000E011#0000000000000000
(1787603093.288676) can0 0000E012#0CF8000100000000
(1787603093.289693) can0 0000F001#0000000000000000
(1787603093.290667) can0 18FF28F4#1034000002130000
(1787603093.291654) can0 18FE28F4#0CF90CF744430000
(1787603093.292675) can0 18FD28F4#17C0FA6F00000000
(1787603093.293589) can0 4D4#0000340B7D130203
(1787603093.294570) can0 4D5#F70CF90C43440000
(1787603093.295654) can0 18914010#0CF9080CF7010000
(1787603093.296646) can0 18904010#02130213753B020D
(1787603093.297639) can0 18FA28F4#D03EA12C1B270000
(1787603093.298647) can0 18FB28F4#F90CF70C44430000
(1787603093.299658) can0 18FC28F4#3A34000013020000
(1787603093.300678) can0 18F810F3#1302DC0334640100
(1787603093.301695) can0 18F815F3#0000000010030000
(1787603093.302571) can0 273#0000000013023400
(1787603093.303571) can0 1E1#0213271B020D020D
(1787603093.304604) can0 1F5#0000000000000000
(1787603093.305668) can0 0800A6A9#0000000000000000
(1787603093.306646) can0 1000A6A9#13029313344E4D4D
(1787603093.307676) can0 1C00A6A9#0000010000030000
(1787603093.308718) can0 02018100#1003021300000000
(1787603093.309691) can0 02028100#000B013464000000
(1787603093.310666) can0 02038100#0CF901080CF70101
(1787603093.311658) can0 02048100#4E01014D01030000
(1787603093.312571) can0 1AD#C014F5FF59341C1C
(1787603093.313570) can0 2AD#F90C800CC0140016
(1787603093.314594) can0 3AD#000000000000C014
(1787603093.315597) can0 4AD#EB00000000000000
(1787603093.316616) can0 76A#7F00000000000000
(1787603093.379360) can0 0000E005#17C04B0003B60591
(1787603093.379914) can0 1806E5F4#148B010003B6023A
(1787603093.380651) can0 0000E000#148B148B0213000B
(1787603093.381672) can0 0000E004#1C1B03B603B601F3
(1787603093.382634) can0 0000E006#0CF70CF70CF70CF7
(1787603093.383642) can0 0000E007#0CF70CF70CF70CF9
(1787603093.384643) can0 0000E008#0CF70CF70CF70CF7
(1787603093.385672) can0 0000E009#0CF90CF70CF70CF9
(1787603093.386701) can0 0000E010#0000000000000000
(1787603093.387682) can0 0000E011#0000000000000000
(1787603093.388682) can0 0000E012#0CF8000100000000
(1787603093.389700) can0 0000F001#0000000000000000
(1787603093.390675) can0 18FF28F4#1034000002130000
(1787603093.391652) can0 18FE28F4#0CF90CF744430000
(1787603093.392672) can0 18FD28F4#17C0FA6F00000000
(1787603093.393604) can0 4D4#0000340B7D130203
(1787603093.394539) can0 4D5#F70CF90C43440000
(1787603093.395661) can0 18914010#0CF9080CF7010000
(1787603093.396641) can0 18904010#02130213753B020D
(1787603093.397650) can0 18FA28F4#D03EA12C1B270000
(1787603093.398652) can0 18FB28F4#F90CF70C44430000
(1787603093.399666) can0 18FC28F4#3A34000013020000
(1787603093.400653) can0 18F810F3#1302DC0334640100
(1787603093.401729) can0 18F815F3#0000000010030000
(1787603093.402574) can0 273#0000000013023400
(1787603093.403557) can0 1E1#0213271B020D020D
(1787603093.404601) can0 1F5#0000000000000000
(1787603093.405682) can0 0800A6A9#0000000000000000
(1787603093.406634) can0 1000A6A9#13029313344E4D4D
(1787603093.407674) can0 1C00A6A9#0000010000030000
(1787603093.408673) can0 02018100#1003021300000000
(1787603093.409727) can0 02028100#000B013464000000
(1787603093.410662) can0 02038100#0CF901080CF70101
(1787603093.411662) can0 02048100#4E01014D01030000
(1787603093.412557) can0 1AD#C014F5FF59341C1C
(1787603093.413554) can0 2AD#F90C800CC0140016
(1787603093.414596) can0 3AD#000000000000C014
(1787603093.415576) can0 4AD#EB00000000000000
(1787603093.416576) can0 76A#7F00000000000000
(1787603093.496346) can0 0000E005#17C04B0003B60591
(1787603093.496918) can0 1806E5F4#148B010003B6023A
(1787603093.497648) can0 0000E000#148B148B0213000A
(1787603093.498647) can0 0000E004#1C1B03B603B601F3
(1787603093.499627) can0 0000E006#0CF70CF70CF70CF9
(1787603093.500630) can0 0000E007#0CF70CF70CF70CF7
(1787603093.501638) can0 0000E008#0CF70CF70CF90CF7
(1787603093.502640) can0 0000E009#0CF70CF70CF70CF9
(1787603093.503688) can0 0000E010#0000000000000000
(1787603093.504683) can0 0000E011#0000000000000000
(1787603093.505680) can0 0000E012#0CF8000100000000
(1787603093.506629) can0 0000E013#4542323630354C43
(1787603093.507659) can0 0000E014#3134323300000000
(1787603093.508664) can0 0000E015#0000000000000003
(1787603093.509688) can0 0000F000#0000000000000000
(1787603093.510678) can0 0000F001#0000000000000000
(1787603093.511659) can0 18FF28F4#1034000002130000
(1787603093.512650) can0 18FE28F4#0CF90CF744430000
(1787603093.513659) can0 18FD28F4#17C0FA6F00000000
(1787603093.514585) can0 4D4#0000340A7D130203
(1787603093.515553) can0 4D5#F70CF90C43440000
(1787603093.516648) can0 18914010#0CF9040CF7010000
(1787603093.517631) can0 18904010#02130213753A020D
(1787603093.518651) can0 18924010#4401430300000000
(1787603093.519640) can0 18934010#0101005B0000C32C
(1787603093.520665) can0 18944010#1003000000000000
(1787603093.521688) can0 18954010#0000000000000000
(1787603093.522678) can0 18954010#0100000000000000
(1787603093.523707) can0 18954010#0200000000000000
(1787603093.524680) can0 18954010#0300000000000000
(1787603093.525679) can0 18954010#0400000000000000
(1787603093.526668) can0 18954010#0500000000000000
(1787603093.527670) can0 18964010#0044444300000000
(1787603093.528673) can0 18974010#0000000000000000
(1787603093.529680) can0 18984010#0000000000000000
(1787603093.530636) can0 18FA28F4#D03EA12C1A270000
(1787603093.531649) can0 18FB28F4#F90CF70C44430000
(1787603093.532664) can0 18FC28F4#3A34000013020000
(1787603093.533639) can0 18F810F3#1302DD0334640100
(1787603093.534639) can0 18F811F3#F90C0401F70C0101
(1787603093.535651) can0 18F812F3#4401014303010000
(1787603093.536671) can0 18F813F3#0101010000000000
(1787603093.537640) can0 18F814F3#3200A81BA9015F00
(1787603093.538670) can0 18F815F3#0000000010030000
(1787603093.539609) can0 273#0000000013023400
(1787603093.540546) can0 1E1#0213271A020D020D
(1787603093.541608) can0 1F5#0000000000000000
(1787603093.542674) can0 0800A6A9#0000000000000000
(1787603093.543644) can0 1000A6A9#13029213344E4D4D
(1787603093.544668) can0 1C00A6A9#0000010000030000
(1787603093.545660) can0 02018100#1003021300000000
(1787603093.546661) can0 02028100#000A013464000000
(1787603093.547710) can0 02038100#0CF901040CF70101
(1787603093.548651) can0 02048100#4E01014D01030000
(1787603093.549562) can0 1AD#C014F6FF59341C1C
(1787603093.550559) can0 2AD#F90C800CC0140016
(1787603093.551587) can0 3AD#000000000000C014
(1787603093.552582) can0 4AD#EB00000000000000
(1787603093.553584) can0 76A#7F00000000000000
(1787603093.636351) can0 0000E005#17C04B0003B60591
(1787603093.636908) can0 1806E5F4#148B010003B6023A
(1787603093.637638) can0 0000E000#148B148B0213000A
(1787603093.638654) can0 0000E004#1C1B03B603B601F3
(1787603093.639638) can0 0000E006#0CF70CF70CF70CF9
(1787603093.640636) can0 0000E007#0CF70CF70CF70CF7
(1787603093.641646) can0 0000E008#0CF70CF70CF90CF7
(1787603093.642627) can0 0000E009#0CF70CF70CF70CF9
(1787603093.643674) can0 0000E010#0000000000000000
(1787603093.644677) can0 0000E011#0000000000000000
(1787603093.645668) can0 0000E012#0CF8000100000000
(1787603093.646688) can0 0000F001#0000000000000000
(1787603093.647667) can0 18FF28F4#1034000002130000
(1787603093.648647) can0 18FE28F4#0CF90CF744430000
(1787603093.649661) can0 18FD28F4#17C0FA6F00000000
(1787603093.650559) can0 4D4#0000340A7D130203
(1787603093.651542) can0 4D5#F70CF90C43440000
(1787603093.652654) can0 18914010#0CF9040CF7010000
(1787603093.653640) can0 18904010#02130213753A020D
(1787603093.654644) can0 18FA28F4#D03EA12C1A270000
(1787603093.655638) can0 18FB28F4#F90CF70C44430000
(1787603093.656657) can0 18FC28F4#3A34000013020000
(1787603093.657634) can0 18F810F3#1302DD0334640100
(1787603093.658667) can0 18F815F3#0000000010030000
(1787603093.659563) can0 273#0000000013023400
(1787603093.660553) can0 1E1#0213271A020D020D
(1787603093.661585) can0 1F5#0000000000000000
(1787603093.662665) can0 0800A6A9#0000000000000000
(1787603093.663638) can0 1000A6A9#13029213344E4D4D
(1787603093.664667) can0 1C00A6A9#0000010000030000
(1787603093.665669) can0 02018100#1003021300000000
(1787603093.666658) can0 02028100#000A013464000000
(1787603093.667656) can0 02038100#0CF901040CF70101
(1787603093.668658) can0 02048100#4E01014D01030000
(1787603093.669545) can0 1AD#C014F6FF59341C1C
(1787603093.670552) can0 2AD#F90C800CC0140016
(1787603093.671592) can0 3AD#000000000000C014
(1787603093.672572) can0 4AD#EB00000000000000
(1787603093.673586) can0 76A#7F00000000000000
(1787603093.736396) can0 0000E005#17C04B0003B60591
(1787603093.736954) can0 1806E5F4#148B010003B6023A
(1787603093.737642) can0 0000E000#148B148B0213000A
(1787603093.738664) can0 0000E004#1C1B03B603B601F3
(1787603093.739623) can0 0000E006#0CF70CF70CF70CF9
(1787603093.740623) can0 0000E007#0CF70CF70CF70CF7
(1787603093.741632) can0 0000E008#0CF70CF70CF90CF7
(1787603093.742629) can0 0000E009#0CF70CF70CF70CF9
(1787603093.743681) can0 0000E010#0000000000000000
(1787603093.744672) can0 0000E011#0000000000000000
(1787603093.745672) can0 0000E012#0CF8000100000000
(1787603093.746678) can0 0000F001#0000000000000000
(1787603093.747673) can0 18FF28F4#1034000002130000
(1787603093.748643) can0 18FE28F4#0CF90CF744430000
(1787603093.749663) can0 18FD28F4#17C0FA6F00000000
(1787603093.750557) can0 4D4#0000340A7D130203
(1787603093.751538) can0 4D5#F70CF90C43440000
(1787603093.752653) can0 18914010#0CF9040CF7010000
(1787603093.753633) can0 18904010#02130213753A020D
(1787603093.754662) can0 18FA28F4#D03EA12C1A270000
(1787603093.755633) can0 18FB28F4#F90CF70C44430000
(1787603093.756664) can0 18FC28F4#3A34000013020000
(1787603093.757645) can0 18F810F3#1302DD0334640100
(1787603093.758673) can0 18F815F3#0000000010030000
(1787603093.759568) can0 273#0000000013023400
(1787603093.760548) can0 1E1#0213271A020D020D
(1787603093.761576) can0 1F5#0000000000000000
(1787603093.762693) can0 0800A6A9#0000000000000000
(1787603093.763624) can0 1000A6A9#13029213344E4D4D
(1787603093.764675) can0 1C00A6A9#0000010000030000
(1787603093.765667) can0 02018100#1003021300000000
(1787603093.766666) can0 02028100#000A013464000000
(1787603093.767666) can0 02038100#0CF901040CF70101
(1787603093.768652) can0 02048100#4E01014D01030000
(1787603093.769540) can0 1AD#C014F6FF59341C1C
(1787603093.770597) can0 2AD#F90C800CC0140016
(1787603093.771569) can0 3AD#000000000000C014
(1787603093.772579) can0 4AD#EB00000000000000
(1787603093.773579) can0 76A#7F00000000000000
(1787603093.836367) can0 0000E005#17C04B0003B60591
(1787603093.836919) can0 1806E5F4#148B010003B6023A
(1787603093.837640) can0 0000E000#148B148B0213000A
(1787603093.838658) can0 0000E004#1C1B03B603B601F3
(1787603093.839652) can0 0000E006#0CF70CF70CF70CF7
(1787603093.840626) can0 0000E007#0CF70CF90CF90CF7
(1787603093.841627) can0 0000E008#0CF70CF70CF70CF7
(1787603093.842627) can0 0000E009#0CF90CF70CF70CF9
(1787603093.843681) can0 0000E010#0000000000000000
(1787603093.844671) can0 0000E011#0000000000000000
(1787603093.845668) can0 0000E012#0CF8000100000000
(1787603093.846668) can0 0000F001#0000000000000000
(1787603093.847699) can0 18FF28F4#1034000002130000
(1787603093.848650) can0 18FE28F4#0CF90CF744430000
(1787603093.849660) can0 18FD28F4#17C0FA6F00000000
(1787603093.850554) can0 4D4#0000340A7D130203
(1787603093.851547) can0 4D5#F70CF90C43440000
(1787603093.852651) can0 18914010#0CF9060CF7010000
(1787603093.853631) can0 18904010#02130213753A020D
(1787603093.854641) can0 18FA28F4#D03EA12C1A270000
(1787603093.855679) can0 18FB28F4#F90CF70C44430000
(1787603093.856660) can0 18FC28F4#3A34000013020000
(1787603093.857641) can0 18F810F3#1302DD0334640100
(1787603093.858670) can0 18F815F3#0000000010030000
(1787603093.859574) can0 273#0000000013023400
(1787603093.860555) can0 1E1#0213271A020D020D
(1787603093.861584) can0 1F5#0000000000000000
(1787603093.862659) can0 0800A6A9#0000000000000000
(1787603093.863671) can0 1000A6A9#13029213344E4D4D
(1787603093.864652) can0 1C00A6A9#0000010000030000
(1787603093.865672) can0 02018100#1003021300000000
(1787603093.866663) can0 02028100#000A013464000000
(1787603093.867662) can0 02038100#0CF901060CF70101
(1787603093.868642) can0 02048100#4E01014D01030000
(1787603093.869547) can0 1AD#C014F6FF59341C1C
(1787603093.870557) can0 2AD#F90C800CC0140016
(1787603093.871567) can0 3AD#000000000000C014
(1787603093.872575) can0 4AD#EB00000000000000
(1787603093.873574) can0 76A#7F00000000000000
(1787603093.936336) can0 0000E005#17C04B0003B60591
(1787603093.936887) can0 1806E5F4#148B010003B6023A
(1787603093.937643) can0 0000E000#148B148B0213000A
(1787603093.938637) can0 0000E004#1C1B03B603B601F3
(1787603093.939636) can0 0000E006#0CF70CF70CF70CF7
(1787603093.940676) can0 0000E007#0CF70CF90CF90CF7
(1787603093.941635) can0 0000E008#0CF70CF70CF70CF7
(1787603093.942635) can0 0000E009#0CF90CF70CF70CF9
(1787603093.943666) can0 0000E010#0000000000000000
(1787603093.944663) can0 0000E011#0000000000000000
(1787603093.945667) can0 0000E012#0CF8000100000000
(1787603093.946676) can0 0000F001#0000000000000000
(1787603093.947653) can0 18FF28F4#1034000002130000
(1787603093.948635) can0 18FE28F4#0CF90CF744430000
(1787603093.949655) can0 18FD28F4#17C0FA6F00000000
(1787603093.950547) can0 4D4#0000340A7D130203
(1787603093.951529) can0 4D5#F70CF90C43440000
(1787603093.952646) can0 18914010#0CF9060CF7010000
(1787603093.953633) can0 18904010#02130213753A020D
(1787603093.954636) can0 18FA28F4#D03EA12C1A270000
(1787603093.955635) can0 18FB28F4#F90CF70C44430000
(1787603093.956646) can0 18FC28F4#3A34000013020000
(1787603093.957635) can0 18F810F3#1302DD0334640100
(1787603093.958665) can0 18F815F3#0000000010030000
(1787603093.959562) can0 273#0000000013023400
(1787603093.960538) can0 1E1#0213271A020D020D
(1787603093.961570) can0 1F5#0000000000000000
(1787603093.962668) can0 0800A6A9#0000000000000000
(1787603093.963611) can0 1000A6A9#13029213344E4D4D
(1787603093.964666) can0 1C00A6A9#0000010000030000
(1787603093.965657) can0 02018100#1003021300000000
(1787603093.966656) can0 02028100#000A013464000000
(1787603093.967656) can0 02038100#0CF901060CF70101
(1787603093.968646) can0 02048100#4E01014D01030000
(1787603093.969552) can0 1AD#C014F6FF59341C1C
(1787603093.970541) can0 2AD#F90C800CC0140016
(1787603093.971562) can0 3AD#000000000000C014
(1787603093.972571) can0 4AD#EB00000000000000
(1787603093.973561) can0 76A#7F00000000000000
(1787603094.053344) can0 0000E005#17C04B0003B60591
(1787603094.053905) can0 1806E5F4#148B010003B6023A
(1787603094.054640) can0 0000E000#148B148B0213000B
(1787603094.055643) can0 0000E004#1C1B03B603B601F3
(1787603094.056642) can0 0000E006#0CF70CF70CF90CF9
(1787603094.057616) can0 0000E007#0CF70CF70CF70CF7
(1787603094.058643) can0 0000E008#0CF70CF70CF90CF7
(1787603094.059643) can0 0000E009#0CF70CF70CF70CF9
(1787603094.060672) can0 0000E010#0000000000000000
(1787603094.061661) can0 0000E011#0000000000000000
(1787603094.062683) can0 0000E012#0CF8000100000000
(1787603094.063616) can0 0000E013#4542323630354C43
(1787603094.064642) can0 0000E014#3134323300000000
(1787603094.065652) can0 0000E015#0000000000000003
(1787603094.066670) can0 0000F000#0000000000000000
(1787603094.067674) can0 0000F001#0000000000000000
(1787603094.068652) can0 18FF28F4#1034000002130000
(1787603094.069645) can0 18FE28F4#0CF90CF744430000
(1787603094.070675) can0 18FD28F4#17C0FA6F00000000
(1787603094.071555) can0 4D4#0000340B7D130203
(1787603094.072539) can0 4D5#F70CF90C43440000
(1787603094.073637) can0 18914010#0CF9030CF7010000
(1787603094.074643) can0 18904010#02130213753B020D
(1787603094.075642) can0 18924010#4401430300000000
(1787603094.076643) can0 18934010#0101005C0000C32C
(1787603094.077653) can0 18944010#1003000000000000
(1787603094.078703) can0 18954010#0000000000000000
(1787603094.079663) can0 18954010#0100000000000000
(1787603094.080665) can0 18954010#0200000000000000
(1787603094.081663) can0 18954010#0300000000000000
(1787603094.082663) can0 18954010#0400000000000000
(1787603094.083654) can0 18954010#0500000000000000
(1787603094.084653) can0 18964010#0044444300000000
(1787603094.085660) can0 18974010#0000000000000000
(1787603094.086694) can0 18984010#0000000000000000
(1787603094.087644) can0 18FA28F4#D03EA12C1B270000
(1787603094.088616) can0 18FB28F4#F90CF70C44430000
(1787603094.089644) can0 18FC28F4#3A34000013020000
(1787603094.090644) can0 18F810F3#1302DC0334640100
(1787603094.091645) can0 18F811F3#F90C0301F70C0101
(1787603094.092644) can0 18F812F3#4401014303010000
(1787603094.093664) can0 18F813F3#0101010000000000
(1787603094.094674) can0 18F814F3#3200A81BA9015F00
(1787603094.095654) can0 18F815F3#0000000010030000
(1787603094.096559) can0 273#0000000013023400
(1787603094.097547) can0 1E1#0213271B020D020D
(1787603094.098579) can0 1F5#0000000000000000
(1787603094.099654) can0 0800A6A9#0000000000000000
(1787603094.100625) can0 1000A6A9#13029313344E4D4D
(1787603094.101648) can0 1C00A6A9#0000010000030000
(1787603094.102656) can0 02018100#1003021300000000
(1787603094.103646) can0 02028100#000B013464000000
(1787603094.104646) can0 02038100#0CF901030CF70101
(1787603094.105644) can0 02048100#4E01014D01030000
(1787603094.106539) can0 1AD#C014F5FF59341C1C
(1787603094.107541) can0 2AD#F90C800CC0140016
(1787603094.108569) can0 3AD#000000000000C014
(1787603094.109568) can0 4AD#EB00000000000000
(1787603094.110578) can0 76A#7F00000000000000
(1787603094.169380) can0 0000E005#17C04B0003B60591
(1787603094.169939) can0 1806E5F4#148B010003B6023A
(1787603094.170648) can0 0000E000#148B148B0213000B
(1787603094.171689) can0 0000E004#1C1B03B603B601F3
(1787603094.172623) can0 0000E006#0CF70CF70CF90CF9
(1787603094.173622) can0 0000E007#0CF70CF70CF70CF7
(1787603094.174648) can0 0000E008#0CF70CF70CF90CF7
(1787603094.175625) can0 0000E009#0CF70CF70CF70CF9
(1787603094.176681) can0 0000E010#0000000000000000
(1787603094.177669) can0 0000E011#0000000000000000
(1787603094.178657) can0 0000E012#0CF8000100000000
(1787603094.179670) can0 0000F001#0000000000000000
(1787603094.180649) can0 18FF28F4#1034000002130000
(1787603094.181650) can0 18FE28F4#0CF90CF744430000
(1787603094.182648) can0 18FD28F4#17C0FA6F00000000
(1787603094.183556) can0 4D4#0000340B7D130203
(1787603094.184534) can0 4D5#F70CF90C43440000
(1787603094.185649) can0 18914010#0CF9030CF7010000
(1787603094.186622) can0 18904010#02130213753B020D
(1787603094.187650) can0 18FA28F4#D03EA12C1B270000
(1787603094.188623) can0 18FB28F4#F90CF70C44430000
(1787603094.189650) can0 18FC28F4#3A34000013020000
(1787603094.190644) can0 18F810F3#1302DC0334640100
(1787603094.191663) can0 18F815F3#0000000010030000
(1787603094.192562) can0 273#0000000013023400
(1787603094.193555) can0 1E1#0213271B020D020D
(1787603094.194565) can0 1F5#0000000000000000
(1787603094.195660) can0 0800A6A9#0000000000000000
(1787603094.196624) can0 1000A6A9#13029313344E4D4D
(1787603094.197658) can0 1C00A6A9#0000010000030000
(1787603094.198660) can0 02018100#1003021300000000
(1787603094.199654) can0 02028100#000B013464000000
(1787603094.200653) can0 02038100#0CF901030CF70101
(1787603094.201650) can0 02048100#4E01014D01030000
(1787603094.202542) can0 1AD#C014F5FF59341C1C
(1787603094.203554) can0 2AD#F90C800CC0140016
(1787603094.204566) can0 3AD#000000000000C014
(1787603094.205577) can0 4AD#EB00000000000000
(1787603094.206576) can0 76A#7F00000000000000
(1787603094.269376) can0 0000E005#17C04B0003B60591
(1787603094.269935) can0 1806E5F4#148B010003B6023A
(1787603094.270654) can0 0000E000#148B148B0213000B
(1787603094.271658) can0 0000E004#1C1B03B603B601F3
(1787603094.272629) can0 0000E006#0CF70CF70CF90CF9
(1787603094.273608) can0 0000E007#0CF70CF70CF70CF7
(1787603094.274630) can0 0000E008#0CF70CF70CF90CF7
(1787603094.275625) can0 0000E009#0CF70CF70CF70CF9
(1787603094.276665) can0 0000E010#0000000000000000
(1787603094.277667) can0 0000E011#0000000000000000
(1787603094.278665) can0 0000E012#0CF8000100000000
(1787603094.279654) can0 0000F001#0000000000000000
(1787603094.280657) can0 18FF28F4#1034000002130000
(1787603094.281628) can0 18FE28F4#0CF90CF744430000
(1787603094.282658) can0 18FD28F4#17C0FA6F00000000
(1787603094.283550) can0 4D4#0000340B7D130203
(1787603094.284532) can0 4D5#F70CF90C43440000
(1787603094.285656) can0 18914010#0CF9030CF7010000
(1787603094.286629) can0 18904010#02130213753B020D
(1787603094.287652) can0 18FA28F4#D03EA12C1B270000
(1787603094.288629) can0 18FB28F4#F90CF70C44430000
(1787603094.289656) can0 18FC28F4#3A34000013020000
(1787603094.290631) can0 18F810F3#1302DC0334640100
(1787603094.291655) can0 18F815F3#0000000010030000
(1787603094.292561) can0 273#0000000013023400
(1787603094.293568) can0 1E1#0213271B020D020D
(1787603094.294570) can0 1F5#0000000000000000
(1787603094.295667) can0 0800A6A9#0000000000000000
(1787603094.296609) can0 1000A6A9#13029313344E4D4D
(1787603094.297654) can0 1C00A6A9#0000010000030000
(1787603094.298657) can0 02018100#1003021300000000
(1787603094.299653) can0 02028100#000B013464000000
(1787603094.300629) can0 02038100#0CF901030CF70101
(1787603094.301667) can0 02048100#4E01014D01030000
(1787603094.302531) can0 1AD#C014F5FF59341C1C
(1787603094.303539) can0 2AD#F90C800CC0140016
(1787603094.304573) can0 3AD#000000000000C014
(1787603094.305563) can0 4AD#EB00000000000000
(1787603094.306562) can0 76A#7F00000000000000
(1787603094.369334) can0 0000E005#17C04B0003B60591
(1787603094.369887) can0 1806E5F4#148B010003B6023A
(1787603094.370662) can0 0000E000#148B148B0213000A
(1787603094.371662) can0 0000E004#1C1B03B603B601F3
(1787603094.372611) can0 0000E006#0CF70CF70CF70CF7
(1787603094.373618) can0 0000E007#0CF70CF90CF90CF7
(1787603094.374617) can0 0000E008#0CF70CF70CF70CF7
(1787603094.375618) can0 0000E009#0CF70CF70CF70CF9
(1787603094.376663) can0 0000E010#0000000000000000
(1787603094.377662) can0 0000E011#0000000000000000
(1787603094.378681) can0 0000E012#0CF8000100000000
(1787603094.379659) can0 0000F001#0000000000000000
(1787603094.380661) can0 18FF28F4#1034000002130000
(1787603094.381634) can0 18FE28F4#0CF90CF744430000
(1787603094.382636) can0 18FD28F4#17C0FA6F00000000
(1787603094.383556) can0 4D4#0000340A7D130203
(1787603094.384531) can0 4D5#F70CF90C43440000
(1787603094.385660) can0 18914010#0CF9060CF7010000
(1787603094.386659) can0 18904010#02130213753A020D
(1787603094.387635) can0 18FA28F4#D03EA12C1A270000
(1787603094.388630) can0 18FB28F4#F90CF70C44430000
(1787603094.389634) can0 18FC28F4#3A34000013020000
(1787603094.390615) can0 18F810F3#1302DD0334640100
(1787603094.391662) can0 18F815F3#0000000010030000
(1787603094.392557) can0 273#0000000013023400
(1787603094.393538) can0 1E1#0213271A020D020D
(1787603094.394614) can0 1F5#0000000000000000
(1787603094.395662) can0 0800A6A9#0000000000000000
(1787603094.396614) can0 1000A6A9#13029213344E4D4D
(1787603094.397662) can0 1C00A6A9#0000010000030000
(1787603094.398640) can0 02018100#1003021300000000
(1787603094.399663) can0 02028100#000A013464000000
(1787603094.400666) can0 02038100#0CF901060CF70101
(1787603094.401638) can0 02048100#4E01014D01030000
(1787603094.402537) can0 1AD#C014F6FF59341C1C
(1787603094.403540) can0 2AD#F90C800CC0140016
(1787603094.404568) can0 3AD#000000000000C014
(1787603094.405557) can0 4AD#EB00000000000000
(1787603094.406558) can0 76A#7F00000000000000
(1787603094.469367) can0 0000E005#17C04B0003B60591
(1787603094.469939) can0 1806E5F4#148B010003B6023A
(1787603094.470622) can0 0000E000#148B148B0213000A
(1787603094.471689) can0 0000E004#1C1B03B603B601F3
(1787603094.472595) can0 0000E006#0CF70CF70CF70CF7
(1787603094.473622) can0 0000E007#0CF70CF90CF90CF7
(1787603094.474612) can0 0000E008#0CF70CF70CF70CF7
(1787603094.475612) can0 0000E009#0CF70CF70CF70CF9
(1787603094.476667) can0 0000E010#0000000000000000
(1787603094.477669) can0 0000E011#0000000000000000
(1787603094.478668) can0 0000E012#0CF8000100000000
(1787603094.479710) can0 0000F001#0000000000000000
(1787603094.480639) can0 18FF28F4#1034000002130000
(1787603094.481623) can0 18FE28F4#0CF90CF744430000
(1787603094.482641) can0 18FD28F4#17C0FA6F00000000
(1787603094.483552) can0 4D4#0000340A7D130203
(1787603094.484537) can0 4D5#F70CF90C43440000
(1787603094.485640) can0 18914010#0CF9060CF7010000
(1787603094.486612) can0 18904010#02130213753A020D
(1787603094.487625) can0 18FA28F4#D03EA12C1A270000
(1787603094.488622) can0 18FB28F4#F90CF70C44430000
(1787603094.489642) can0 18FC28F4#3A34000013020000
(1787603094.490615) can0 18F810F3#1302DD0334640100
(1787603094.491643) can0 18F815F3#0000000010030000
(1787603094.492538) can0 273#0000000013023400
(1787603094.493544) can0 1E1#0213271A020D020D
(1787603094.494574) can0 1F5#0000000000000000
(1787603094.495669) can0 0800A6A9#0000000000000000
(1787603094.496608) can0 1000A6A9#13029213344E4D4D
(1787603094.497642) can0 1C00A6A9#0000010000030000
(1787603094.498641) can0 02018100#1003021300000000
(1787603094.499643) can0 02028100#000A013464000000
(1787603094.500641) can0 02038100#0CF901060CF70101
(1787603094.501641) can0 02048100#4E01014D01030000
(1787603094.502546) can0 1AD#C014F6FF59341C1C
(1787603094.503544) can0 2AD#F90C800CC0140016
(1787603094.504560) can0 3AD#000000000000C014
(1787603094.505563) can0 4AD#EB00000000000000
(1787603094.506553) can0 76A#7F00000000000000
(1787603094.586379) can0 0000E005#17C04B0003B60591
(1787603094.586926) can0 1806E5F4#148B010003B6023A
(1787603094.587652) can0 0000E000#148B148B0213000A
(1787603094.588629) can0 0000E004#1C1B03B603B601F3
(1787603094.589611) can0 0000E006#0CF70CF70CF70CF7
(1787603094.590609) can0 0000E007#0CF70CF70CF90CF7
(1787603094.591631) can0 0000E008#0CF70CF70CF90CF7
(1787603094.592601) can0 0000E009#0CF70CF70CF70CF9
(1787603094.593685) can0 0000E010#0000000000000000
(1787603094.594672) can0 0000E011#0000000000000000
(1787603094.595648) can0 0000E012#0CF8000100000000
(1787603094.596610) can0 0000E013#4542323630354C43
(1787603094.597648) can0 0000E014#3134323300000000
(1787603094.598649) can0 0000E015#0000000000000003
(1787603094.599681) can0 0000F000#0000000000000000
(1787603094.600679) can0 0000F001#0000000000000000
(1787603094.601677) can0 18FF28F4#1034000002130000
(1787603094.602621) can0 18FE28F4#0CF90CF744430000
(1787603094.603649) can0 18FD28F4#17C0FA6F00000000
(1787603094.604550) can0 4D4#0000340A7D130203
(1787603094.605552) can0 4D5#F70CF90C43440000
(1787603094.606623) can0 18914010#0CF9070CF7010000
(1787603094.607611) can0 18904010#02130213753A020D
(1787603094.608632) can0 18924010#4401430300000000
(1787603094.609675) can0 18934010#0101005D0000C32C
(1787603094.610644) can0 18944010#1003000000000000
(1787603094.611651) can0 18954010#0000000000000000
(1787603094.612650) can0 18954010#0100000000000000
(1787603094.613650) can0 18954010#0200000000000000
(1787603094.614649) can0 18954010#0300000000000000
(1787603094.615649) can0 18954010#0400000000000000
(1787603094.616649) can0 18954010#0500000000000000
(1787603094.617675) can0 18964010#0044444300000000
(1787603094.618670) can0 18974010#0000000000000000
(1787603094.619649) can0 18984010#0000000000000000
(1787603094.620621) can0 18FA28F4#D03EA12C1A270000
(1787603094.621620) can0 18FB28F4#F90CF70C44430000
(1787603094.622625) can0 18FC28F4#3A34000013020000
(1787603094.623609) can0 18F810F3#1302DD0334640100
(1787603094.624621) can0 18F811F3#F90C0701F70C0101
(1787603094.625676) can0 18F812F3#4401014303010000
(1787603094.626649) can0 18F813F3#0101010000000000
(1787603094.627631) can0 18F814F3#3200A81BA9015F00
(1787603094.628649) can0 18F815F3#0000000010030000
(1787603094.629551) can0 273#0000000013023400
(1787603094.630545) can0 1E1#0213271A020D020D
(1787603094.631565) can0 1F5#0000000000000000
(1787603094.632654) can0 0800A6A9#0000000000000000
(1787603094.633606) can0 1000A6A9#13029213344E4D4D
(1787603094.634651) can0 1C00A6A9#0000010000030000
(1787603094.635652) can0 02018100#1003021300000000
(1787603094.636651) can0 02028100#000A013464000000
(1787603094.637650) can0 02038100#0CF901070CF70101
(1787603094.638622) can0 02048100#4E01014D01030000
(1787603094.639554) can0 1AD#C014F6FF59341C1C
(1787603094.640554) can0 2AD#F90C800CC0140016
(1787603094.641563) can0 3AD#000000000000C014
(1787603094.642549) can0 4AD#EB00000000000000
(1787603094.643559) can0 76A#7F00000000000000
(1787603094.702363) can0 0000E005#17C04B0003B60591
(1787603094.702932) can0 1806E5F4#148B010003B6023A
(1787603094.703619) can0 0000E000#148B148B0213000A
(1787603094.704637) can0 0000E004#1C1B03B603B601F3
(1787603094.705605) can0 0000E006#0CF70CF70CF70CF7
(1787603094.706609) can0 0000E007#0CF70CF70CF90CF7
(1787603094.707627) can0 0000E008#0CF70CF70CF90CF7
(1787603094.708607) can0 0000E009#0CF70CF70CF70CF9
(1787603094.709682) can0 0000E010#0000000000000000
(1787603094.710682) can0 0000E011#0000000000000000
(1787603094.711631) can0 0000E012#0CF8000100000000
(1787603094.712655) can0 0000F001#0000000000000000
(1787603094.713639) can0 18FF28F4#1034000002130000
(1787603094.714619) can0 18FE28F4#0CF90CF744430000
(1787603094.715621) can0 18FD28F4#17C0FA6F00000000
(1787603094.716557) can0 4D4#0000340A7D130203
(1787603094.717557) can0 4D5#F70CF90C43440000
(1787603094.718616) can0 18914010#0CF9070CF7010000
(1787603094.719617) can0 18904010#02130213753A020D
(1787603094.720624) can0 18FA28F4#D03EA12C1A270000
(1787603094.721609) can0 18FB28F4#F90CF70C44430000
(1787603094.722637) can0 18FC28F4#3A34000013020000
(1787603094.723621) can0 18F810F3#1302DD0334640100
(1787603094.724657) can0 18F815F3#0000000010030000
(1787603094.725560) can0 273#0000000013023400
(1787603094.726557) can0 1E1#0213271A020D020D
(1787603094.727553) can0 1F5#0000000000000000
(1787603094.728656) can0 0800A6A9#0000000000000000
(1787603094.729605) can0 1000A6A9#13029213344E4D4D
(1787603094.730637) can0 1C00A6A9#0000010000030000
(1787603094.731638) can0 02018100#1003021300000000
(1787603094.732637) can0 02028100#000A013464000000
(1787603094.733637) can0 02038100#0CF901070CF70101
(1787603094.734639) can0 02048100#4E01014D01030000
(1787603094.735552) can0 1AD#C014F6FF59341C1C
(1787603094.736561) can0 2AD#F90C800CC0140016
(1787603094.737561) can0 3AD#000000000000C014
(1787603094.738560) can0 4AD#EB00000000000000
(1787603094.739555) can0 76A#7F00000000000000
(1787603094.802330) can0 0000E005#17C04B0003B60591
(1787603094.802897) can0 1806E5F4#148B010003B6023A
(1787603094.803622) can0 0000E000#148B148B0213000A
(1787603094.804622) can0 0000E004#1C1B03B603B601F3
(1787603094.805604) can0 0000E006#0CF70CF70CF70CF7
(1787603094.806604) can0 0000E007#0CF70CF70CF90CF7
(1787603094.807614) can0 0000E008#0CF70CF70CF90CF7
(1787603094.808614) can0 0000E009#0CF70CF70CF70CF9
(1787603094.809663) can0 0000E010#0000000000000000
(1787603094.810662) can0 0000E011#0000000000000000
(1787603094.811635) can0 0000E012#0CF8000100000000
(1787603094.812657) can0 0000F001#0000000000000000
(1787603094.813634) can0 18FF28F4#1034000002130000
(1787603094.814613) can0 18FE28F4#0CF90CF744430000
(1787603094.815634) can0 18FD28F4#17C0FA6F00000000
(1787603094.816565) can0 4D4#0000340A7D130203
(1787603094.817564) can0 4D5#F70CF90C43440000
(1787603094.818623) can0 18914010#0CF9070CF7010000
(1787603094.819605) can0 18904010#02130213753A020D
(1787603094.820614) can0 18FA28F4#D03EA12C1A270000
(1787603094.821613) can0 18FB28F4#F90CF70C44430000
(1787603094.822632) can0 18FC28F4#3A34000013020000
(1787603094.823614) can0 18F810F3#1302DD0334640100
(1787603094.824687) can0 18F815F3#0000000010030000
(1787603094.825563) can0 273#0000000013023400
(1787603094.826565) can0 1E1#0213271A020D020D
(1787603094.827565) can0 1F5#0000000000000000
(1787603094.828634) can0 0800A6A9#0000000000000000
(1787603094.829603) can0 1000A6A9#13029213344E4D4D
(1787603094.830633) can0 1C00A6A9#0000010000030000
(1787603094.831644) can0 02018100#1003021300000000
(1787603094.832658) can0 02028100#000A013464000000
(1787603094.833634) can0 02038100#0CF901070CF70101
(1787603094.834615) can0 02048100#4E01014D01030000
(1787603094.835567) can0 1AD#C014F6FF59341C1C
(1787603094.836560) can0 2AD#F90C800CC0140016
(1787603094.837565) can0 3AD#000000000000C014
(1787603094.838565) can0 4AD#EB00000000000000
(1787603094.839565) can0 76A#7F00000000000000
(1787603094.902356) can0 0000E005#17C04B0003B60591
(1787603094.902920) can0 1806E5F4#148B010003B6023A
(1787603094.903629) can0 0000E000#148B148B0213000A
(1787603094.904621) can0 0000E004#1C1B03B603B601F3
(1787603094.905598) can0 0000E006#0CF70CF70CF70CF7
(1787603094.906617) can0 0000E007#0CF70CF70CF70CF9
(1787603094.907601) can0 0000E008#0CF70CF70CF70CF7
(1787603094.908609) can0 0000E009#0CF70CF70CF70CF9
(1787603094.909666) can0 0000E010#0000000000000000
(1787603094.910669) can0 0000E011#0000000000000000
(1787603094.911639) can0 0000E012#0CF8000100000000
(1787603094.912646) can0 0000F001#0000000000000000
(1787603094.913628) can0 18FF28F4#1034000002130000
(1787603094.914609) can0 18FE28F4#0CF90CF744430000
(1787603094.915621) can0 18FD28F4#17C0FA6F00000000
(1787603094.916571) can0 4D4#0000340A7D130203
(1787603094.917565) can0 4D5#F70CF90C43440000
(1787603094.918611) can0 18914010#0CF9080CF7010000
(1787603094.919610) can0 18904010#02130213753A020D
(1787603094.920629) can0 18FA28F4#D03EA12C1A270000
(1787603094.921598) can0 18FB28F4#F90CF70C44430000
(1787603094.922620) can0 18FC28F4#3A34000013020000
(1787603094.923620) can0 18F810F3#1302DD0334640100
(1787603094.924649) can0 18F815F3#0000000010030000
(1787603094.925582) can0 273#0000000013023400
(1787603094.926570) can0 1E1#0213271A020D020D
(1787603094.927571) can0 1F5#0000000000000000
(1787603094.928649) can0 0800A6A9#0000000000000000
(1787603094.929586) can0 1000A6A9#13029213344E4D4D
(1787603094.930637) can0 1C00A6A9#0000010000030000
(1787603094.931641) can0 02018100#1003021300000000
(1787603094.932637) can0 02028100#000A013464000000
(1787603094.933694) can0 02038100#0CF901080CF70101
(1787603094.934630) can0 02048100#4E01014D01030000
(1787603094.935572) can0 1AD#C014F6FF59341C1C
(1787603094.936573) can0 2AD#F90C800CC0140016
(1787603094.937570) can0 3AD#000000000000C014
(1787603094.938570) can0 4AD#EB00000000000000
(1787603094.939572) can0 76A#7F00000000000000
(1787603095.002361) can0 0000E005#17C04B0003B60591
(1787603095.002926) can0 1806E5F4#148B010003B6023A
(1787603095.003627) can0 0000E000#148B148B0213000A
(1787603095.004627) can0 0000E004#1C1B03B603B601F3
(1787603095.005607) can0 0000E006#0CF70CF70CF70CF7
(1787603095.006618) can0 0000E007#0CF70CF70CF70CF9
(1787603095.007598) can0 0000E008#0CF70CF70CF70CF7
(1787603095.008597) can0 0000E009#0CF70CF70CF70CF9
(1787603095.009657) can0 0000E010#0000000000000000
(1787603095.010699) can0 0000E011#0000000000000000
(1787603095.011636) can0 0000E012#0CF8000100000000
(1787603095.012644) can0 0000F001#0000000000000000
(1787603095.013636) can0 18FF28F4#1034000002130000
(1787603095.014603) can0 18FE28F4#0CF90CF744430000
(1787603095.015627) can0 18FD28F4#17C0FA6F00000000
(1787603095.016577) can0 4D4#0000340A7D130203
(1787603095.017576) can0 4D5#F70CF90C43440000
(1787603095.018616) can0 18914010#0CF9080CF7010000
(1787603095.019605) can0 18904010#02130213753A020D
(1787603095.020615) can0 18FA28F4#D03EA12C1A270000
(1787603095.021616) can0 18FB28F4#F90CF70C44430000
(1787603095.022627) can0 18FC28F4#3A34000013020000
(1787603095.023607) can0 18F810F3#1302DD0334640100
(1787603095.024635) can0 18F815F3#0000000010030000
(1787603095.025576) can0 273#0000000013023400
(1787603095.026578) can0 1E1#0213271A020D020D
(1787603095.027579) can0 1F5#0000000000000000
(1787603095.028636) can0 0800A6A9#0000000000000000
(1787603095.029604) can0 1000A6A9#13029213344E4D4D
(1787603095.030636) can0 1C00A6A9#0000010000030000
(1787603095.031635) can0 02018100#1003021300000000
(1787603095.032625) can0 02028100#000A013464000000
(1787603095.033628) can0 02038100#0CF901080CF70101
(1787603095.034627) can0 02048100#4E01014D01030000
(1787603095.035576) can0 1AD#C014F6FF59341C1C
(1787603095.036578) can0 2AD#F90C800CC0140016
(1787603095.037573) can0 3AD#000000000000C014
(1787603095.038577) can0 4AD#EB00000000000000
(1787603095.039576) can0 76A#7F00000000000000
(1787603095.119369) can0 0000E005#17C04B0003B60591
(1787603095.119927) can0 1806E5F4#148B010003B6023A
(1787603095.120623) can0 0000E000#148B148B0213000A
(1787603095.121623) can0 0000E004#1C1B03B603B601F3
(1787603095.122594) can0 0000E006#0CF70CF70CF70CF7
(1787603095.123614) can0 0000E007#0CF70CF90CF70CF9
(1787603095.124621) can0 0000E008#0CF70CF70CF90CF7
(1787603095.125601) can0 0000E009#0CF70CF70CF70CF9
(1787603095.126652) can0 0000E010#0000000000000000
(1787603095.127645) can0 0000E011#0000000000000000
(1787603095.128634) can0 0000E012#0CF8000100000000
(1787603095.129591) can0 0000E013#4542323630354C43
(1787603095.130622) can0 0000E014#3134323300000000
(1787603095.131638) can0 0000E015#0000000000000003
(1787603095.132682) can0 0000F000#0000000000000000
(1787603095.133652) can0 0000F001#0000000000000000
(1787603095.134632) can0 18FF28F4#1034000002130000
(1787603095.135614) can0 18FE28F4#0CF90CF744430000
(1787603095.136624) can0 18FD28F4#17C0FA6F00000000
(1787603095.137583) can0 4D4#0000340A7D130203
(1787603095.138583) can0 4D5#F70CF90C43440000
(1787603095.139622) can0 18914010#0CF9060CF7010000
(1787603095.140623) can0 18904010#02130213753A020D
(1787603095.141623) can0 18924010#4401430300000000
(1787603095.142610) can0 18934010#0101005E0000C32D
(1787603095.143625) can0 18944010#1003000000000000
(1787603095.144643) can0 18954010#0000000000000000
(1787603095.145642) can0 18954010#0100000000000000
(1787603095.146643) can0 18954010#0200000000000000
(1787603095.147634) can0 18954010#0300000000000000
(1787603095.148681) can0 18954010#0400000000000000
(1787603095.149631) can0 18954010#0500000000000000
(1787603095.150624) can0 18964010#0044444300000000
(1787603095.151635) can0 18974010#0000000000000000
(1787603095.152633) can0 18984010#0000000000000000
(1787603095.153613) can0 18FA28F4#D03EA12C1A270000
(1787603095.154613) can0 18FB28F4#F90CF70C44430000
(1787603095.155624) can0 18FC28F4#3A34000013020000
(1787603095.156653) can0 18F810F3#1302DD0334640100
(1787603095.157613) can0 18F811F3#F90C0601F70C0101
(1787603095.158615) can0 18F812F3#4401014303010000
(1787603095.159633) can0 18F813F3#0101010000000000
(1787603095.160614) can0 18F814F3#3200A81BA9015F00
