(1787678025.497108) can0 0000E005#1702440003B60591
(1787678025.497674) can0 1806E5F4#1528010003B6023A
(1787678025.498646) can0 0000E000#1528152802140014
(1787678025.499618) can0 0000E004#181803B603B60202
(1787678025.500627) can0 0000E006#0CFD0CFD0CFD0CFD
(1787678025.501620) can0 0000E007#0CFE0CFE0CFE0CFE
(1787678025.502616) can0 0000E008#0CFE0CFE0CFE0CFD
(1787678025.503593) can0 0000E009#0CFD0CFD0CFD0CFE
(1787678025.504638) can0 0000E010#0000000000000000
(1787678025.505639) can0 0000E011#0000000000000000
(1787678025.506668) can0 0000E012#0CFE000000000000
(1787678025.507638) can0 0000F001#0000000000000000
(1787678025.508643) can0 18FF28F4#1036000002140000
(1787678025.509621) can0 18FE28F4#0CFE0CFD40400000
(1787678025.510612) can0 18FD28F4#1702FA6F00000000
(1787678025.511524) can0 4D4#000036147D140203
(1787678025.512516) can0 4D5#FD0CFE0C40400000
(1787678025.513618) can0 18914010#0CFE050CFD010000
(1787678025.514588) can0 18904010#021402147544021D
(1787678025.515621) can0 18FA28F4#123EA12C24270000
(1787678025.516621) can0 18FB28F4#FE0CFD0C40400000
(1787678025.517621) can0 18FC28F4#3A36000014020000
(1787678025.518594) can0 18F810F3#1402D30336640100
(1787678025.519531) can0 273#0000000014023600
(1787678025.520494) can0 1E1#02142724021D021D
(1787678025.521546) can0 1F5#0000000000000000
(1787678025.522613) can0 0800A6A9#0000000000000000
(1787678025.523591) can0 1000A6A9#14029C13364A4A4A
(1787678025.524627) can0 1C00A6A9#0000010000030000
(1787678025.525621) can0 02018100#1003021400000000
(1787678025.526617) can0 02028100#0014013664000000
(1787678025.527623) can0 02038100#0CFE01050CFD0101
(1787678025.528620) can0 02048100#4A01014A01010000
(1787678025.529506) can0 1AD#CA14ECFF59361818
(1787678025.530516) can0 2AD#FE0C800CCA140016
(1787678025.531526) can0 3AD#000000000000CA14
(1787678025.532525) can0 4AD#EB00000000000000
(1787678025.533549) can0 76A#7F00000000000000
(1787678025.597075) can0 0000E005#1702440003B60591
(1787678025.597634) can0 1806E5F4#1528010003B6023A
(1787678025.598623) can0 0000E000#1528152802140014
(1787678025.599620) can0 0000E004#181803B603B60202
(1787678025.600589) can0 0000E006#0CFD0CFD0CFD0CFD
(1787678025.601627) can0 0000E007#0CFE0CFE0CFE0CFE
(1787678025.602625) can0 0000E008#0CFE0CFE0CFE0CFD
(1787678025.603594) can0 0000E009#0CFD0CFD0CFD0CFE
(1787678025.604642) can0 0000E010#0000000000000000
(1787678025.605634) can0 0000E011#0000000000000000
(1787678025.606624) can0 0000E012#0CFE000000000000
(1787678025.607632) can0 0000F001#0000000000000000
(1787678025.608620) can0 18FF28F4#1036000002140000
(1787678025.609630) can0 18FE28F4#0CFE0CFD40400000
(1787678025.610627) can0 18FD28F4#1702FA6F00000000
(1787678025.611517) can0 4D4#000036147D140203
(1787678025.612518) can0 4D5#FD0CFE0C40400000
(1787678025.613625) can0 18914010#0CFE050CFD010000
(1787678025.614594) can0 18904010#021402147544021D
(1787678025.615622) can0 18FA28F4#123EA12C24270000
(1787678025.616596) can0 18FB28F4#FE0CFD0C40400000
(1787678025.617597) can0 18FC28F4#3A36000014020000
(1787678025.618599) can0 18F810F3#1402D30336640100
(1787678025.619527) can0 273#0000000014023600
(1787678025.620491) can0 1E1#02142724021D021D
(1787678025.621526) can0 1F5#0000000000000000
(1787678025.622625) can0 0800A6A9#0000000000000000
(1787678025.623595) can0 1000A6A9#14029C13364A4A4A
(1787678025.624620) can0 1C00A6A9#0000010000030000
(1787678025.625623) can0 02018100#1003021400000000
(1787678025.626623) can0 02028100#0014013664000000
(1787678025.627625) can0 02038100#0CFE01050CFD0101
(1787678025.628640) can0 02048100#4A01014A01010000
(1787678025.629495) can0 1AD#CA14ECFF59361818
(1787678025.630506) can0 2AD#FE0C800CCA140016
(1787678025.631518) can0 3AD#000000000000CA14
(1787678025.632525) can0 4AD#EB00000000000000
(1787678025.633530) can0 76A#7F00000000000000
(1787678025.697105) can0 0000E005#1702440003B60591
(1787678025.697635) can0 1806E5F4#1528010003B6023A
(1787678025.698600) can0 0000E000#1528152802140013
(1787678025.699603) can0 0000E004#181803B603B60202
(1787678025.700598) can0 0000E006#0CFD0CFD0CFD0CFE
(1787678025.701600) can0 0000E007#0CFE0CFE0CFE0CFE
(1787678025.702602) can0 0000E008#0CFE0CFE0CFE0CFE
(1787678025.703602) can0 0000E009#0CFD0CFD0CFD0CFE
(1787678025.704625) can0 0000E010#0000000000000000
(1787678025.705648) can0 0000E011#0000000000000000
(1787678025.706619) can0 0000E012#0CFE000000000000
(1787678025.707627) can0 0000F001#0000000000000000
(1787678025.708634) can0 18FF28F4#1036000002140000
(1787678025.709628) can0 18FE28F4#0CFE0CFD40400000
(1787678025.710593) can0 18FD28F4#1702FA6F00000000
(1787678025.711512) can0 4D4#000036137D140203
(1787678025.712513) can0 4D5#FD0CFE0C40400000
(1787678025.713626) can0 18914010#0CFE040CFD010000
(1787678025.714570) can0 18904010#021402147543021D
(1787678025.715597) can0 18FA28F4#123EA12C23270000
(1787678025.716601) can0 18FB28F4#FE0CFD0C40400000
(1787678025.717600) can0 18FC28F4#3A36000014020000
(1787678025.718593) can0 18F810F3#1402D40336640100
(1787678025.719513) can0 273#0000000014023600
(1787678025.720503) can0 1E1#02142723021D021D
(1787678025.721561) can0 1F5#0000000000000000
(1787678025.722623) can0 0800A6A9#0000000000000000
(1787678025.723569) can0 1000A6A9#14029B13364A4A4A
(1787678025.724628) can0 1C00A6A9#0000010000030000
(1787678025.725626) can0 02018100#1003021400000000
(1787678025.726625) can0 02028100#0013013664000000
(1787678025.727626) can0 02038100#0CFE01040CFD0101
(1787678025.728601) can0 02048100#4A01014A01010000
(1787678025.729523) can0 1AD#CA14EDFF59361818
(1787678025.730494) can0 2AD#FE0C800CCA140016
(1787678025.731508) can0 3AD#000000000000CA14
(1787678025.732528) can0 4AD#EB00000000000000
(1787678025.733518) can0 76A#7F00000000000000
(1787678025.797068) can0 0000E005#1702440003B60591
(1787678025.797630) can0 1806E5F4#1528010003B6023A
(1787678025.798628) can0 0000E000#1528152802140013
(1787678025.799604) can0 0000E004#181803B603B60202
(1787678025.800601) can0 0000E006#0CFD0CFD0CFD0CFE
(1787678025.801607) can0 0000E007#0CFE0CFE0CFE0CFE
(1787678025.802603) can0 0000E008#0CFE0CFE0CFE0CFE
(1787678025.803601) can0 0000E009#0CFD0CFD0CFD0CFE
(1787678025.804622) can0 0000E010#0000000000000000
(1787678025.805629) can0 0000E011#0000000000000000
(1787678025.806639) can0 0000E012#0CFE000000000000
(1787678025.807629) can0 0000F001#0000000000000000
(1787678025.808604) can0 18FF28F4#1036000002140000
(1787678025.809606) can0 18FE28F4#0CFE0CFD40400000
(1787678025.810603) can0 18FD28F4#1702FA6F00000000
(1787678025.811501) can0 4D4#000036137D140203
(1787678025.812504) can0 4D5#FD0CFE0C40400000
(1787678025.813602) can0 18914010#0CFE040CFD010000
(1787678025.814629) can0 18904010#021402147543021D
(1787678025.815601) can0 18FA28F4#123EA12C23270000
(1787678025.816597) can0 18FB28F4#FE0CFD0C40400000
(1787678025.817601) can0 18FC28F4#3A36000014020000
(1787678025.818582) can0 18F810F3#1402D40336640100
(1787678025.819522) can0 273#0000000014023600
(1787678025.820502) can0 1E1#02142723021D021D
(1787678025.821537) can0 1F5#0000000000000000
(1787678025.822629) can0 0800A6A9#0000000000000000
(1787678025.823567) can0 1000A6A9#14029B13364A4A4A
(1787678025.824607) can0 1C00A6A9#0000010000030000
(1787678025.825607) can0 02018100#1003021400000000
(1787678025.826604) can0 02028100#0013013664000000
(1787678025.827604) can0 02038100#0CFE01040CFD0101
(1787678025.828601) can0 02048100#4A01014A01010000
(1787678025.829506) can0 1AD#CA14EDFF59361818
(1787678025.830506) can0 2AD#FE0C800CCA140016
(1787678025.831506) can0 3AD#000000000000CA14
(1787678025.832513) can0 4AD#EB00000000000000
(1787678025.833518) can0 76A#7F00000000000000
(1787678025.914070) can0 0000E005#1702440003B60591
(1787678025.914647) can0 1806E5F4#1528010003B6023A
(1787678025.915586) can0 0000E000#1528152802140014
(1787678025.916605) can0 0000E004#181803B603B60202
(1787678025.917605) can0 0000E006#0CFD0CFD0CFD0CFD
(1787678025.918579) can0 0000E007#0CFD0CFD0CFD0CFD
(1787678025.919600) can0 0000E008#0CFE0CFD0CFE0CFD
(1787678025.920580) can0 0000E009#0CFE0CFD0CFD0CFE
(1787678025.921635) can0 0000E010#0000000000000000
(1787678025.922635) can0 0000E011#0000000000000000
(1787678025.923601) can0 0000E012#0CFE000000000000
(1787678025.924570) can0 0000E013#4542323630354C43
(1787678025.925606) can0 0000E014#3134323300000000
(1787678025.926608) can0 0000E015#0000000000000003
(1787678025.927633) can0 0000F000#0000000000000000
(1787678025.928636) can0 0000F001#0000000000000000
(1787678025.929608) can0 18FF28F4#1036000002140000
(1787678025.930608) can0 18FE28F4#0CFE0CFD40400000
(1787678025.931605) can0 18FD28F4#1702FA6F00000000
(1787678025.932508) can0 4D4#000036147D140203
(1787678025.933511) can0 4D5#FD0CFE0C40400000
(1787678025.934605) can0 18914010#0CFE090CFD010000
(1787678025.935574) can0 18904010#021402147544021D
(1787678025.936633) can0 18924010#4001400100000000
(1787678025.937608) can0 18934010#0101000A0000C901
(1787678025.938606) can0 18944010#1003000000000000
(1787678025.939633) can0 18954010#0000000000000000
(1787678025.940608) can0 18954010#0100000000000000
(1787678025.941608) can0 18954010#0200000000000000
(1787678025.942608) can0 18954010#0300000000000000
(1787678025.943605) can0 18954010#0400000000000000
(1787678025.944636) can0 18954010#0500000000000000
(1787678025.945608) can0 18964010#0040404000000000
(1787678025.946635) can0 18974010#0000000000000000
(1787678025.947609) can0 18984010#0000000000000000
(1787678025.948570) can0 18FA28F4#123EA12C24270000
(1787678025.949606) can0 18FB28F4#FE0CFD0C40400000
(1787678025.950606) can0 18FC28F4#3A36000014020000
(1787678025.951581) can0 18F810F3#1402D30336640100
(1787678025.952636) can0 18F811F3#FE0C0901FD0C0101
(1787678025.953606) can0 18F812F3#4001014001010000
(1787678025.954606) can0 18F813F3#0101010000000000
(1787678025.955581) can0 18F814F3#3200EA1AA9015F00
(1787678025.956511) can0 273#0000000014023600
(1787678025.957482) can0 1E1#02142724021D021D
(1787678025.958521) can0 1F5#0000000000000000
(1787678025.959603) can0 0800A6A9#0000000000000000
(1787678025.960612) can0 1000A6A9#14029C13364A4A4A
(1787678025.961606) can0 1C00A6A9#0000010000030000
(1787678025.962609) can0 02018100#1003021400000000
(1787678025.963606) can0 02028100#0014013664000000
(1787678025.964606) can0 02038100#0CFE01090CFD0101
(1787678025.965588) can0 02048100#4A01014A01010000
(1787678025.966481) can0 1AD#C914ECFF59361818
(1787678025.967480) can0 2AD#FE0C800CC9140016
(1787678025.968549) can0 3AD#000000000000C914
(1787678025.969518) can0 4AD#EB00000000000000
(1787678025.970517) can0 76A#7F00000000000000
(1787678026.030067) can0 0000E005#1702440003B60591
(1787678026.030637) can0 1806E5F4#1528010003B6023A
(1787678026.031609) can0 0000E000#1528152802140014
(1787678026.032589) can0 0000E004#181803B603B60202
(1787678026.033609) can0 0000E006#0CFD0CFD0CFD0CFD
(1787678026.034581) can0 0000E007#0CFD0CFD0CFD0CFD
(1787678026.035609) can0 0000E008#0CFE0CFD0CFE0CFD
(1787678026.036573) can0 0000E009#0CFE0CFD0CFD0CFE
(1787678026.037657) can0 0000E010#0000000000000000
(1787678026.038614) can0 0000E011#0000000000000000
(1787678026.039609) can0 0000E012#0CFE000000000000
(1787678026.040635) can0 0000F001#0000000000000000
(1787678026.041609) can0 18FF28F4#1036000002140000
(1787678026.042619) can0 18FE28F4#0CFE0CFD40400000
(1787678026.043584) can0 18FD28F4#1702FA6F00000000
(1787678026.044514) can0 4D4#000036147D140203
(1787678026.045544) can0 4D5#FD0CFE0C40400000
(1787678026.046575) can0 18914010#0CFE090CFD010000
(1787678026.047562) can0 18904010#021402147544021D
(1787678026.048573) can0 18FA28F4#123EA12C24270000
(1787678026.049582) can0 18FB28F4#FE0CFD0C40400000
(1787678026.050584) can0 18FC28F4#3A36000014020000
(1787678026.051595) can0 18F810F3#1402D30336640100
(1787678026.052516) can0 273#0000000014023600
(1787678026.053488) can0 1E1#02142724021D021D
(1787678026.054523) can0 1F5#0000000000000000
(1787678026.055613) can0 0800A6A9#0000000000000000
(1787678026.056570) can0 1000A6A9#14029C13364A4A4A
(1787678026.057610) can0 1C00A6A9#0000010000030000
(1787678026.058610) can0 02018100#1003021400000000
(1787678026.059610) can0 02028100#0014013664000000
(1787678026.060573) can0 02038100#0CFE01090CFD0101
(1787678026.061610) can0 02048100#4A01014A01010000
(1787678026.062485) can0 1AD#C914ECFF59361818
(1787678026.063485) can0 2AD#FE0C800CC9140016
(1787678026.064510) can0 3AD#000000000000C914
(1787678026.065511) can0 4AD#EB00000000000000
(1787678026.066513) can0 76A#7F00000000000000
(1787678026.150069) can0 0000E005#1702440003B60591
(1787678026.150642) can0 1806E5F4#1528010003B6023A
(1787678026.151583) can0 0000E000#1528152802140014
(1787678026.152586) can0 0000E004#181803B603B60202
(1787678026.153578) can0 0000E006#0CFD0CFD0CFD0CFD
(1787678026.154576) can0 0000E007#0CFD0CFD0CFD0CFD
(1787678026.155612) can0 0000E008#0CFE0CFD0CFE0CFD
(1787678026.156578) can0 0000E009#0CFE0CFD0CFD0CFE
(1787678026.157613) can0 0000E010#0000000000000000
(1787678026.158609) can0 0000E011#0000000000000000
(1787678026.159613) can0 0000E012#0CFE000000000000
(1787678026.160613) can0 0000F001#0000000000000000
(1787678026.161613) can0 18FF28F4#1036000002140000
(1787678026.162614) can0 18FE28F4#0CFE0CFD40400000
(1787678026.163614) can0 18FD28F4#1702FA6F00000000
(1787678026.164491) can0 4D4#000036147D140203
(1787678026.165491) can0 4D5#FD0CFE0C40400000
(1787678026.166566) can0 18914010#0CFE090CFD010000
(1787678026.167564) can0 18904010#021402147544021D
(1787678026.168563) can0 18FA28F4#123EA12C24270000
(1787678026.169578) can0 18FB28F4#FE0CFD0C40400000
(1787678026.170571) can0 18FC28F4#3A36000014020000
(1787678026.171558) can0 18F810F3#1402D30336640100
(1787678026.172491) can0 273#0000000014023600
(1787678026.173489) can0 1E1#02142724021D021D
(1787678026.174514) can0 1F5#0000000000000000
(1787678026.175616) can0 0800A6A9#0000000000000000
(1787678026.176566) can0 1000A6A9#14029C13364A4A4A
(1787678026.177614) can0 1C00A6A9#0000010000030000
(1787678026.178588) can0 02018100#1003021400000000
(1787678026.179613) can0 02028100#0014013664000000
(1787678026.180579) can0 02038100#0CFE01090CFD0101
(1787678026.181576) can0 02048100#4A01014A01010000
(1787678026.182466) can0 1AD#C914ECFF59361818
(1787678026.183514) can0 2AD#FE0C800CC9140016
(1787678026.184514) can0 3AD#000000000000C914
(1787678026.185520) can0 4AD#EB00000000000000
(1787678026.186519) can0 76A#7F00000000000000
(1787678026.250027) can0 0000E005#1702440003B60591
(1787678026.250580) can0 1806E5F4#1528010003B6023A
(1787678026.251581) can0 0000E000#1528152802140013
(1787678026.252616) can0 0000E004#181803B603B60202
(1787678026.253579) can0 0000E006#0CFD0CFD0CFE0CFD
(1787678026.254580) can0 0000E007#0CFD0CFE0CFE0CFE
(1787678026.255572) can0 0000E008#0CFE0CFE0CFD0CFD
(1787678026.256573) can0 0000E009#0CFE0CFD0CFD0CFE
(1787678026.257599) can0 0000E010#0000000000000000
(1787678026.258600) can0 0000E011#0000000000000000
(1787678026.259617) can0 0000E012#0CFE000000000000
(1787678026.260644) can0 0000F001#0000000000000000
(1787678026.261577) can0 18FF28F4#1036000002140000
(1787678026.262589) can0 18FE28F4#0CFE0CFD40400000
(1787678026.263579) can0 18FD28F4#1702FA6F00000000
(1787678026.264490) can0 4D4#000036137D140203
(1787678026.265494) can0 4D5#FD0CFE0C40400000
(1787678026.266569) can0 18914010#0CFE030CFD010000
(1787678026.267549) can0 18904010#021402147543021D
(1787678026.268612) can0 18FA28F4#123EA12C23270000
(1787678026.269567) can0 18FB28F4#FE0CFD0C40400000
(1787678026.270579) can0 18FC28F4#3A36000014020000
(1787678026.271559) can0 18F810F3#1402D40336640100
(1787678026.272492) can0 273#0000000014023600
(1787678026.273462) can0 1E1#02142723021D021D
(1787678026.274519) can0 1F5#0000000000000000
(1787678026.275589) can0 0800A6A9#0000000000000000
(1787678026.276591) can0 1000A6A9#14029B13364A4A4A
(1787678026.277577) can0 1C00A6A9#0000010000030000
(1787678026.278597) can0 02018100#1003021400000000
(1787678026.279580) can0 02028100#0013013664000000
(1787678026.280574) can0 02038100#0CFE01030CFD0101
(1787678026.281570) can0 02048100#4A01014A01010000
(1787678026.282453) can0 1AD#CA14EDFF59361818
(1787678026.283492) can0 2AD#FE0C800CCA140016
(1787678026.284492) can0 3AD#000000000000CA14
(1787678026.285493) can0 4AD#EB00000000000000
(1787678026.286492) can0 76A#7F00000000000000
(1787678026.350058) can0 0000E005#1702440003B60591
(1787678026.350617) can0 1806E5F4#1528010003B6023A
(1787678026.351575) can0 0000E000#1528152802140013
(1787678026.352575) can0 0000E004#181803B603B60202
(1787678026.353622) can0 0000E006#0CFD0CFD0CFE0CFD
(1787678026.354568) can0 0000E007#0CFD0CFE0CFE0CFE
(1787678026.355586) can0 0000E008#0CFE0CFE0CFD0CFD
(1787678026.356563) can0 0000E009#0CFE0CFD0CFD0CFE
(1787678026.357594) can0 0000E010#0000000000000000
(1787678026.358592) can0 0000E011#0000000000000000
(1787678026.359595) can0 0000E012#0CFE000000000000
(1787678026.360603) can0 0000F001#0000000000000000
(1787678026.361573) can0 18FF28F4#1036000002140000
(1787678026.362583) can0 18FE28F4#0CFE0CFD40400000
(1787678026.363575) can0 18FD28F4#1702FA6F00000000
(1787678026.364495) can0 4D4#000036137D140203
(1787678026.365498) can0 4D5#FD0CFE0C40400000
(1787678026.366566) can0 18914010#0CFE030CFD010000
(1787678026.367545) can0 18904010#021402147543021D
(1787678026.368565) can0 18FA28F4#123EA12C23270000
(1787678026.369573) can0 18FB28F4#FE0CFD0C40400000
(1787678026.370574) can0 18FC28F4#3A36000014020000
(1787678026.371550) can0 18F810F3#1402D40336640100
(1787678026.372496) can0 273#0000000014023600
(1787678026.373458) can0 1E1#02142723021D021D
(1787678026.374517) can0 1F5#0000000000000000
(1787678026.375585) can0 0800A6A9#0000000000000000
(1787678026.376543) can0 1000A6A9#14029B13364A4A4A
(1787678026.377573) can0 1C00A6A9#0000010000030000
(1787678026.378578) can0 02018100#1003021400000000
(1787678026.379571) can0 02028100#0013013664000000
(1787678026.380571) can0 02038100#0CFE01030CFD0101
(1787678026.381574) can0 02048100#4A01014A01010000
(1787678026.382456) can0 1AD#CA14EDFF59361818
(1787678026.383466) can0 2AD#FE0C800CCA140016
(1787678026.384476) can0 3AD#000000000000CA14
(1787678026.385499) can0 4AD#EB00000000000000
(1787678026.386491) can0 76A#7F00000000000000
(1787678026.467046) can0 0000E005#1702440003B60591
(1787678026.467626) can0 1806E5F4#1528010003B6023A
(1787678026.468564) can0 0000E000#1528152802140014
(1787678026.469581) can0 0000E004#181803B603B60202
(1787678026.470559) can0 0000E006#0CFD0CFD0CFD0CFD
(1787678026.471580) can0 0000E007#0CFE0CFE0CFD0CFE
(1787678026.472579) can0 0000E008#0CFE0CFD0CFE0CFE
(1787678026.473570) can0 0000E009#0CFE0CFE0CFD0CFE
(1787678026.474605) can0 0000E010#0000000000000000
(1787678026.475594) can0 0000E011#0000000000000000
(1787678026.476587) can0 0000E012#0CFE000000000000
(1787678026.477543) can0 0000E013#4542323630354C43
(1787678026.478579) can0 0000E014#3134323300000000
(1787678026.479597) can0 0000E015#0000000000000003
(1787678026.480587) can0 0000F000#0000000000000000
(1787678026.481582) can0 0000F001#0000000000000000
(1787678026.482575) can0 18FF28F4#1036000002140000
(1787678026.483624) can0 18FE28F4#0CFE0CFD40400000
(1787678026.484567) can0 18FD28F4#1702FA6F00000000
(1787678026.485469) can0 4D4#000036147D140203
(1787678026.486499) can0 4D5#FD0CFE0C40400000
(1787678026.487569) can0 18914010#0CFE050CFD010000
(1787678026.488547) can0 18904010#021402147544021D
(1787678026.489566) can0 18924010#4001400100000000
(1787678026.490575) can0 18934010#0101000B0000C901
(1787678026.491624) can0 18944010#1003000000000000
(1787678026.492604) can0 18954010#0000000000000000
(1787678026.493592) can0 18954010#0100000000000000
(1787678026.494576) can0 18954010#0200000000000000
(1787678026.495577) can0 18954010#0300000000000000
(1787678026.496577) can0 18954010#0400000000000000
(1787678026.497578) can0 18954010#0500000000000000
(1787678026.498576) can0 18964010#0040404000000000
(1787678026.499625) can0 18974010#0000000000000000
(1787678026.500587) can0 18984010#0000000000000000
(1787678026.501543) can0 18FA28F4#123EA12C24270000
(1787678026.502560) can0 18FB28F4#FE0CFD0C40400000
(1787678026.503560) can0 18FC28F4#3A36000014020000
(1787678026.504557) can0 18F810F3#1402D30336640100
(1787678026.505572) can0 18F811F3#FE0C0501FD0C0101
(1787678026.506565) can0 18F812F3#4001014001010000
(1787678026.507625) can0 18F813F3#0101010000000000
(1787678026.508555) can0 18F814F3#3200EA1AA9015F00
(1787678026.509470) can0 273#0000000014023600
(1787678026.510460) can0 1E1#02142724021D021D
(1787678026.511503) can0 1F5#0000000000000000
(1787678026.512579) can0 0800A6A9#0000000000000000
(1787678026.513545) can0 1000A6A9#14029C13364A4A4A
(1787678026.514576) can0 1C00A6A9#0000010000030000
(1787678026.515566) can0 02018100#1003021400000000
(1787678026.516565) can0 02028100#0014013664000000
(1787678026.517560) can0 02038100#0CFE01050CFD0101
(1787678026.518570) can0 02048100#4A01014A01010000
(1787678026.519453) can0 1AD#CA14ECFF59361818
(1787678026.520463) can0 2AD#FE0C800CCA140016
(1787678026.521483) can0 3AD#000000000000CA14
(1787678026.522512) can0 4AD#EB00000000000000
(1787678026.523513) can0 76A#7F00000000000000
(1787678026.583045) can0 0000E005#1702440003B60591
(1787678026.583591) can0 1806E5F4#1528010003B6023A
(1787678026.584629) can0 0000E000#1528152802140014
(1787678026.585559) can0 0000E004#181803B603B60202
(1787678026.586561) can0 0000E006#0CFD0CFD0CFD0CFD
(1787678026.587552) can0 0000E007#0CFE0CFE0CFD0CFE
(1787678026.588563) can0 0000E008#0CFE0CFD0CFE0CFE
(1787678026.589564) can0 0000E009#0CFE0CFE0CFD0CFE
(1787678026.590580) can0 0000E010#0000000000000000
(1787678026.591581) can0 0000E011#0000000000000000
(1787678026.592581) can0 0000E012#0CFE000000000000
(1787678026.593602) can0 0000F001#0000000000000000
(1787678026.594559) can0 18FF28F4#1036000002140000
(1787678026.595570) can0 18FE28F4#0CFE0CFD40400000
(1787678026.596563) can0 18FD28F4#1702FA6F00000000
(1787678026.597474) can0 4D4#000036147D140203
(1787678026.598476) can0 4D5#FD0CFE0C40400000
(1787678026.599563) can0 18914010#0CFE050CFD010000
(1787678026.600532) can0 18904010#021402147544021D
(1787678026.601549) can0 18FA28F4#123EA12C24270000
(1787678026.602570) can0 18FB28F4#FE0CFD0C40400000
(1787678026.603565) can0 18FC28F4#3A36000014020000
(1787678026.604544) can0 18F810F3#1402D30336640100
(1787678026.605474) can0 273#0000000014023600
(1787678026.606464) can0 1E1#02142724021D021D
(1787678026.607499) can0 1F5#0000000000000000
(1787678026.608572) can0 0800A6A9#0000000000000000
(1787678026.609542) can0 1000A6A9#14029C13364A4A4A
(1787678026.610572) can0 1C00A6A9#0000010000030000
(1787678026.611564) can0 02018100#1003021400000000
(1787678026.612561) can0 02028100#0014013664000000
(1787678026.613563) can0 02038100#0CFE01050CFD0101
(1787678026.614564) can0 02048100#4A01014A01010000
(1787678026.615444) can0 1AD#CA14ECFF59361818
(1787678026.616457) can0 2AD#FE0C800CCA140016
(1787678026.617476) can0 3AD#000000000000CA14
(1787678026.618484) can0 4AD#EB00000000000000
(1787678026.619479) can0 76A#7F00000000000000
(1787678026.683044) can0 0000E005#1702440003B60591
(1787678026.683588) can0 1806E5F4#1528010003B6023A
(1787678026.684556) can0 0000E000#1528152802140014
(1787678026.685562) can0 0000E004#181803B603B60202
(1787678026.686546) can0 0000E006#0CFD0CFD0CFD0CFD
(1787678026.687567) can0 0000E007#0CFE0CFE0CFD0CFE
(1787678026.688564) can0 0000E008#0CFE0CFD0CFE0CFE
(1787678026.689565) can0 0000E009#0CFE0CFE0CFD0CFE
(1787678026.690587) can0 0000E010#0000000000000000
(1787678026.691584) can0 0000E011#0000000000000000
(1787678026.692566) can0 0000E012#0CFE000000000000
(1787678026.693585) can0 0000F001#0000000000000000
(1787678026.694564) can0 18FF28F4#1036000002140000
(1787678026.695563) can0 18FE28F4#0CFE0CFD40400000
(1787678026.696556) can0 18FD28F4#1702FA6F00000000
(1787678026.697466) can0 4D4#000036147D140203
(1787678026.698477) can0 4D5#FD0CFE0C40400000
(1787678026.699556) can0 18914010#0CFE050CFD010000
(1787678026.700535) can0 18904010#021402147544021D
(1787678026.701557) can0 18FA28F4#123EA12C24270000
(1787678026.702557) can0 18FB28F4#FE0CFD0C40400000
(1787678026.703552) can0 18FC28F4#3A36000014020000
(1787678026.704539) can0 18F810F3#1402D30336640100
(1787678026.705477) can0 273#0000000014023600
(1787678026.706467) can0 1E1#02142724021D021D
(1787678026.707507) can0 1F5#0000000000000000
(1787678026.708567) can0 0800A6A9#0000000000000000
(1787678026.709537) can0 1000A6A9#14029C13364A4A4A
(1787678026.710575) can0 1C00A6A9#0000010000030000
(1787678026.711562) can0 02018100#1003021400000000
(1787678026.712562) can0 02028100#0014013664000000
(1787678026.713563) can0 02038100#0CFE01050CFD0101
(1787678026.714577) can0 02048100#4A01014A01010000
(1787678026.715447) can0 1AD#CA14ECFF59361818
(1787678026.716460) can0 2AD#FE0C800CCA140016
(1787678026.717468) can0 3AD#000000000000CA14
(1787678026.718508) can0 4AD#EB00000000000000
(1787678026.719480) can0 76A#7F00000000000000
(1787678026.783046) can0 0000E005#1702440003B60591
(1787678026.783597) can0 1806E5F4#1528010003B6023A
(1787678026.784555) can0 0000E000#1528152802140013
(1787678026.785558) can0 0000E004#181803B603B60202
(1787678026.786540) can0 0000E006#0CFD0CFD0CFD0CFE
(1787678026.787550) can0 0000E007#0CFE0CFE0CFE0CFE
(1787678026.788570) can0 0000E008#0CFE0CFE0CFE0CFD
(1787678026.789551) can0 0000E009#0CFD0CFD0CFD0CFE
(1787678026.790577) can0 0000E010#0000000000000000
(1787678026.791595) can0 0000E011#0000000000000000
(1787678026.792578) can0 0000E012#0CFE000000000000
(1787678026.793580) can0 0000F001#0000000000000000
(1787678026.794559) can0 18FF28F4#1036000002140000
(1787678026.795560) can0 18FE28F4#0CFE0CFD40400000
(1787678026.796550) can0 18FD28F4#1702FA6F00000000
(1787678026.797473) can0 4D4#000036137D140203
(1787678026.798473) can0 4D5#FD0CFE0C40400000
(1787678026.799598) can0 18914010#0CFE040CFD010000
(1787678026.800536) can0 18904010#021402147543021D
(1787678026.801538) can0 18FA28F4#123EA12C23270000
(1787678026.802554) can0 18FB28F4#FE0CFD0C40400000
(1787678026.803551) can0 18FC28F4#3A36000014020000
(1787678026.804550) can0 18F810F3#1402D40336640100
(1787678026.805474) can0 273#0000000014023600
(1787678026.806442) can0 1E1#02142723021D021D
(1787678026.807536) can0 1F5#0000000000000000
(1787678026.808576) can0 0800A6A9#0000000000000000
(1787678026.809539) can0 1000A6A9#14029B13364A4A4A
(1787678026.810571) can0 1C00A6A9#0000010000030000
(1787678026.811561) can0 02018100#1003021400000000
(1787678026.812560) can0 02028100#0013013664000000
(1787678026.813561) can0 02038100#0CFE01040CFD0101
(1787678026.814555) can0 02048100#4A01014A01010000
(1787678026.815493) can0 1AD#CA14EDFF59361818
(1787678026.816453) can0 2AD#FE0C800CCA140016
(1787678026.817471) can0 3AD#000000000000CA14
(1787678026.818476) can0 4AD#EB00000000000000
(1787678026.819481) can0 76A#7F00000000000000
(1787678026.883046) can0 0000E005#1702440003B60591
(1787678026.883582) can0 1806E5F4#1528010003B6023A
(1787678026.884581) can0 0000E000#1528152802140013
(1787678026.885549) can0 0000E004#181803B603B60202
(1787678026.886551) can0 0000E006#0CFD0CFD0CFD0CFE
(1787678026.887561) can0 0000E007#0CFE0CFE0CFE0CFE
(1787678026.888557) can0 0000E008#0CFE0CFE0CFE0CFD
(1787678026.889544) can0 0000E009#0CFD0CFD0CFD0CFE
(1787678026.890573) can0 0000E010#0000000000000000
(1787678026.891571) can0 0000E011#0000000000000000
(1787678026.892637) can0 0000E012#0CFE000000000000
(1787678026.893579) can0 0000F001#0000000000000000
(1787678026.894571) can0 18FF28F4#1036000002140000
(1787678026.895560) can0 18FE28F4#0CFE0CFD40400000
(1787678026.896564) can0 18FD28F4#1702FA6F00000000
(1787678026.897464) can0 4D4#000036137D140203
(1787678026.898454) can0 4D5#FD0CFE0C40400000
(1787678026.899554) can0 18914010#0CFE040CFD010000
(1787678026.900513) can0 18904010#021402147543021D
(1787678026.901539) can0 18FA28F4#123EA12C23270000
(1787678026.902549) can0 18FB28F4#FE0CFD0C40400000
(1787678026.903549) can0 18FC28F4#3A36000014020000
(1787678026.904540) can0 18F810F3#1402D40336640100
(1787678026.905464) can0 273#0000000014023600
(1787678026.906444) can0 1E1#02142723021D021D
(1787678026.907475) can0 1F5#0000000000000000
(1787678026.908572) can0 0800A6A9#0000000000000000
(1787678026.909515) can0 1000A6A9#14029B13364A4A4A
(1787678026.910570) can0 1C00A6A9#0000010000030000
(1787678026.911560) can0 02018100#1003021400000000
(1787678026.912558) can0 02028100#0013013664000000
(1787678026.913564) can0 02038100#0CFE01040CFD0101
(1787678026.914552) can0 02048100#4A01014A01010000
(1787678026.915434) can0 1AD#CA14EDFF59361818
(1787678026.916446) can0 2AD#FE0C800CCA140016
(1787678026.917467) can0 3AD#000000000000CA14
(1787678026.918477) can0 4AD#EB00000000000000
(1787678026.919474) can0 76A#7F00000000000000
(1787678027.000026) can0 0000E005#1702440003B60591
(1787678027.000578) can0 1806E5F4#1528010003B6023A
(1787678027.001547) can0 0000E000#1528152802140014
(1787678027.002554) can0 0000E004#181803B603B60202
(1787678027.003539) can0 0000E006#0CFE0CFD0CFE0CFE
(1787678027.004557) can0 0000E007#0CFE0CFE0CFD0CFE
(1787678027.005557) can0 0000E008#0CFE0CFE0CFE0CFE
(1787678027.006546) can0 0000E009#0CFE0CFE0CFD0CFE
(1787678027.007580) can0 0000E010#0000000000000000
(1787678027.008575) can0 0000E011#0000000000000000
(1787678027.009558) can0 0000E012#0CFE000000000000
(1787678027.010547) can0 0000E013#4542323630354C43
(1787678027.011555) can0 0000E014#3134323300000000
(1787678027.012563) can0 0000E015#0000000000000003
(1787678027.013564) can0 0000F000#0000000000000000
(1787678027.014583) can0 0000F001#0000000000000000
(1787678027.015540) can0 18FF28F4#1036000002140000
(1787678027.016558) can0 18FE28F4#0CFE0CFD40400000
(1787678027.017548) can0 18FD28F4#1702FA6F00000000
(1787678027.018458) can0 4D4#000036147D140203
(1787678027.019460) can0 4D5#FD0CFE0C40400000
(1787678027.020544) can0 18914010#0CFE010CFD020000
(1787678027.021518) can0 18904010#021402147544021D
(1787678027.022583) can0 18924010#4001400100000000
(1787678027.023546) can0 18934010#0101000C0000C902
(1787678027.024558) can0 18944010#1003000000000000
(1787678027.025576) can0 18954010#0000000000000000
(1787678027.026566) can0 18954010#0100000000000000
(1787678027.027562) can0 18954010#0200000000000000
(1787678027.028563) can0 18954010#0300000000000000
(1787678027.029563) can0 18954010#0400000000000000
(1787678027.030596) can0 18954010#0500000000000000
(1787678027.031555) can0 18964010#0040404000000000
(1787678027.032558) can0 18974010#0000000000000000
(1787678027.033558) can0 18984010#0000000000000000
(1787678027.034548) can0 18FA28F4#123EA12C24270000
(1787678027.035549) can0 18FB28F4#FE0CFD0C40400000
(1787678027.036544) can0 18FC28F4#3A36000014020000
(1787678027.037544) can0 18F810F3#1402D30336640100
(1787678027.038586) can0 18F811F3#FE0C0101FD0C0201
(1787678027.039540) can0 18F812F3#4001014001010000
(1787678027.040558) can0 18F813F3#0101010000000000
(1787678027.041549) can0 18F814F3#3200EA1AA9015F00
(1787678027.042459) can0 273#0000000014023600
(1787678027.043439) can0 1E1#02142724021D021D
(1787678027.044481) can0 1F5#0000000000000000
(1787678027.045556) can0 0800A6A9#0000000000000000
(1787678027.046575) can0 1000A6A9#14029C13364A4A4A
(1787678027.047560) can0 1C00A6A9#0000010000030000
(1787678027.048561) can0 02018100#1003021400000000
(1787678027.049562) can0 02028100#0014013664000000
(1787678027.050552) can0 02038100#0CFE01010CFD0102
(1787678027.051543) can0 02048100#4A01014A01010000
(1787678027.052434) can0 1AD#CA14ECFF59361818
(1787678027.053455) can0 2AD#FE0C800CCA140016
(1787678027.054469) can0 3AD#000000000000CA14
(1787678027.055467) can0 4AD#EB00000000000000
(1787678027.056474) can0 76A#7F00000000000000
(1787678027.058495) can0 00000E00#00354C4331343233
(1787678027.116028) can0 0000E005#1702440003B60591
(1787678027.116580) can0 1806E5F4#1528010003B6023A
(1787678027.117548) can0 0000E000#1528152802140014
(1787678027.118551) can0 0000E004#181803B603B60202
(1787678027.119554) can0 0000E006#0CFE0CFD0CFE0CFE
(1787678027.120549) can0 0000E007#0CFE0CFE0CFD0CFE
(1787678027.121555) can0 0000E008#0CFE0CFE0CFE0CFE
(1787678027.122555) can0 0000E009#0CFE0CFE0CFD0CFE
(1787678027.123619) can0 0000E010#0000000000000000
(1787678027.124573) can0 0000E011#0000000000000000
(1787678027.125552) can0 0000E012#0CFE000000000000
(1787678027.126564) can0 0000F001#0000000000000000
(1787678027.127553) can0 18FF28F4#1036000002140000
(1787678027.128554) can0 18FE28F4#0CFE0CFD40400000
(1787678027.129555) can0 18FD28F4#1702FA6F00000000
(1787678027.130455) can0 4D4#000036147D140203
(1787678027.131456) can0 4D5#FD0CFE0C40400000
(1787678027.132546) can0 18914010#0CFE010CFD020000
(1787678027.133525) can0 18904010#021402147544021D
(1787678027.134552) can0 18FA28F4#123EA12C24270000
(1787678027.135555) can0 18FB28F4#FE0CFD0C40400000
(1787678027.136551) can0 18FC28F4#3A36000014020000
(1787678027.137528) can0 18F810F3#1402D30336640100
(1787678027.138477) can0 273#0000000014023600
(1787678027.139435) can0 1E1#02142724021D021D
(1787678027.140467) can0 1F5#0000000000000000
(1787678027.141563) can0 0800A6A9#0000000000000000
(1787678027.142525) can0 1000A6A9#14029C13364A4A4A
(1787678027.143564) can0 1C00A6A9#0000010000030000
(1787678027.144561) can0 02018100#1003021400000000
(1787678027.145555) can0 02028100#0014013664000000
(1787678027.146553) can0 02038100#0CFE01010CFD0102
(1787678027.147550) can0 02048100#4A01014A01010000
(1787678027.148422) can0 1AD#CA14ECFF59361818
(1787678027.149448) can0 2AD#FE0C800CCA140016
(1787678027.150455) can0 3AD#000000000000CA14
(1787678027.151475) can0 4AD#EB00000000000000
(1787678027.152465) can0 76A#7F00000000000000
(1787678027.225007) can0 0000E005#1702440003B60591
(1787678027.225577) can0 1806E5F4#1528010003B6023A
(1787678027.226552) can0 0000E000#1528152802140014
(1787678027.227549) can0 0000E004#181803B603B60202
(1787678027.228558) can0 0000E006#0CFE0CFD0CFE0CFE
(1787678027.229532) can0 0000E007#0CFE0CFE0CFD0CFE
(1787678027.230558) can0 0000E008#0CFE0CFE0CFE0CFE
(1787678027.231562) can0 0000E009#0CFE0CFE0CFD0CFE
(1787678027.232577) can0 0000E010#0000000000000000
(1787678027.233553) can0 0000E011#0000000000000000
(1787678027.234553) can0 0000E012#0CFE000000000000
(1787678027.235563) can0 0000F001#0000000000000000
(1787678027.236556) can0 18FF28F4#1036000002140000
(1787678027.237558) can0 18FE28F4#0CFE0CFD40400000
(1787678027.238559) can0 18FD28F4#1702FA6F00000000
(1787678027.239436) can0 4D4#000036147D140203
(1787678027.240459) can0 4D5#FD0CFE0C40400000
(1787678027.241556) can0 18914010#0CFE010CFD020000
(1787678027.242528) can0 18904010#021402147544021D
(1787678027.243528) can0 18FA28F4#123EA12C24270000
(1787678027.244529) can0 18FB28F4#FE0CFD0C40400000
(1787678027.245558) can0 18FC28F4#3A36000014020000
(1787678027.246531) can0 18F810F3#1402D30336640100
(1787678027.247462) can0 273#0000000014023600
(1787678027.248431) can0 1E1#02142724021D021D
(1787678027.249472) can0 1F5#0000000000000000
(1787678027.250554) can0 0800A6A9#0000000000000000
(1787678027.251524) can0 1000A6A9#14029C13364A4A4A
(1787678027.252559) can0 1C00A6A9#0000010000030000
(1787678027.253579) can0 02018100#1003021400000000
(1787678027.254559) can0 02028100#0014013664000000
(1787678027.255554) can0 02038100#0CFE01010CFD0102
(1787678027.256556) can0 02048100#4A01014A01010000
(1787678027.257432) can0 1AD#CA14ECFF59361818
(1787678027.258451) can0 2AD#FE0C800CCA140016
(1787678027.259461) can0 3AD#000000000000CA14
(1787678027.260468) can0 4AD#EB00000000000000
(1787678027.261499) can0 76A#7F00000000000000
(1787678027.324055) can0 0000E005#1702440003B60591
(1787678027.324573) can0 1806E5F4#1528010003B6023A
(1787678027.325566) can0 0000E000#1528152802140014
(1787678027.326535) can0 0000E004#181803B603B60202
(1787678027.327535) can0 0000E006#0CFD0CFD0CFE0CFE
(1787678027.328532) can0 0000E007#0CFD0CFE0CFE0CFE
(1787678027.329561) can0 0000E008#0CFE0CFE0CFE0CFE
(1787678027.330561) can0 0000E009#0CFD0CFD0CFD0CFE
(1787678027.331560) can0 0000E010#0000000000000000
(1787678027.332562) can0 0000E011#0000000000000000
(1787678027.333572) can0 0000E012#0CFE000000000000
(1787678027.334604) can0 0000F001#0000000000000000
(1787678027.335564) can0 18FF28F4#1036000002140000
(1787678027.336571) can0 18FE28F4#0CFE0CFD40400000
(1787678027.337567) can0 18FD28F4#1702FA6F00000000
(1787678027.338476) can0 4D4#000036147D140203
(1787678027.339459) can0 4D5#FD0CFE0C40400000
(1787678027.340541) can0 18914010#0CFE030CFD010000
(1787678027.341508) can0 18904010#021402147544021D
(1787678027.342531) can0 18FA28F4#123EA12C24270000
(1787678027.343531) can0 18FB28F4#FE0CFD0C40400000
(1787678027.344528) can0 18FC28F4#3A36000014020000
(1787678027.345528) can0 18F810F3#1402D30336640100
(1787678027.346488) can0 273#0000000014023600
(1787678027.347425) can0 1E1#02142724021D021D
(1787678027.348469) can0 1F5#0000000000000000
(1787678027.349559) can0 0800A6A9#0000000000000000
(1787678027.350528) can0 1000A6A9#14029C13364A4A4A
(1787678027.351554) can0 1C00A6A9#0000010000030000
(1787678027.352553) can0 02018100#1003021400000000
(1787678027.353554) can0 02028100#0014013664000000
(1787678027.354586) can0 02038100#0CFE01030CFD0101
(1787678027.355529) can0 02048100#4A01014A01010000
(1787678027.356431) can0 1AD#CA14ECFF59361818
(1787678027.357430) can0 2AD#FE0C800CCA140016
(1787678027.358458) can0 3AD#000000000000CA14
(1787678027.359447) can0 4AD#EB00000000000000
(1787678027.360451) can0 76A#7F00000000000000
(1787678027.423997) can0 0000E005#1702440003B60591
(1787678027.424567) can0 1806E5F4#1528010003B6023A
(1787678027.425530) can0 0000E000#1528152802140014
(1787678027.426531) can0 0000E004#181803B603B60202
(1787678027.427534) can0 0000E006#0CFD0CFD0CFE0CFE
(1787678027.428531) can0 0000E007#0CFD0CFE0CFE0CFE
(1787678027.429531) can0 0000E008#0CFE0CFE0CFE0CFE
(1787678027.430531) can0 0000E009#0CFD0CFD0CFD0CFE
(1787678027.431596) can0 0000E010#0000000000000000
(1787678027.432556) can0 0000E011#0000000000000000
(1787678027.433553) can0 0000E012#0CFE000000000000
(1787678027.434558) can0 0000F001#0000000000000000
(1787678027.435531) can0 18FF28F4#1036000002140000
(1787678027.436561) can0 18FE28F4#0CFE0CFD40400000
(1787678027.437530) can0 18FD28F4#1702FA6F00000000
(1787678027.438431) can0 4D4#000036147D140203
(1787678027.439434) can0 4D5#FD0CFE0C40400000
(1787678027.440531) can0 18914010#0CFE030CFD010000
(1787678027.441501) can0 18904010#021402147544021D
(1787678027.442511) can0 18FA28F4#123EA12C24270000
(1787678027.443531) can0 18FB28F4#FE0CFD0C40400000
(1787678027.444532) can0 18FC28F4#3A36000014020000
(1787678027.445507) can0 18F810F3#1402D30336640100
(1787678027.446451) can0 273#0000000014023600
(1787678027.447435) can0 1E1#02142724021D021D
(1787678027.448464) can0 1F5#0000000000000000
(1787678027.449558) can0 0800A6A9#0000000000000000
(1787678027.450512) can0 1000A6A9#14029C13364A4A4A
(1787678027.451561) can0 1C00A6A9#0000010000030000
(1787678027.452534) can0 02018100#1003021400000000
(1787678027.453531) can0 02028100#0014013664000000
(1787678027.454532) can0 02038100#0CFE01030CFD0101
(1787678027.455532) can0 02048100#4A01014A01010000
(1787678027.456434) can0 1AD#CA14ECFF59361818
(1787678027.457429) can0 2AD#FE0C800CCA140016
(1787678027.458452) can0 3AD#000000000000CA14
(1787678027.459442) can0 4AD#EB00000000000000
(1787678027.460442) can0 76A#7F00000000000000
(1787678027.541007) can0 0000E005#1702440003B60591
(1787678027.541561) can0 1806E5F4#1528010003B6023A
(1787678027.542535) can0 0000E000#1528152802140013
(1787678027.543535) can0 0000E004#181803B603B60202
(1787678027.544517) can0 0000E006#0CFE0CFD0CFD0CFE
(1787678027.545535) can0 0000E007#0CFE0CFE0CFE0CFE
(1787678027.546535) can0 0000E008#0CFE0CFE0CFE0CFD
(1787678027.547508) can0 0000E009#0CFE0CFD0CFD0CFE
(1787678027.548560) can0 0000E010#0000000000000000
(1787678027.549560) can0 0000E011#0000000000000000
(1787678027.550535) can0 0000E012#0CFE000000000000
(1787678027.551497) can0 0000E013#4542323630354C43
(1787678027.552532) can0 0000E014#3134323300000000
(1787678027.553562) can0 0000E015#0000000000000003
(1787678027.554566) can0 0000F000#0000000000000000
(1787678027.555539) can0 0000F001#0000000000000000
(1787678027.556535) can0 18FF28F4#1036000002140000
(1787678027.557536) can0 18FE28F4#0CFE0CFD40400000
(1787678027.558517) can0 18FD28F4#1702FA6F00000000
(1787678027.559438) can0 4D4#000036137D140203
(1787678027.560432) can0 4D5#FD0CFE0C40400000
(1787678027.561566) can0 18914010#0CFE010CFD020000
(1787678027.562486) can0 18904010#021402147543021D
(1787678027.563538) can0 18924010#4001400100000000
(1787678027.564513) can0 18934010#0101000D0000C902
(1787678027.565536) can0 18944010#1003000000000000
(1787678027.566561) can0 18954010#0000000000000000
(1787678027.567561) can0 18954010#0100000000000000
(1787678027.568563) can0 18954010#0200000000000000
(1787678027.569576) can0 18954010#0300000000000000
(1787678027.570538) can0 18954010#0400000000000000
(1787678027.571538) can0 18954010#0500000000000000
(1787678027.572535) can0 18964010#0040404000000000
(1787678027.573561) can0 18974010#0000000000000000
(1787678027.574536) can0 18984010#0000000000000000
(1787678027.575506) can0 18FA28F4#123EA12C23270000
(1787678027.576512) can0 18FB28F4#FE0CFD0C40400000
(1787678027.577566) can0 18FC28F4#3A36000014020000
(1787678027.578516) can0 18F810F3#1402D40336640100
(1787678027.579509) can0 18F811F3#FE0C0101FD0C0201
(1787678027.580516) can0 18F812F3#4001014001010000
(1787678027.581537) can0 18F813F3#0101010000000000
(1787678027.582516) can0 18F814F3#3200EA1AA9015F00
(1787678027.583438) can0 273#0000000014023600
(1787678027.584433) can0 1E1#02142723021D021D
(1787678027.585507) can0 1F5#0000000000000000
(1787678027.586538) can0 0800A6A9#0000000000000000
(1787678027.587510) can0 1000A6A9#14029B13364A4A4A
(1787678027.588533) can0 1C00A6A9#0000010000030000
(1787678027.589537) can0 02018100#1003021400000000
(1787678027.590536) can0 02028100#0013013664000000
(1787678027.591537) can0 02038100#0CFE01010CFD0102
(1787678027.592517) can0 02048100#4A01014A01010000
(1787678027.593439) can0 1AD#CA14EDFF59361818
(1787678027.594439) can0 2AD#FE0C800CCA140016
(1787678027.595440) can0 3AD#000000000000CA14
(1787678027.596434) can0 4AD#EB00000000000000
(1787678027.597441) can0 76A#7F00000000000000
(1787678027.656953) can0 0000E005#1702440003B60591
(1787678027.657520) can0 1806E5F4#1528010003B6023A
(1787678027.658515) can0 0000E000#1528152802140013
(1787678027.659539) can0 0000E004#181803B603B60202
(1787678027.660511) can0 0000E006#0CFE0CFD0CFD0CFE
(1787678027.661521) can0 0000E007#0CFE0CFE0CFE0CFE
(1787678027.662577) can0 0000E008#0CFE0CFE0CFE0CFD
(1787678027.663501) can0 0000E009#0CFE0CFD0CFD0CFE
(1787678027.664569) can0 0000E010#0000000000000000
(1787678027.665569) can0 0000E011#0000000000000000
(1787678027.666534) can0 0000E012#0CFE000000000000
(1787678027.667539) can0 0000F001#0000000000000000
(1787678027.668521) can0 18FF28F4#1036000002140000
(1787678027.669522) can0 18FE28F4#0CFE0CFD40400000
(1787678027.670516) can0 18FD28F4#1702FA6F00000000
(1787678027.671441) can0 4D4#000036137D140203
(1787678027.672442) can0 4D5#FD0CFE0C40400000
(1787678027.673513) can0 18914010#0CFE010CFD020000
(1787678027.674490) can0 18904010#021402147543021D
(1787678027.675512) can0 18FA28F4#123EA12C23270000
(1787678027.676512) can0 18FB28F4#FE0CFD0C40400000
(1787678027.677519) can0 18FC28F4#3A36000014020000
(1787678027.678503) can0 18F810F3#1402D40336640100
(1787678027.679441) can0 273#0000000014023600
(1787678027.680442) can0 1E1#02142723021D021D
(1787678027.681443) can0 1F5#0000000000000000
(1787678027.682535) can0 0800A6A9#0000000000000000
(1787678027.683490) can0 1000A6A9#14029B13364A4A4A
(1787678027.684521) can0 1C00A6A9#0000010000030000
(1787678027.685520) can0 02018100#1003021400000000
(1787678027.686520) can0 02028100#0013013664000000
(1787678027.687520) can0 02038100#0CFE01010CFD0102
(1787678027.688510) can0 02048100#4A01014A01010000
(1787678027.689443) can0 1AD#CA14EDFF59361818
(1787678027.690436) can0 2AD#FE0C800CCA140016
(1787678027.691440) can0 3AD#000000000000CA14
(1787678027.692442) can0 4AD#EB00000000000000
(1787678027.693443) can0 76A#7F00000000000000
(1787678027.756985) can0 0000E005#1702440003B60591
(1787678027.757570) can0 1806E5F4#1528010003B6023A
(1787678027.758523) can0 0000E000#1528152802140013
(1787678027.759542) can0 0000E004#181803B603B60202
(1787678027.760505) can0 0000E006#0CFE0CFD0CFD0CFE
(1787678027.761516) can0 0000E007#0CFE0CFE0CFE0CFE
(1787678027.762514) can0 0000E008#0CFE0CFE0CFE0CFD
(1787678027.763514) can0 0000E009#0CFE0CFD0CFD0CFE
(1787678027.764541) can0 0000E010#0000000000000000
(1787678027.765543) can0 0000E011#0000000000000000
(1787678027.766523) can0 0000E012#0CFE000000000000
(1787678027.767543) can0 0000F001#0000000000000000
(1787678027.768520) can0 18FF28F4#1036000002140000
(1787678027.769516) can0 18FE28F4#0CFE0CFD40400000
(1787678027.770515) can0 18FD28F4#1702FA6F00000000
(1787678027.771445) can0 4D4#000036137D140203
(1787678027.772445) can0 4D5#FD0CFE0C40400000
(1787678027.773506) can0 18914010#0CFE010CFD020000
(1787678027.774493) can0 18904010#021402147543021D
(1787678027.775503) can0 18FA28F4#123EA12C23270000
(1787678027.776518) can0 18FB28F4#FE0CFD0C40400000
(1787678027.777517) can0 18FC28F4#3A36000014020000
(1787678027.778495) can0 18F810F3#1402D40336640100
(1787678027.779445) can0 273#0000000014023600
(1787678027.780441) can0 1E1#02142723021D021D
(1787678027.781453) can0 1F5#0000000000000000
(1787678027.782543) can0 0800A6A9#0000000000000000
(1787678027.783484) can0 1000A6A9#14029B13364A4A4A
(1787678027.784543) can0 1C00A6A9#0000010000030000
(1787678027.785543) can0 02018100#1003021400000000
(1787678027.786517) can0 02028100#0013013664000000
(1787678027.787515) can0 02038100#0CFE01010CFD0102
(1787678027.788507) can0 02048100#4A01014A01010000
(1787678027.789446) can0 1AD#CA14EDFF59361818
(1787678027.790445) can0 2AD#FE0C800CCA140016
(1787678027.791443) can0 3AD#000000000000CA14
(1787678027.792463) can0 4AD#EB00000000000000
(1787678027.793446) can0 76A#7F00000000000000
(1787678027.856984) can0 0000E005#1702440003B60591
(1787678027.857546) can0 1806E5F4#1528010003B6023A
(1787678027.858508) can0 0000E000#1528152802140014
(1787678027.859515) can0 0000E004#181803B603B60202
(1787678027.860498) can0 0000E006#0CFE0CFD0CFD0CFE
(1787678027.861546) can0 0000E007#0CFE0CFE0CFE0CFE
(1787678027.862510) can0 0000E008#0CFE0CFE0CFE0CFD
(1787678027.863498) can0 0000E009#0CFD0CFE0CFD0CFE
(1787678027.864546) can0 0000E010#0000000000000000
(1787678027.865526) can0 0000E011#0000000000000000
(1787678027.866529) can0 0000E012#0CFE000000000000
(1787678027.867547) can0 0000F001#0000000000000000
(1787678027.868516) can0 18FF28F4#1036000002140000
(1787678027.869546) can0 18FE28F4#0CFE0CFD40400000
(1787678027.870516) can0 18FD28F4#1702FA6F00000000
(1787678027.871446) can0 4D4#000036147D140203
(1787678027.872448) can0 4D5#FD0CFE0C40400000
(1787678027.873509) can0 18914010#0CFE010CFD020000
(1787678027.874487) can0 18904010#021402147544021D
(1787678027.875506) can0 18FA28F4#123EA12C24270000
(1787678027.876496) can0 18FB28F4#FE0CFD0C40400000
(1787678027.877547) can0 18FC28F4#3A36000014020000
(1787678027.878500) can0 18F810F3#1402D30336640100
(1787678027.879451) can0 273#0000000014023600
(1787678027.880449) can0 1E1#02142724021D021D
(1787678027.881447) can0 1F5#0000000000000000
(1787678027.882528) can0 0800A6A9#0000000000000000
(1787678027.883496) can0 1000A6A9#14029C13364A4A4A
(1787678027.884508) can0 1C00A6A9#0000010000030000
(1787678027.885577) can0 02018100#1003021400000000
(1787678027.886523) can0 02028100#0014013664000000
(1787678027.887499) can0 02038100#0CFE01010CFD0102
(1787678027.888497) can0 02048100#4A01014A01010000
(1787678027.889450) can0 1AD#CA14ECFF59361818
(1787678027.890444) can0 2AD#FE0C800CCA140016
(1787678027.891449) can0 3AD#000000000000CA14
(1787678027.892449) can0 4AD#EB00000000000000
(1787678027.893487) can0 76A#7F00000000000000
(1787678027.956936) can0 0000E005#1702440003B60591
(1787678027.957501) can0 1806E5F4#1528010003B6023A
(1787678027.958499) can0 0000E000#1528152802140014
(1787678027.959509) can0 0000E004#181803B603B60202
(1787678027.960491) can0 0000E006#0CFE0CFD0CFD0CFE
(1787678027.961512) can0 0000E007#0CFE0CFE0CFE0CFE
(1787678027.962549) can0 0000E008#0CFE0CFE0CFE0CFD
(1787678027.963502) can0 0000E009#0CFD0CFE0CFD0CFE
(1787678027.964545) can0 0000E010#0000000000000000
(1787678027.965530) can0 0000E011#0000000000000000
(1787678027.966510) can0 0000E012#0CFE000000000000
(1787678027.967532) can0 0000F001#0000000000000000
(1787678027.968512) can0 18FF28F4#1036000002140000
(1787678027.969512) can0 18FE28F4#0CFE0CFD40400000
(1787678027.970578) can0 18FD28F4#1702FA6F00000000
(1787678027.971452) can0 4D4#000036147D140203
(1787678027.972446) can0 4D5#FD0CFE0C40400000
(1787678027.973490) can0 18914010#0CFE010CFD020000
(1787678027.974490) can0 18904010#021402147544021D
(1787678027.975492) can0 18FA28F4#123EA12C24270000
(1787678027.976502) can0 18FB28F4#FE0CFD0C40400000
(1787678027.977502) can0 18FC28F4#3A36000014020000
(1787678027.978500) can0 18F810F3#1402D30336640100
(1787678027.979452) can0 273#0000000014023600
(1787678027.980452) can0 1E1#02142724021D021D
(1787678027.981453) can0 1F5#0000000000000000
(1787678027.982523) can0 0800A6A9#0000000000000000
(1787678027.983480) can0 1000A6A9#14029C13364A4A4A
(1787678027.984513) can0 1C00A6A9#0000010000030000
(1787678027.985513) can0 02018100#1003021400000000
(1787678027.986510) can0 02028100#0014013664000000
(1787678027.987505) can0 02038100#0CFE01010CFD0102
(1787678027.988500) can0 02048100#4A01014A01010000
(1787678027.989453) can0 1AD#CA14ECFF59361818
(1787678027.990453) can0 2AD#FE0C800CCA140016
(1787678027.991450) can0 3AD#000000000000CA14
(1787678027.992453) can0 4AD#EB00000000000000
(1787678027.993453) can0 76A#7F00000000000000
(1787678028.073916) can0 0000E005#1702440003B60591
(1787678028.074484) can0 1806E5F4#1528010003B6023A
(1787678028.075504) can0 0000E000#1528152802140013
(1787678028.076515) can0 0000E004#181803B603B60202
(1787678028.077512) can0 0000E006#0CFE0CFE0CFD0CFD
(1787678028.078498) can0 0000E007#0CFE0CFE0CFE0CFE
(1787678028.079517) can0 0000E008#0CFE0CFE0CFE0CFD
(1787678028.080497) can0 0000E009#0CFE0CFD0CFD0CFE
(1787678028.081525) can0 0000E010#0000000000000000
(1787678028.082525) can0 0000E011#0000000000000000
(1787678028.083505) can0 0000E012#0CFE000000000000
(1787678028.084485) can0 0000E013#4542323630354C43
(1787678028.085505) can0 0000E014#3134323300000000
(1787678028.086519) can0 0000E015#0000000000000003
(1787678028.087534) can0 0000F000#0000000000000000
(1787678028.088514) can0 0000F001#0000000000000000
(1787678028.089515) can0 18FF28F4#1036000002140000
(1787678028.090509) can0 18FE28F4#0CFE0CFD40400000
(1787678028.091508) can0 18FD28F4#1702FA6F00000000
(1787678028.092457) can0 4D4#000036137D140203
(1787678028.093457) can0 4D5#FD0CFE0C40400000
(1787678028.094498) can0 18914010#0CFE010CFD030000
(1787678028.095475) can0 18904010#021402147543021D
(1787678028.096505) can0 18924010#4001400100000000
(1787678028.097505) can0 18934010#0101000E0000C902
(1787678028.098496) can0 18944010#1003000000000000
(1787678028.099515) can0 18954010#0000000000000000
(1787678028.100555) can0 18954010#0100000000000000
(1787678028.101517) can0 18954010#0200000000000000
(1787678028.102509) can0 18954010#0300000000000000
(1787678028.103517) can0 18954010#0400000000000000
(1787678028.104518) can0 18954010#0500000000000000
(1787678028.105509) can0 18964010#0040404000000000
(1787678028.106529) can0 18974010#0000000000000000
(1787678028.107516) can0 18984010#0000000000000000
(1787678028.108515) can0 18FA28F4#123EA12C23270000
(1787678028.109498) can0 18FB28F4#FE0CFD0C40400000
(1787678028.110486) can0 18FC28F4#3A36000014020000
(1787678028.111488) can0 18F810F3#1402D40336640100
(1787678028.112508) can0 18F811F3#FE0C0101FD0C0301
(1787678028.113495) can0 18F812F3#4001014001010000
(1787678028.114510) can0 18F813F3#0101010000000000
(1787678028.115495) can0 18F814F3#3200EA1AA9015F00
(1787678028.116458) can0 273#0000000014023600
(1787678028.117382) can0 1E1#02142723021D021D
(1787678028.118455) can0 1F5#0000000000000000
(1787678028.119517) can0 0800A6A9#0000000000000000
(1787678028.120480) can0 1000A6A9#14029B13364A4A4A
(1787678028.121507) can0 1C00A6A9#0000010000030000
(1787678028.122498) can0 02018100#1003021400000000
(1787678028.123506) can0 02028100#0013013664000000
(1787678028.124556) can0 02038100#0CFE01010CFD0103
(1787678028.125500) can0 02048100#4A01014A01010000
(1787678028.126381) can0 1AD#CA14EDFF59361818
(1787678028.127460) can0 2AD#FE0C800CCA140016
(1787678028.128458) can0 3AD#000000000000CA14
(1787678028.129460) can0 4AD#EB00000000000000
(1787678028.130459) can0 76A#7F00000000000000
(1787678028.189962) can0 0000E005#1702440003B60591
(1787678028.190521) can0 1806E5F4#1528010003B6023A
(1787678028.191500) can0 0000E000#1528152802140013
(1787678028.192500) can0 0000E004#181803B603B60202
(1787678028.193532) can0 0000E006#0CFE0CFE0CFD0CFD
(1787678028.194501) can0 0000E007#0CFE0CFE0CFE0CFE
(1787678028.195501) can0 0000E008#0CFE0CFE0CFE0CFD
(1787678028.196489) can0 0000E009#0CFE0CFD0CFD0CFE
(1787678028.197529) can0 0000E010#0000000000000000
(1787678028.198528) can0 0000E011#0000000000000000
(1787678028.199508) can0 0000E012#0CFE000000000000
(1787678028.200518) can0 0000F001#0000000000000000
(1787678028.201559) can0 18FF28F4#1036000002140000
(1787678028.202502) can0 18FE28F4#0CFE0CFD40400000
(1787678028.203499) can0 18FD28F4#1702FA6F00000000
(1787678028.204455) can0 4D4#000036137D140203
(1787678028.205462) can0 4D5#FD0CFE0C40400000
(1787678028.206501) can0 18914010#0CFE010CFD030000
(1787678028.207461) can0 18904010#021402147543021D
(1787678028.208478) can0 18FA28F4#123EA12C23270000
(1787678028.209500) can0 18FB28F4#FE0CFD0C40400000
(1787678028.210489) can0 18FC28F4#3A36000014020000
(1787678028.211489) can0 18F810F3#1402D40336640100
(1787678028.212461) can0 273#0000000014023600
(1787678028.213377) can0 1E1#02142723021D021D
(1787678028.214461) can0 1F5#0000000000000000
(1787678028.215508) can0 0800A6A9#0000000000000000
(1787678028.216467) can0 1000A6A9#14029B13364A4A4A
(1787678028.217509) can0 1C00A6A9#0000010000030000
(1787678028.218500) can0 02018100#1003021400000000
(1787678028.219499) can0 02028100#0013013664000000
(1787678028.220490) can0 02038100#0CFE01010CFD0103
(1787678028.221499) can0 02048100#4A01014A01010000
(1787678028.222379) can0 1AD#CA14EDFF59361818
(1787678028.223387) can0 2AD#FE0C800CCA140016
(1787678028.224462) can0 3AD#000000000000CA14
(1787678028.225460) can0 4AD#EB00000000000000
(1787678028.226462) can0 76A#7F00000000000000
(1787678028.289974) can0 0000E005#1702440003B60591
(1787678028.290527) can0 1806E5F4#1528010003B6023A
(1787678028.291492) can0 0000E000#1528152802140013
(1787678028.292493) can0 0000E004#181803B603B60202
(1787678028.293495) can0 0000E006#0CFE0CFE0CFD0CFD
(1787678028.294504) can0 0000E007#0CFE0CFE0CFE0CFE
(1787678028.295504) can0 0000E008#0CFE0CFE0CFE0CFD
(1787678028.296484) can0 0000E009#0CFE0CFD0CFD0CFE
(1787678028.297512) can0 0000E010#0000000000000000
(1787678028.298514) can0 0000E011#0000000000000000
(1787678028.299514) can0 0000E012#0CFE000000000000
(1787678028.300514) can0 0000F001#0000000000000000
(1787678028.301495) can0 18FF28F4#1036000002140000
(1787678028.302503) can0 18FE28F4#0CFE0CFD40400000
(1787678028.303494) can0 18FD28F4#1702FA6F00000000
(1787678028.304465) can0 4D4#000036137D140203
(1787678028.305464) can0 4D5#FD0CFE0C40400000
(1787678028.306482) can0 18914010#0CFE010CFD030000
(1787678028.307472) can0 18904010#021402147543021D
(1787678028.308484) can0 18FA28F4#123EA12C23270000
(1787678028.309484) can0 18FB28F4#FE0CFD0C40400000
(1787678028.310502) can0 18FC28F4#3A36000014020000
(1787678028.311482) can0 18F810F3#1402D40336640100
(1787678028.312465) can0 273#0000000014023600
(1787678028.313373) can0 1E1#02142723021D021D
(1787678028.314459) can0 1F5#0000000000000000
(1787678028.315512) can0 0800A6A9#0000000000000000
(1787678028.316465) can0 1000A6A9#14029B13364A4A4A
(1787678028.317512) can0 1C00A6A9#0000010000030000
(1787678028.318505) can0 02018100#1003021400000000
(1787678028.319493) can0 02028100#0013013664000000
(1787678028.320506) can0 02038100#0CFE01010CFD0103
(1787678028.321494) can0 02048100#4A01014A01010000
(1787678028.322372) can0 1AD#CA14EDFF59361818
(1787678028.323473) can0 2AD#FE0C800CCA140016
(1787678028.324465) can0 3AD#000000000000CA14
(1787678028.325466) can0 4AD#EB00000000000000
(1787678028.326459) can0 76A#7F00000000000000
(1787678028.389931) can0 0000E005#1702440003B60591
(1787678028.390492) can0 1806E5F4#1528010003B6023A
(1787678028.391486) can0 0000E000#1528152802140014
(1787678028.392496) can0 0000E004#181803B603B60202
(1787678028.393485) can0 0000E006#0CFE0CFD0CFE0CFE
(1787678028.394498) can0 0000E007#0CFE0CFE0CFE0CFE
(1787678028.395497) can0 0000E008#0CFE0CFE0CFE0CFE
(1787678028.396477) can0 0000E009#0CFE0CFD0CFD0CFE
(1787678028.397506) can0 0000E010#0000000000000000
(1787678028.398506) can0 0000E011#0000000000000000
(1787678028.399505) can0 0000E012#0CFE000000000000
(1787678028.400530) can0 0000F001#0000000000000000
(1787678028.401496) can0 18FF28F4#1036000002140000
(1787678028.402498) can0 18FE28F4#0CFE0CFD40400000
(1787678028.403497) can0 18FD28F4#1702FA6F00000000
(1787678028.404387) can0 4D4#000036147D140203
(1787678028.405396) can0 4D5#FD0CFE0C40400000
(1787678028.406496) can0 18914010#0CFE010CFD020000
(1787678028.407468) can0 18904010#021402147544021D
(1787678028.408506) can0 18FA28F4#123EA12C24270000
(1787678028.409486) can0 18FB28F4#FE0CFD0C40400000
(1787678028.410488) can0 18FC28F4#3A36000014020000
(1787678028.411478) can0 18F810F3#1402D30336640100
(1787678028.412462) can0 273#0000000014023600
(1787678028.413374) can0 1E1#02142724021D021D
(1787678028.414469) can0 1F5#0000000000000000
(1787678028.415496) can0 0800A6A9#0000000000000000
(1787678028.416497) can0 1000A6A9#14029C13364A4A4A
(1787678028.417496) can0 1C00A6A9#0000010000030000
(1787678028.418506) can0 02018100#1003021400000000
(1787678028.419508) can0 02028100#0014013664000000
(1787678028.420489) can0 02038100#0CFE01010CFD0102
(1787678028.421490) can0 02048100#4A01014A01010000
(1787678028.422377) can0 1AD#CA14ECFF59361818
(1787678028.423376) can0 2AD#FE0C800CCA140016
(1787678028.424463) can0 3AD#000000000000CA14
(1787678028.425467) can0 4AD#EB00000000000000
(1787678028.426469) can0 76A#7F00000000000000
(1787678028.489979) can0 0000E005#1702440003B60591
(1787678028.490512) can0 1806E5F4#1528010003B6023A
(1787678028.491481) can0 0000E000#1528152802140014
(1787678028.492481) can0 0000E004#181803B603B60202
(1787678028.493512) can0 0000E006#0CFE0CFD0CFE0CFE
(1787678028.494501) can0 0000E007#0CFE0CFE0CFE0CFE
(1787678028.495491) can0 0000E008#0CFE0CFE0CFE0CFE
(1787678028.496471) can0 0000E009#0CFE0CFD0CFD0CFE
(1787678028.497511) can0 0000E010#0000000000000000
(1787678028.498499) can0 0000E011#0000000000000000
(1787678028.499508) can0 0000E012#0CFE000000000000
(1787678028.500519) can0 0000F001#0000000000000000
(1787678028.501530) can0 18FF28F4#1036000002140000
(1787678028.502500) can0 18FE28F4#0CFE0CFD40400000
(1787678028.503499) can0 18FD28F4#1702FA6F00000000
(1787678028.504386) can0 4D4#000036147D140203
(1787678028.505389) can0 4D5#FD0CFE0C40400000
(1787678028.506471) can0 18914010#0CFE010CFD020000
(1787678028.507471) can0 18904010#021402147544021D
(1787678028.508471) can0 18FA28F4#123EA12C24270000
(1787678028.509522) can0 18FB28F4#FE0CFD0C40400000
(1787678028.510477) can0 18FC28F4#3A36000014020000
(1787678028.511469) can0 18F810F3#1402D30336640100
(1787678028.512389) can0 273#0000000014023600
(1787678028.513377) can0 1E1#02142724021D021D
(1787678028.514467) can0 1F5#0000000000000000
(1787678028.515502) can0 0800A6A9#0000000000000000
(1787678028.516472) can0 1000A6A9#14029C13364A4A4A
(1787678028.517490) can0 1C00A6A9#0000010000030000
(1787678028.518490) can0 02018100#1003021400000000
(1787678028.519489) can0 02028100#0014013664000000
(1787678028.520489) can0 02038100#0CFE01010CFD0102
(1787678028.521492) can0 02048100#4A01014A01010000
(1787678028.522367) can0 1AD#CA14ECFF59361818
(1787678028.523377) can0 2AD#FE0C800CCA140016
(1787678028.524388) can0 3AD#000000000000CA14
(1787678028.525472) can0 4AD#EB00000000000000
(1787678028.526390) can0 76A#7F00000000000000
(1787678028.606966) can0 0000E005#1702440003B60591
(1787678028.607520) can0 1806E5F4#1528010003B6023A
(1787678028.608475) can0 0000E000#1528152802140014
(1787678028.609483) can0 0000E004#181803B603B60202
(1787678028.610487) can0 0000E006#0CFD0CFD0CFE0CFE
(1787678028.611478) can0 0000E007#0CFD0CFE0CFE0CFE
(1787678028.612486) can0 0000E008#0CFE0CFE0CFE0CFE
(1787678028.613469) can0 0000E009#0CFE0CFD0CFD0CFE
(1787678028.614503) can0 0000E010#0000000000000000
(1787678028.615503) can0 0000E011#0000000000000000
(1787678028.616495) can0 0000E012#0CFE000000000000
(1787678028.617470) can0 0000E013#4542323630354C43
(1787678028.618476) can0 0000E014#3134323300000000
(1787678028.619503) can0 0000E015#0000000000000003
(1787678028.620503) can0 0000F000#0000000000000000
(1787678028.621504) can0 0000F001#0000000000000000
(1787678028.622483) can0 18FF28F4#1036000002140000
(1787678028.623505) can0 18FE28F4#0CFE0CFD40400000
(1787678028.624476) can0 18FD28F4#1702FA6F00000000
(1787678028.625371) can0 4D4#000036147D140203
(1787678028.626395) can0 4D5#FD0CFE0C40400000
(1787678028.627478) can0 18914010#0CFE030CFD010000
(1787678028.628476) can0 18904010#021402147544021D
(1787678028.629482) can0 18924010#4001400100000000
(1787678028.630483) can0 18934010#0101000F0000C902
(1787678028.631506) can0 18944010#1003000000000000
(1787678028.632515) can0 18954010#0000000000000000
(1787678028.633516) can0 18954010#0100000000000000
(1787678028.634495) can0 18954010#0200000000000000
(1787678028.635493) can0 18954010#0300000000000000
(1787678028.636504) can0 18954010#0400000000000000
(1787678028.637484) can0 18954010#0500000000000000
(1787678028.638484) can0 18964010#0040404000000000
(1787678028.639516) can0 18974010#0000000000000000
(1787678028.640493) can0 18984010#0000000000000000
(1787678028.641476) can0 18FA28F4#123EA12C24270000
(1787678028.642476) can0 18FB28F4#FE0CFD0C40400000
(1787678028.643476) can0 18FC28F4#3A36000014020000
(1787678028.644476) can0 18F810F3#1402D30336640100
(1787678028.645477) can0 18F811F3#FE0C0301FD0C0101
(1787678028.646477) can0 18F812F3#4001014001010000
(1787678028.647526) can0 18F813F3#0101010000000000
(1787678028.648470) can0 18F814F3#3200EA1AA9015F00
(1787678028.649395) can0 273#0000000014023600
(1787678028.650362) can0 1E1#02142724021D021D
(1787678028.651404) can0 1F5#0000000000000000
(1787678028.652484) can0 0800A6A9#0000000000000000
(1787678028.653476) can0 1000A6A9#14029C13364A4A4A
(1787678028.654477) can0 1C00A6A9#0000010000030000
(1787678028.655527) can0 02018100#1003021400000000
(1787678028.656477) can0 02028100#0014013664000000
(1787678028.657477) can0 02038100#0CFE01030CFD0101
(1787678028.658477) can0 02048100#4A01014A01010000
(1787678028.659354) can0 1AD#CA14ECFF59361818
(1787678028.660372) can0 2AD#FE0C800CCA140016
(1787678028.661385) can0 3AD#000000000000CA14
(1787678028.662404) can0 4AD#EB00000000000000
(1787678028.663478) can0 76A#7F00000000000000
(1787678028.722930) can0 0000E005#1702440003B60591
(1787678028.723511) can0 1806E5F4#1528010003B6023A
(1787678028.724508) can0 0000E000#1528152802140014
(1787678028.725481) can0 0000E004#181803B603B60202
(1787678028.726480) can0 0000E006#0CFD0CFD0CFE0CFE
(1787678028.727479) can0 0000E007#0CFD0CFE0CFE0CFE
(1787678028.728479) can0 0000E008#0CFE0CFE0CFE0CFE
(1787678028.729480) can0 0000E009#0CFE0CFD0CFD0CFE
(1787678028.730496) can0 0000E010#0000000000000000
(1787678028.731507) can0 0000E011#0000000000000000
(1787678028.732537) can0 0000E012#0CFE000000000000
(1787678028.733497) can0 0000F001#0000000000000000
(1787678028.734474) can0 18FF28F4#1036000002140000
(1787678028.735479) can0 18FE28F4#0CFE0CFD40400000
(1787678028.736479) can0 18FD28F4#1702FA6F00000000
(1787678028.737375) can0 4D4#000036147D140203
(1787678028.738375) can0 4D5#FD0CFE0C40400000
(1787678028.739480) can0 18914010#0CFE030CFD010000
(1787678028.740507) can0 18904010#021402147544021D
(1787678028.741477) can0 18FA28F4#123EA12C24270000
(1787678028.742474) can0 18FB28F4#FE0CFD0C40400000
(1787678028.743480) can0 18FC28F4#3A36000014020000
(1787678028.744479) can0 18F810F3#1402D30336640100
(1787678028.745395) can0 273#0000000014023600
(1787678028.746353) can0 1E1#02142724021D021D
(1787678028.747407) can0 1F5#0000000000000000
(1787678028.748487) can0 0800A6A9#0000000000000000
(1787678028.749477) can0 1000A6A9#14029C13364A4A4A
(1787678028.750480) can0 1C00A6A9#0000010000030000
(1787678028.751480) can0 02018100#1003021400000000
(1787678028.752479) can0 02028100#0014013664000000
(1787678028.753480) can0 02038100#0CFE01030CFD0101
(1787678028.754474) can0 02048100#4A01014A01010000
(1787678028.755358) can0 1AD#CA14ECFF59361818
(1787678028.756367) can0 2AD#FE0C800CCA140016
(1787678028.757385) can0 3AD#000000000000CA14
(1787678028.758388) can0 4AD#EB00000000000000
(1787678028.759395) can0 76A#7F00000000000000
(1787678028.822946) can0 0000E005#1702440003B60591
(1787678028.823515) can0 1806E5F4#1528010003B6023A
(1787678028.824483) can0 0000E000#1528152802140014
(1787678028.825483) can0 0000E004#181803B603B60202
(1787678028.826483) can0 0000E006#0CFD0CFD0CFE0CFE
(1787678028.827483) can0 0000E007#0CFD0CFE0CFE0CFE
(1787678028.828476) can0 0000E008#0CFE0CFE0CFE0CFE
(1787678028.829482) can0 0000E009#0CFE0CFD0CFD0CFE
(1787678028.830492) can0 0000E010#0000000000000000
(1787678028.831482) can0 0000E011#0000000000000000
(1787678028.832477) can0 0000E012#0CFE000000000000
(1787678028.833500) can0 0000F001#0000000000000000
(1787678028.834483) can0 18FF28F4#1036000002140000
(1787678028.835483) can0 18FE28F4#0CFE0CFD40400000
(1787678028.836483) can0 18FD28F4#1702FA6F00000000
(1787678028.837378) can0 4D4#000036147D140203
(1787678028.838378) can0 4D5#FD0CFE0C40400000
(1787678028.839483) can0 18914010#0CFE030CFD010000
(1787678028.840477) can0 18904010#021402147544021D
(1787678028.841483) can0 18FA28F4#123EA12C24270000
(1787678028.842483) can0 18FB28F4#FE0CFD0C40400000
(1787678028.843483) can0 18FC28F4#3A36000014020000
(1787678028.844477) can0 18F810F3#1402D30336640100
(1787678028.845379) can0 273#0000000014023600
(1787678028.846359) can0 1E1#02142724021D021D
(1787678028.847398) can0 1F5#0000000000000000
(1787678028.848483) can0 0800A6A9#0000000000000000
(1787678028.849485) can0 1000A6A9#14029C13364A4A4A
(1787678028.850484) can0 1C00A6A9#0000010000030000
(1787678028.851483) can0 02018100#1003021400000000
(1787678028.852477) can0 02028100#0014013664000000
(1787678028.853484) can0 02038100#0CFE01030CFD0101
(1787678028.854483) can0 02048100#4A01014A01010000
(1787678028.855359) can0 1AD#CA14ECFF59361818
(1787678028.856357) can0 2AD#FE0C800CCA140016
(1787678028.857392) can0 3AD#000000000000CA14
(1787678028.858381) can0 4AD#EB00000000000000
(1787678028.859402) can0 76A#7F00000000000000
(1787678028.922937) can0 0000E005#1702440003B60591
(1787678028.923500) can0 1806E5F4#1528010003B6023A
(1787678028.924486) can0 0000E000#1528152802140014
(1787678028.925485) can0 0000E004#181803B603B60202
(1787678028.926480) can0 0000E006#0CFD0CFE0CFD0CFE
(1787678028.927486) can0 0000E007#0CFE0CFE0CFD0CFE
(1787678028.928486) can0 0000E008#0CFE0CFE0CFE0CFE
(1787678028.929486) can0 0000E009#0CFE0CFD0CFD0CFE
(1787678028.930503) can0 0000E010#0000000000000000
(1787678028.931496) can0 0000E011#0000000000000000
(1787678028.932486) can0 0000E012#0CFE000000000000
(1787678028.933498) can0 0000F001#0000000000000000
(1787678028.934489) can0 18FF28F4#1036000002140000
(1787678028.935487) can0 18FE28F4#0CFE0CFD40400000
(1787678028.936486) can0 18FD28F4#1702FA6F00000000
(1787678028.937361) can0 4D4#000036147D140203
(1787678028.938382) can0 4D5#FD0CFE0C40400000
(1787678028.939486) can0 18914010#0CFE020CFD010000
(1787678028.940486) can0 18904010#021402147544021D
(1787678028.941487) can0 18FA28F4#123EA12C24270000
(1787678028.942481) can0 18FB28F4#FE0CFD0C40400000
(1787678028.943486) can0 18FC28F4#3A36000014020000
(1787678028.944484) can0 18F810F3#1402D30336640100
(1787678028.945384) can0 273#0000000014023600
(1787678028.946364) can0 1E1#02142724021D021D
(1787678028.947412) can0 1F5#0000000000000000
(1787678028.948486) can0 0800A6A9#0000000000000000
(1787678028.949487) can0 1000A6A9#14029C13364A4A4A
(1787678028.950481) can0 1C00A6A9#0000010000030000
(1787678028.951487) can0 02018100#1003021400000000
(1787678028.952487) can0 02028100#0014013664000000
(1787678028.953487) can0 02038100#0CFE01020CFD0101
(1787678028.954481) can0 02048100#4A01014A01010000
(1787678028.955382) can0 1AD#CA14ECFF59361818
(1787678028.956362) can0 2AD#FE0C800CCA140016
(1787678028.957372) can0 3AD#000000000000CA14
(1787678028.958392) can0 4AD#EB00000000000000
(1787678028.959384) can0 76A#7F00000000000000
(1787678029.022929) can0 0000E005#1702440003B60591
(1787678029.023497) can0 1806E5F4#1528010003B6023A
(1787678029.024484) can0 0000E000#1528152802140014
(1787678029.025489) can0 0000E004#181803B603B60202
(1787678029.026490) can0 0000E006#0CFD0CFE0CFD0CFE
(1787678029.027489) can0 0000E007#0CFE0CFE0CFD0CFE
(1787678029.028484) can0 0000E008#0CFE0CFE0CFE0CFE
(1787678029.029490) can0 0000E009#0CFE0CFD0CFD0CFE
(1787678029.030489) can0 0000E010#0000000000000000
(1787678029.031490) can0 0000E011#0000000000000000
(1787678029.032497) can0 0000E012#0CFE000000000000
(1787678029.033489) can0 0000F001#0000000000000000
(1787678029.034490) can0 18FF28F4#1036000002140000
(1787678029.035489) can0 18FE28F4#0CFE0CFD40400000
(1787678029.036484) can0 18FD28F4#1702FA6F00000000
(1787678029.037365) can0 4D4#000036147D140203
(1787678029.038367) can0 4D5#FD0CFE0C40400000
(1787678029.039490) can0 18914010#0CFE020CFD010000
(1787678029.040484) can0 18904010#021402147544021D
(1787678029.041490) can0 18FA28F4#123EA12C24270000
(1787678029.042490) can0 18FB28F4#FE0CFD0C40400000
(1787678029.043490) can0 18FC28F4#3A36000014020000
(1787678029.044490) can0 18F810F3#1402D30336640100
(1787678029.045367) can0 273#0000000014023600
(1787678029.046365) can0 1E1#02142724021D021D
(1787678029.047397) can0 1F5#0000000000000000
(1787678029.048529) can0 0800A6A9#0000000000000000
(1787678029.049491) can0 1000A6A9#14029C13364A4A4A
(1787678029.050490) can0 1C00A6A9#0000010000030000
(1787678029.051490) can0 02018100#1003021400000000
(1787678029.052485) can0 02028100#0014013664000000
(1787678029.053491) can0 02038100#0CFE01020CFD0101
(1787678029.054491) can0 02048100#4A01014A01010000
(1787678029.055343) can0 1AD#CA14ECFF59361818
(1787678029.056366) can0 2AD#FE0C800CCA140016
(1787678029.057366) can0 3AD#000000000000CA14
(1787678029.058386) can0 4AD#EB00000000000000
(1787678029.059376) can0 76A#7F00000000000000
(1787678029.139927) can0 0000E005#1702440003B60591
(1787678029.140494) can0 1806E5F4#1528010003B6023A
(1787678029.141491) can0 0000E000#1528152802140014
(1787678029.142491) can0 0000E004#181803B603B60202
(1787678029.143488) can0 0000E006#0CFE0CFD0CFE0CFE
(1787678029.144493) can0 0000E007#0CFD0CFE0CFE0CFE
(1787678029.145494) can0 0000E008#0CFE0CFE0CFE0CFD
(1787678029.146493) can0 0000E009#0CFE0CFD0CFD0CFE
(1787678029.147494) can0 0000E010#0000000000000000
(1787678029.148493) can0 0000E011#0000000000000000
(1787678029.149494) can0 0000E012#0CFE000000000000
(1787678029.150418) can0 0000E013#4542323630354C43
(1787678029.151488) can0 0000E014#3134323300000000
(1787678029.152494) can0 0000E015#0000000000000003
(1787678029.153494) can0 0000F000#0000000000000000
(1787678029.154494) can0 0000F001#0000000000000000
(1787678029.155489) can0 18FF28F4#1036000002140000
(1787678029.156494) can0 18FE28F4#0CFE0CFD40400000
(1787678029.157494) can0 18FD28F4#1702FA6F00000000
(1787678029.158371) can0 4D4#000036147D140203
(1787678029.159371) can0 4D5#FD0CFE0C40400000
(1787678029.160494) can0 18914010#0CFE010CFD020000
(1787678029.161495) can0 18904010#021402147544021D
(1787678029.162494) can0 18924010#4001400100000000
(1787678029.163488) can0 18934010#010100100000C903
(1787678029.164494) can0 18944010#1003000000000000
(1787678029.165495) can0 18954010#0000000000000000
(1787678029.166494) can0 18954010#0100000000000000
(1787678029.167488) can0 18954010#0200000000000000
(1787678029.168494) can0 18954010#0300000000000000
(1787678029.169494) can0 18954010#0400000000000000
(1787678029.170494) can0 18954010#0500000000000000
(1787678029.171492) can0 18964010#0040404000000000
(1787678029.172492) can0 18974010#0000000000000000
(1787678029.173493) can0 18984010#0000000000000000
(1787678029.174495) can0 18FA28F4#123EA12C24270000
(1787678029.175488) can0 18FB28F4#FE0CFD0C40400000
(1787678029.176494) can0 18FC28F4#3A36000014020000
(1787678029.177495) can0 18F810F3#1402D30336640100
(1787678029.178495) can0 18F811F3#FE0C0101FD0C0201
(1787678029.179489) can0 18F812F3#4001014001010000
(1787678029.180495) can0 18F813F3#0101010000000000
(1787678029.181494) can0 18F814F3#3200EA1AA9015F00
(1787678029.182372) can0 273#0000000014023600
(1787678029.183345) can0 1E1#02142724021D021D
(1787678029.184390) can0 1F5#0000000000000000
(1787678029.185496) can0 0800A6A9#0000000000000000
(1787678029.186496) can0 1000A6A9#14029C13364A4A4A
(1787678029.187489) can0 1C00A6A9#0000010000030000
(1787678029.188495) can0 02018100#1003021400000000
(1787678029.189493) can0 02028100#0014013664000000
(1787678029.190495) can0 02038100#0CFE01010CFD0102
(1787678029.191489) can0 02048100#4A01014A01010000
(1787678029.192343) can0 1AD#CA14ECFF59361818
(1787678029.193371) can0 2AD#FE0C800CCA140016
(1787678029.194403) can0 3AD#000000000000CA14
(1787678029.195384) can0 4AD#EB00000000000000
(1787678029.196384) can0 76A#7F00000000000000
(1787678029.255923) can0 0000E005#1702440003B60591
(1787678029.256497) can0 1806E5F4#1528010003B6023A
(1787678029.257492) can0 0000E000#1528152802140014
(1787678029.258495) can0 0000E004#181803B603B60202
(1787678029.259498) can0 0000E006#0CFE0CFD0CFE0CFE
(1787678029.260498) can0 0000E007#0CFD0CFE0CFE0CFE
(1787678029.261493) can0 0000E008#0CFE0CFE0CFE0CFD
(1787678029.262498) can0 0000E009#0CFE0CFD0CFD0CFE
(1787678029.263498) can0 0000E010#0000000000000000
(1787678029.264498) can0 0000E011#0000000000000000
(1787678029.265498) can0 0000E012#0CFE000000000000
(1787678029.266498) can0 0000F001#0000000000000000
(1787678029.267498) can0 18FF28F4#1036000002140000
(1787678029.268498) can0 18FE28F4#0CFE0CFD40400000
(1787678029.269498) can0 18FD28F4#1702FA6F00000000
(1787678029.270373) can0 4D4#000036147D140203
(1787678029.271403) can0 4D5#FD0CFE0C40400000
(1787678029.272492) can0 18914010#0CFE010CFD020000
(1787678029.273423) can0 18904010#021402147544021D
(1787678029.274498) can0 18FA28F4#123EA12C24270000
(1787678029.275498) can0 18FB28F4#FE0CFD0C40400000
(1787678029.276498) can0 18FC28F4#3A36000014020000
(1787678029.277499) can0 18F810F3#1402D30336640100
(1787678029.278373) can0 273#0000000014023600
(1787678029.279393) can0 1E1#02142724021D021D
(1787678029.280371) can0 1F5#0000000000000000
(1787678029.281498) can0 0800A6A9#0000000000000000
(1787678029.282499) can0 1000A6A9#14029C13364A4A4A
(1787678029.283498) can0 1C00A6A9#0000010000030000
(1787678029.284493) can0 02018100#1003021400000000
(1787678029.285499) can0 02028100#0014013664000000
(1787678029.286498) can0 02038100#0CFE01010CFD0102
(1787678029.287498) can0 02048100#4A01014A01010000
(1787678029.288346) can0 1AD#CA14ECFF59361818
(1787678029.289347) can0 2AD#FE0C800CCA140016
(1787678029.290376) can0 3AD#000000000000CA14
(1787678029.291376) can0 4AD#EB00000000000000
(1787678029.292371) can0 76A#7F00000000000000
(1787678029.355920) can0 0000E005#1702440003B60591
(1787678029.356501) can0 1806E5F4#1528010003B6023A
(1787678029.357501) can0 0000E000#1528152802140014
(1787678029.358495) can0 0000E004#181803B603B60202
(1787678029.359501) can0 0000E006#0CFE0CFD0CFE0CFE
(1787678029.360501) can0 0000E007#0CFD0CFE0CFE0CFE
(1787678029.361501) can0 0000E008#0CFE0CFE0CFE0CFD
(1787678029.362501) can0 0000E009#0CFE0CFD0CFD0CFE
(1787678029.363501) can0 0000E010#0000000000000000
(1787678029.364501) can0 0000E011#0000000000000000
(1787678029.365502) can0 0000E012#0CFE000000000000
(1787678029.366495) can0 0000F001#0000000000000000
(1787678029.367501) can0 18FF28F4#1036000002140000
(1787678029.368507) can0 18FE28F4#0CFE0CFD40400000
(1787678029.369506) can0 18FD28F4#1702FA6F00000000
(1787678029.370353) can0 4D4#000036147D140203
(1787678029.371354) can0 4D5#FD0CFE0C40400000
(1787678029.372501) can0 18914010#0CFE010CFD020000
(1787678029.373417) can0 18904010#021402147544021D
(1787678029.374501) can0 18FA28F4#123EA12C24270000
(1787678029.375501) can0 18FB28F4#FE0CFD0C40400000
(1787678029.376502) can0 18FC28F4#3A36000014020000
(1787678029.377500) can0 18F810F3#1402D30336640100
(1787678029.378374) can0 273#0000000014023600
(1787678029.379349) can0 1E1#02142724021D021D
(1787678029.380376) can0 1F5#0000000000000000
(1787678029.381502) can0 0800A6A9#0000000000000000
(1787678029.382409) can0 1000A6A9#14029C13364A4A4A
(1787678029.383502) can0 1C00A6A9#0000010000030000
(1787678029.384502) can0 02018100#1003021400000000
(1787678029.385502) can0 02028100#0014013664000000
(1787678029.386502) can0 02038100#0CFE01010CFD0102
(1787678029.387502) can0 02048100#4A01014A01010000
(1787678029.388349) can0 1AD#CA14ECFF59361818
(1787678029.389350) can0 2AD#FE0C800CCA140016
(1787678029.390353) can0 3AD#000000000000CA14
(1787678029.391377) can0 4AD#EB00000000000000
(1787678029.392379) can0 76A#7F00000000000000
(1787678029.475862) can0 0000E005#1702440003B60591
(1787678029.476425) can0 1806E5F4#1528010003B6023A
(1787678029.477505) can0 0000E000#1528152802140013
(1787678029.478505) can0 0000E004#181803B603B60202
(1787678029.479505) can0 0000E006#0CFD0CFE0CFE0CFE
(1787678029.480505) can0 0000E007#0CFE0CFE0CFD0CFE
(1787678029.481506) can0 0000E008#0CFD0CFE0CFE0CFE
(1787678029.482505) can0 0000E009#0CFD0CFE0CFD0CFE
(1787678029.483505) can0 0000E010#0000000000000000
(1787678029.484499) can0 0000E011#0000000000000000
(1787678029.485506) can0 0000E012#0CFE000000000000
(1787678029.486503) can0 0000F001#0000000000000000
(1787678029.487505) can0 18FF28F4#1036000002140000
(1787678029.488500) can0 18FE28F4#0CFE0CFD40400000
(1787678029.489506) can0 18FD28F4#1702FA6F00000000
(1787678029.490356) can0 4D4#000036137D140203
(1787678029.491353) can0 4D5#FD0CFE0C40400000
(1787678029.492506) can0 18914010#0CFE020CFD010000
(1787678029.493424) can0 18904010#021402147543021D
(1787678029.494506) can0 18FA28F4#123EA12C23270000
(1787678029.495433) can0 18FB28F4#FE0CFD0C40400000
(1787678029.496434) can0 18FC28F4#3A36000014020000
(1787678029.497421) can0 18F810F3#1402D40336640100
(1787678029.498356) can0 273#0000000014023600
(1787678029.499326) can0 1E1#02142723021D021D
(1787678029.500379) can0 1F5#0000000000000000
(1787678029.501506) can0 0800A6A9#0000000000000000
(1787678029.502506) can0 1000A6A9#14029B13364A4A4A
(1787678029.503506) can0 1C00A6A9#0000010000030000
(1787678029.504503) can0 02018100#1003021400000000
(1787678029.505431) can0 02028100#0013013664000000
(1787678029.506506) can0 02038100#0CFE01020CFD0101
(1787678029.507439) can0 02048100#4A01014A01010000
(1787678029.508321) can0 1AD#CA14EDFF59361818
(1787678029.509336) can0 2AD#FE0C800CCA140016
(1787678029.510401) can0 3AD#000000000000CA14
(1787678029.511383) can0 4AD#EB00000000000000
(1787678029.512356) can0 76A#7F00000000000000
(1787678029.575909) can0 0000E005#1702440003B60591
(1787678029.576508) can0 1806E5F4#1528010003B6023A
(1787678029.577434) can0 0000E000#1528152802140013
(1787678029.578434) can0 0000E004#181803B603B60202
(1787678029.579508) can0 0000E006#0CFD0CFE0CFE0CFE
(1787678029.580436) can0 0000E007#0CFE0CFE0CFD0CFE
(1787678029.581509) can0 0000E008#0CFD0CFE0CFE0CFE
(1787678029.582437) can0 0000E009#0CFD0CFE0CFD0CFE
(1787678029.583509) can0 0000E010#0000000000000000
(1787678029.584509) can0 0000E011#0000000000000000
(1787678029.585509) can0 0000E012#0CFE000000000000
(1787678029.586503) can0 0000F001#0000000000000000
(1787678029.587508) can0 18FF28F4#1036000002140000
(1787678029.588436) can0 18FE28F4#0CFE0CFD40400000
(1787678029.589437) can0 18FD28F4#1702FA6F00000000
(1787678029.590356) can0 4D4#000036137D140203
(1787678029.591356) can0 4D5#FD0CFE0C40400000
(1787678029.592434) can0 18914010#0CFE020CFD010000
(1787678029.593415) can0 18904010#021402147543021D
(1787678029.594427) can0 18FA28F4#123EA12C23270000
(1787678029.595427) can0 18FB28F4#FE0CFD0C40400000
(1787678029.596509) can0 18FC28F4#3A36000014020000
(1787678029.597415) can0 18F810F3#1402D40336640100
(1787678029.598352) can0 273#0000000014023600
(1787678029.599320) can0 1E1#02142723021D021D
(1787678029.600359) can0 1F5#0000000000000000
(1787678029.601509) can0 0800A6A9#0000000000000000
(1787678029.602404) can0 1000A6A9#14029B13364A4A4A
(1787678029.603509) can0 1C00A6A9#0000010000030000
(1787678029.604507) can0 02018100#1003021400000000
(1787678029.605438) can0 02028100#0013013664000000
(1787678029.606428) can0 02038100#0CFE01020CFD0101
(1787678029.607434) can0 02048100#4A01014A01010000
(1787678029.608312) can0 1AD#CA14EDFF59361818
(1787678029.609332) can0 2AD#FE0C800CCA140016
(1787678029.610367) can0 3AD#000000000000CA14
(1787678029.611361) can0 4AD#EB00000000000000
(1787678029.612358) can0 76A#7F00000000000000
(1787678029.692905) can0 0000E005#1702440003B60591
(1787678029.693516) can0 1806E5F4#1528010003B6023A
(1787678029.694439) can0 0000E000#1528152802140014
(1787678029.695428) can0 0000E004#181803B603B60202
(1787678029.696430) can0 0000E006#0CFD0CFD0CFE0CFE
(1787678029.697431) can0 0000E007#0CFE0CFE0CFE0CFD
(1787678029.698430) can0 0000E008#0CFE0CFE0CFE0CFE
(1787678029.699430) can0 0000E009#0CFE0CFD0CFD0CFE
(1787678029.700513) can0 0000E010#0000000000000000
(1787678029.701508) can0 0000E011#0000000000000000
(1787678029.702438) can0 0000E012#0CFE000000000000
(1787678029.703408) can0 0000E013#4542323630354C43
(1787678029.704438) can0 0000E014#3134323300000000
(1787678029.705513) can0 0000E015#0000000000000003
(1787678029.706513) can0 0000F000#0000000000000000
(1787678029.707513) can0 0000F001#0000000000000000
(1787678029.708430) can0 18FF28F4#1036000002140000
(1787678029.709443) can0 18FE28F4#0CFE0CFD40400000
(1787678029.710428) can0 18FD28F4#1702FA6F00000000
(1787678029.711333) can0 4D4#000036147D140203
(1787678029.712361) can0 4D5#FD0CFE0C40400000
(1787678029.713421) can0 18914010#0CFE030CFD010000
(1787678029.714409) can0 18904010#021402147544021D
(1787678029.715441) can0 18924010#4001400100000000
(1787678029.716438) can0 18934010#010100110000C903
(1787678029.717514) can0 18944010#1003000000000000
(1787678029.718514) can0 18954010#0000000000000000
(1787678029.719513) can0 18954010#0100000000000000
(1787678029.720513) can0 18954010#0200000000000000
(1787678029.721432) can0 18954010#0300000000000000
(1787678029.722513) can0 18954010#0400000000000000
(1787678029.723511) can0 18954010#0500000000000000
(1787678029.724440) can0 18964010#0040404000000000
(1787678029.725509) can0 18974010#0000000000000000
(1787678029.726514) can0 18984010#0000000000000000
(1787678029.727419) can0 18FA28F4#123EA12C24270000
(1787678029.728419) can0 18FB28F4#FE0CFD0C40400000
(1787678029.729431) can0 18FC28F4#3A36000014020000
(1787678029.730409) can0 18F810F3#1402D30336640100
(1787678029.731431) can0 18F811F3#FE0C0301FD0C0101
(1787678029.732419) can0 18F812F3#4001014001010000
(1787678029.733509) can0 18F813F3#0101010000000000
(1787678029.734409) can0 18F814F3#3200EA1AA9015F00
(1787678029.735362) can0 273#0000000014023600
(1787678029.736326) can0 1E1#02142724021D021D
(1787678029.737358) can0 1F5#0000000000000000
(1787678029.738516) can0 0800A6A9#0000000000000000
(1787678029.739410) can0 1000A6A9#14029C13364A4A4A
(1787678029.740441) can0 1C00A6A9#0000010000030000
(1787678029.741515) can0 02018100#1003021400000000
(1787678029.742430) can0 02028100#0014013664000000
(1787678029.743432) can0 02038100#0CFE01030CFD0101
(1787678029.744429) can0 02048100#4A01014A01010000
(1787678029.745308) can0 1AD#CA14ECFF59361818
(1787678029.746327) can0 2AD#FE0C800CCA140016
(1787678029.747364) can0 3AD#000000000000CA14
(1787678029.748362) can0 4AD#EB00000000000000
(1787678029.749357) can0 76A#7F00000000000000
(1787678029.808905) can0 0000E005#1702440003B60591
(1787678029.809517) can0 1806E5F4#1528010003B6023A
(1787678029.810517) can0 0000E000#1528152802140014
(1787678029.811434) can0 0000E004#181803B603B60202
(1787678029.812414) can0 0000E006#0CFD0CFD0CFE0CFE
(1787678029.813435) can0 0000E007#0CFE0CFE0CFE0CFD
(1787678029.814424) can0 0000E008#0CFE0CFE0CFE0CFE
(1787678029.815423) can0 0000E009#0CFE0CFD0CFD0CFE
(1787678029.816517) can0 0000E010#0000000000000000
(1787678029.817442) can0 0000E011#0000000000000000
(1787678029.818517) can0 0000E012#0CFE000000000000
(1787678029.819512) can0 0000F001#0000000000000000
(1787678029.820432) can0 18FF28F4#1036000002140000
(1787678029.821435) can0 18FE28F4#0CFE0CFD40400000
(1787678029.822422) can0 18FD28F4#1702FA6F00000000
(1787678029.823329) can0 4D4#000036147D140203
(1787678029.824347) can0 4D5#FD0CFE0C40400000
(1787678029.825425) can0 18914010#0CFE030CFD010000
(1787678029.826405) can0 18904010#021402147544021D
(1787678029.827412) can0 18FA28F4#123EA12C24270000
(1787678029.828415) can0 18FB28F4#FE0CFD0C40400000
(1787678029.829413) can0 18FC28F4#3A36000014020000
(1787678029.830412) can0 18F810F3#1402D30336640100
(1787678029.831360) can0 273#0000000014023600
(1787678029.832310) can0 1E1#02142724021D021D
(1787678029.833365) can0 1F5#0000000000000000
(1787678029.834445) can0 0800A6A9#0000000000000000
(1787678029.835405) can0 1000A6A9#14029C13364A4A4A
(1787678029.836433) can0 1C00A6A9#0000010000030000
(1787678029.837433) can0 02018100#1003021400000000
(1787678029.838433) can0 02028100#0014013664000000
(1787678029.839424) can0 02038100#0CFE01030CFD0101
(1787678029.840422) can0 02048100#4A01014A01010000
(1787678029.841311) can0 1AD#CA14ECFF59361818
(1787678029.842318) can0 2AD#FE0C800CCA140016
(1787678029.843335) can0 3AD#000000000000CA14
(1787678029.844365) can0 4AD#EB00000000000000
(1787678029.845366) can0 76A#7F00000000000000
(1787678029.908907) can0 0000E005#1702440003B60591
(1787678029.909457) can0 1806E5F4#1528010003B6023A
(1787678029.910416) can0 0000E000#1528152802140014
(1787678029.911415) can0 0000E004#181803B603B60202
(1787678029.912417) can0 0000E006#0CFD0CFD0CFE0CFE
(1787678029.913428) can0 0000E007#0CFE0CFE0CFE0CFD
(1787678029.914427) can0 0000E008#0CFE0CFE0CFE0CFE
(1787678029.915408) can0 0000E009#0CFE0CFD0CFD0CFE
(1787678029.916436) can0 0000E010#0000000000000000
(1787678029.917439) can0 0000E011#0000000000000000
(1787678029.918436) can0 0000E012#0CFE000000000000
(1787678029.919521) can0 0000F001#0000000000000000
(1787678029.920427) can0 18FF28F4#1036000002140000
(1787678029.921428) can0 18FE28F4#0CFE0CFD40400000
(1787678029.922428) can0 18FD28F4#1702FA6F00000000
(1787678029.923321) can0 4D4#000036147D140203
(1787678029.924323) can0 4D5#FD0CFE0C40400000
(1787678029.925416) can0 18914010#0CFE030CFD010000
(1787678029.926406) can0 18904010#021402147544021D
(1787678029.927416) can0 18FA28F4#123EA12C24270000
(1787678029.928418) can0 18FB28F4#FE0CFD0C40400000
(1787678029.929418) can0 18FC28F4#3A36000014020000
(1787678029.930415) can0 18F810F3#1402D30336640100
(1787678029.931343) can0 273#0000000014023600
(1787678029.932323) can0 1E1#02142724021D021D
(1787678029.933369) can0 1F5#0000000000000000
(1787678029.934439) can0 0800A6A9#0000000000000000
(1787678029.935396) can0 1000A6A9#14029C13364A4A4A
(1787678029.936427) can0 1C00A6A9#0000010000030000
(1787678029.937426) can0 02018100#1003021400000000
(1787678029.938428) can0 02028100#0014013664000000
(1787678029.939426) can0 02038100#0CFE01030CFD0101
(1787678029.940440) can0 02048100#4A01014A01010000
(1787678029.941314) can0 1AD#CA14ECFF59361818
(1787678029.942323) can0 2AD#FE0C800CCA140016
(1787678029.943331) can0 3AD#000000000000CA14
(1787678029.944341) can0 4AD#EB00000000000000
(1787678029.945342) can0 76A#7F00000000000000
(1787678030.008903) can0 0000E005#1702440003B60591
(1787678030.009522) can0 1806E5F4#1528010003B6023A
(1787678030.010408) can0 0000E000#1528152802140013
(1787678030.011409) can0 0000E004#181803B603B60202
(1787678030.012411) can0 0000E006#0CFE0CFD0CFE0CFE
(1787678030.013432) can0 0000E007#0CFE0CFE0CFE0CFE
(1787678030.014420) can0 0000E008#0CFE0CFE0CFE0CFE
(1787678030.015411) can0 0000E009#0CFE0CFD0CFD0CFE
(1787678030.016441) can0 0000E010#0000000000000000
(1787678030.017449) can0 0000E011#0000000000000000
(1787678030.018439) can0 0000E012#0CFE000000000000
(1787678030.019449) can0 0000F001#0000000000000000
(1787678030.020429) can0 18FF28F4#1036000002140000
(1787678030.021431) can0 18FE28F4#0CFE0CFD40400000
(1787678030.022419) can0 18FD28F4#1702FA6F00000000
(1787678030.023324) can0 4D4#000036137D140203
(1787678030.024322) can0 4D5#FD0CFE0C40400000
(1787678030.025440) can0 18914010#0CFE010CFD020000
(1787678030.026397) can0 18904010#021402147543021D
(1787678030.027399) can0 18FA28F4#123EA12C23270000
(1787678030.028409) can0 18FB28F4#FE0CFD0C40400000
(1787678030.029410) can0 18FC28F4#3A36000014020000
(1787678030.030412) can0 18F810F3#1402D40336640100
(1787678030.031325) can0 273#0000000014023600
(1787678030.032305) can0 1E1#02142723021D021D
(1787678030.033375) can0 1F5#0000000000000000
(1787678030.034431) can0 0800A6A9#0000000000000000
(1787678030.035400) can0 1000A6A9#14029B13364A4A4A
(1787678030.036429) can0 1C00A6A9#0000010000030000
(1787678030.037430) can0 02018100#1003021400000000
(1787678030.038409) can0 02028100#0013013664000000
(1787678030.039432) can0 02038100#0CFE01010CFD0102
(1787678030.040419) can0 02048100#4A01014A01010000
(1787678030.041338) can0 1AD#CA14EDFF59361818
(1787678030.042317) can0 2AD#FE0C800CCA140016
(1787678030.043327) can0 3AD#000000000000CA14
(1787678030.044344) can0 4AD#EB00000000000000
(1787678030.045335) can0 76A#7F00000000000000
(1787678030.108893) can0 0000E005#1702440003B60591
(1787678030.109450) can0 1806E5F4#1528010003B6023A
(1787678030.110453) can0 0000E000#1528152802140013
(1787678030.111422) can0 0000E004#181803B603B60202
(1787678030.112412) can0 0000E006#0CFE0CFD0CFE0CFE
(1787678030.113415) can0 0000E007#0CFE0CFE0CFE0CFE
(1787678030.114415) can0 0000E008#0CFE0CFE0CFE0CFE
(1787678030.115405) can0 0000E009#0CFE0CFD0CFD0CFE
(1787678030.116445) can0 0000E010#0000000000000000
(1787678030.117445) can0 0000E011#0000000000000000
(1787678030.118527) can0 0000E012#0CFE000000000000
(1787678030.119442) can0 0000F001#0000000000000000
(1787678030.120411) can0 18FF28F4#1036000002140000
(1787678030.121415) can0 18FE28F4#0CFE0CFD40400000
(1787678030.122413) can0 18FD28F4#1702FA6F00000000
(1787678030.123327) can0 4D4#000036137D140203
(1787678030.124322) can0 4D5#FD0CFE0C40400000
(1787678030.125405) can0 18914010#0CFE010CFD020000
(1787678030.126433) can0 18904010#021402147543021D
(1787678030.127403) can0 18FA28F4#123EA12C23270000
(1787678030.128405) can0 18FB28F4#FE0CFD0C40400000
(1787678030.129414) can0 18FC28F4#3A36000014020000
(1787678030.130403) can0 18F810F3#1402D40336640100
(1787678030.131330) can0 273#0000000014023600
(1787678030.132287) can0 1E1#02142723021D021D
(1787678030.133338) can0 1F5#0000000000000000
(1787678030.134425) can0 0800A6A9#0000000000000000
(1787678030.135405) can0 1000A6A9#14029B13364A4A4A
(1787678030.136413) can0 1C00A6A9#0000010000030000
(1787678030.137434) can0 02018100#1003021400000000
(1787678030.138413) can0 02028100#0013013664000000
(1787678030.139415) can0 02038100#0CFE01010CFD0102
(1787678030.140403) can0 02048100#4A01014A01010000
(1787678030.141291) can0 1AD#CA14EDFF59361818
(1787678030.142308) can0 2AD#FE0C800CCA140016
(1787678030.143328) can0 3AD#000000000000CA14
(1787678030.144320) can0 4AD#EB00000000000000
(1787678030.145330) can0 76A#7F00000000000000
(1787678030.225889) can0 0000E005#1702440003B60591
(1787678030.226444) can0 1806E5F4#1528010003B6023A
(1787678030.227405) can0 0000E000#1528152802140014
(1787678030.228408) can0 0000E004#181803B603B60202
(1787678030.229410) can0 0000E006#0CFE0CFE0CFD0CFE
(1787678030.230409) can0 0000E007#0CFE0CFE0CFE0CFE
(1787678030.231410) can0 0000E008#0CFE0CFE0CFE0CFE
(1787678030.232409) can0 0000E009#0CFD0CFE0CFD0CFE
(1787678030.233437) can0 0000E010#0000000000000000
(1787678030.234439) can0 0000E011#0000000000000000
(1787678030.235415) can0 0000E012#0CFE000000000000
(1787678030.236384) can0 0000E013#4542323630354C43
(1787678030.237431) can0 0000E014#3134323300000000
(1787678030.238427) can0 0000E015#0000000000000003
(1787678030.239427) can0 0000F000#0000000000000000
(1787678030.240437) can0 0000F001#0000000000000000
(1787678030.241417) can0 18FF28F4#1036000002140000
(1787678030.242420) can0 18FE28F4#0CFE0CFD40400000
(1787678030.243410) can0 18FD28F4#1702FA6F00000000
(1787678030.244322) can0 4D4#000036147D140203
(1787678030.245312) can0 4D5#FD0CFE0C40400000
(1787678030.246409) can0 18914010#0CFE010CFD030000
(1787678030.247375) can0 18904010#021402147544021D
(1787678030.248427) can0 18924010#4001400100000000
(1787678030.249407) can0 18934010#010100120000C903
(1787678030.250417) can0 18944010#1003000000000000
(1787678030.251428) can0 18954010#0000000000000000
(1787678030.252439) can0 18954010#0100000000000000
(1787678030.253437) can0 18954010#0200000000000000
(1787678030.254427) can0 18954010#0300000000000000
(1787678030.255427) can0 18954010#0400000000000000
(1787678030.256447) can0 18954010#0500000000000000
(1787678030.257418) can0 18964010#0040404000000000
(1787678030.258420) can0 18974010#0000000000000000
(1787678030.259416) can0 18984010#0000000000000000
(1787678030.260407) can0 18FA28F4#123EA12C24270000
(1787678030.261410) can0 18FB28F4#FE0CFD0C40400000
(1787678030.262407) can0 18FC28F4#3A36000014020000
(1787678030.263383) can0 18F810F3#1402D30336640100
(1787678030.264427) can0 18F811F3#FE0C0101FD0C0301
(1787678030.265408) can0 18F812F3#4001014001010000
(1787678030.266430) can0 18F813F3#0101010000000000
(1787678030.267407) can0 18F814F3#3200EA1AA9015F00
(1787678030.268323) can0 273#0000000014023600
(1787678030.269303) can0 1E1#02142724021D021D
(1787678030.270335) can0 1F5#0000000000000000
(1787678030.271419) can0 0800A6A9#0000000000000000
(1787678030.272419) can0 1000A6A9#14029C13364A4A4A
(1787678030.273419) can0 1C00A6A9#0000010000030000
(1787678030.274418) can0 02018100#1003021400000000
(1787678030.275417) can0 02028100#0014013664000000
(1787678030.276420) can0 02038100#0CFE01010CFD0103
(1787678030.277411) can0 02048100#4A01014A01010000
(1787678030.278293) can0 1AD#CA14ECFF59361818
(1787678030.279295) can0 2AD#FE0C800CCA140016
(1787678030.280362) can0 3AD#000000000000CA14
(1787678030.281327) can0 4AD#EB00000000000000
(1787678030.282324) can0 76A#7F00000000000000
(1787678030.341884) can0 0000E005#1702440003B60591
(1787678030.342434) can0 1806E5F4#1528010003B6023A
(1787678030.343411) can0 0000E000#1528152802140014
(1787678030.344411) can0 0000E004#181803B603B60202
(1787678030.345409) can0 0000E006#0CFE0CFE0CFD0CFE
(1787678030.346413) can0 0000E007#0CFE0CFE0CFE0CFE
(1787678030.347413) can0 0000E008#0CFE0CFE0CFE0CFE
(1787678030.348413) can0 0000E009#0CFD0CFE0CFD0CFE
(1787678030.349460) can0 0000E010#0000000000000000
(1787678030.350431) can0 0000E011#0000000000000000
(1787678030.351411) can0 0000E012#0CFE000000000000
(1787678030.352433) can0 0000F001#0000000000000000
(1787678030.353409) can0 18FF28F4#1036000002140000
(1787678030.354413) can0 18FE28F4#0CFE0CFD40400000
(1787678030.355413) can0 18FD28F4#1702FA6F00000000
(1787678030.356305) can0 4D4#000036147D140203
(1787678030.357352) can0 4D5#FD0CFE0C40400000
(1787678030.358414) can0 18914010#0CFE010CFD030000
(1787678030.359385) can0 18904010#021402147544021D
(1787678030.360411) can0 18FA28F4#123EA12C24270000
(1787678030.361414) can0 18FB28F4#FE0CFD0C40400000
(1787678030.362413) can0 18FC28F4#3A36000014020000
(1787678030.363388) can0 18F810F3#1402D30336640100
(1787678030.364328) can0 273#0000000014023600
(1787678030.365284) can0 1E1#02142724021D021D
(1787678030.366338) can0 1F5#0000000000000000
(1787678030.367411) can0 0800A6A9#0000000000000000
(1787678030.368388) can0 1000A6A9#14029C13364A4A4A
(1787678030.369413) can0 1C00A6A9#0000010000030000
(1787678030.370414) can0 02018100#1003021400000000
(1787678030.371411) can0 02028100#0014013664000000
(1787678030.372414) can0 02038100#0CFE01010CFD0103
(1787678030.373411) can0 02048100#4A01014A01010000
(1787678030.374288) can0 1AD#CA14ECFF59361818
(1787678030.375298) can0 2AD#FE0C800CCA140016
(1787678030.376316) can0 3AD#000000000000CA14
(1787678030.377318) can0 4AD#EB00000000000000
(1787678030.378316) can0 76A#7F00000000000000
(1787678030.441866) can0 0000E005#1702440003B60591
(1787678030.442427) can0 1806E5F4#1528010003B6023A
(1787678030.443413) can0 0000E000#1528152802140014
(1787678030.444414) can0 0000E004#181803B603B60202
(1787678030.445417) can0 0000E006#0CFE0CFE0CFD0CFE
(1787678030.446391) can0 0000E007#0CFE0CFE0CFE0CFE
(1787678030.447416) can0 0000E008#0CFE0CFE0CFE0CFE
(1787678030.448391) can0 0000E009#0CFD0CFE0CFD0CFE
(1787678030.449426) can0 0000E010#0000000000000000
(1787678030.450414) can0 0000E011#0000000000000000
(1787678030.451411) can0 0000E012#0CFE000000000000
(1787678030.452434) can0 0000F001#0000000000000000
(1787678030.453415) can0 18FF28F4#1036000002140000
(1787678030.454414) can0 18FE28F4#0CFE0CFD40400000
(1787678030.455389) can0 18FD28F4#1702FA6F00000000
(1787678030.456309) can0 4D4#000036147D140203
(1787678030.457312) can0 4D5#FD0CFE0C40400000
(1787678030.458416) can0 18914010#0CFE010CFD030000
(1787678030.459386) can0 18904010#021402147544021D
(1787678030.460387) can0 18FA28F4#123EA12C24270000
(1787678030.461415) can0 18FB28F4#FE0CFD0C40400000
(1787678030.462389) can0 18FC28F4#3A36000014020000
(1787678030.463382) can0 18F810F3#1402D30336640100
(1787678030.464309) can0 273#0000000014023600
(1787678030.465290) can0 1E1#02142724021D021D
(1787678030.466319) can0 1F5#0000000000000000
(1787678030.467413) can0 0800A6A9#0000000000000000
(1787678030.468369) can0 1000A6A9#14029C13364A4A4A
(1787678030.469415) can0 1C00A6A9#0000010000030000
(1787678030.470415) can0 02018100#1003021400000000
(1787678030.471414) can0 02028100#0014013664000000
(1787678030.472417) can0 02038100#0CFE01010CFD0103
(1787678030.473393) can0 02048100#4A01014A01010000
(1787678030.474289) can0 1AD#CA14ECFF59361818
(1787678030.475299) can0 2AD#FE0C800CCA140016
(1787678030.476322) can0 3AD#000000000000CA14
(1787678030.477313) can0 4AD#EB00000000000000
(1787678030.478319) can0 76A#7F00000000000000
(1787678030.541898) can0 0000E005#1702440003B60591
(1787678030.542431) can0 1806E5F4#1528010003B6023A
(1787678030.543390) can0 0000E000#1528152802140014
(1787678030.544417) can0 0000E004#181803B603B60202
(1787678030.545390) can0 0000E006#0CFD0CFD0CFE0CFE
(1787678030.546420) can0 0000E007#0CFD0CFE0CFE0CFE
(1787678030.547392) can0 0000E008#0CFE0CFE0CFE0CFE
(1787678030.548395) can0 0000E009#0CFD0CFE0CFD0CFE
(1787678030.549416) can0 0000E010#0000000000000000
(1787678030.550419) can0 0000E011#0000000000000000
(1787678030.551417) can0 0000E012#0CFE000000000000
(1787678030.552417) can0 0000F001#0000000000000000
(1787678030.553393) can0 18FF28F4#1036000002140000
(1787678030.554392) can0 18FE28F4#0CFE0CFD40400000
(1787678030.555392) can0 18FD28F4#1702FA6F00000000
(1787678030.556315) can0 4D4#000036147D140203
(1787678030.557312) can0 4D5#FD0CFE0C40400000
(1787678030.558395) can0 18914010#0CFE030CFD010000
(1787678030.559391) can0 18904010#021402147544021D
(1787678030.560390) can0 18FA28F4#123EA12C24270000
(1787678030.561387) can0 18FB28F4#FE0CFD0C40400000
(1787678030.562418) can0 18FC28F4#3A36000014020000
(1787678030.563390) can0 18F810F3#1402D30336640100
(1787678030.564342) can0 273#0000000014023600
(1787678030.565291) can0 1E1#02142724021D021D
(1787678030.566323) can0 1F5#0000000000000000
(1787678030.567418) can0 0800A6A9#0000000000000000
(1787678030.568363) can0 1000A6A9#14029C13364A4A4A
(1787678030.569394) can0 1C00A6A9#0000010000030000
(1787678030.570418) can0 02018100#1003021400000000
(1787678030.571393) can0 02028100#0014013664000000
(1787678030.572418) can0 02038100#0CFE01030CFD0101
(1787678030.573391) can0 02048100#4A01014A01010000
(1787678030.574268) can0 1AD#CA14ECFF59361818
(1787678030.575293) can0 2AD#FE0C800CCA140016
(1787678030.576314) can0 3AD#000000000000CA14
(1787678030.577304) can0 4AD#EB00000000000000
(1787678030.578325) can0 76A#7F00000000000000
(1787678030.641870) can0 0000E005#1702440003B60591
(1787678030.642426) can0 1806E5F4#1528010003B6023A
