(1778535282.597851) can0 0000E005#15273E0003B60591
(1778535282.598435) can0 1806E5F4#13EC010003B6023A
(1778535282.599185) can0 0000E000#13EC13EC020F0000
(1778535282.600157) can0 0000E004#111103B603B601E4
(1778535282.601196) can0 0000E006#0CE00CE00CE00CE0
(1778535282.602158) can0 0000E007#0CE00CE00CE00CE0
(1778535282.603158) can0 0000E008#0CE00CE00CE00CE0
(1778535282.604153) can0 0000E009#0CE00CE00CE00CE2
(1778535282.605202) can0 0000E010#0000000000000000
(1778535282.606197) can0 0000E011#0000000000000000
(1778535282.607183) can0 0000E012#0CE0000200000000
(1778535282.608197) can0 0000F001#0000000000000000
(1778535282.609223) can0 18FF28F4#10330000020F0000
(1778535282.610158) can0 18FE28F4#0CE20CE039390000
(1778535282.611171) can0 18FD28F4#1527FA6F00000000
(1778535282.612066) can0 4D4#000033007D0F0203
(1778535282.613070) can0 4D5#E00CE20C39390000
(1778535282.614165) can0 18914010#0CE2100CE0020000
(1778535282.615178) can0 18904010#020F0000753001FE
(1778535282.616154) can0 18FA28F4#373CA12C10270000
(1778535282.617209) can0 18FB28F4#E20CE00C39390000
(1778535282.618171) can0 18FC28F4#383300000F020000
(1778535282.619156) can0 18F810F3#0F02E80333640100
(1778535282.620185) can0 18F815F3#0000000010030000
(1778535282.621082) can0 273#000000000F023300
(1778535282.622083) can0 1E1#020F271001FE01FE
(1778535282.623096) can0 1F5#0000000000000000
(1778535282.624187) can0 0800A6A9#0000000000000000
(1778535282.625190) can0 1000A6A9#0F02881333434343
(1778535282.626171) can0 1C00A6A9#0000000000030000
(1778535282.627185) can0 02018100#1003020F00000000
(1778535282.628178) can0 02028100#0000003364000000
(1778535282.629177) can0 02038100#0CE201100CE00102
(1778535282.630158) can0 02048100#4301014301010000
(1778535282.714836) can0 0000E005#15273E0003B60591
(1778535282.715437) can0 1806E5F4#13EC010003B6023A
(1778535282.716170) can0 0000E000#13EC13EC020F0000
(1778535282.717155) can0 0000E004#111103B603B601E4
(1778535282.718155) can0 0000E006#0CE00CE00CE00CE0
(1778535282.719145) can0 0000E007#0CE00CE00CE00CE0
(1778535282.720150) can0 0000E008#0CE00CE00CE00CE0
(1778535282.721147) can0 0000E009#0CE00CE00CE00CE2
(1778535282.722194) can0 0000E010#0000000000000000
(1778535282.723185) can0 0000E011#0000000000000000
(1778535282.724176) can0 0000E012#0CE1000200000000
(1778535282.725138) can0 0000E013#4542323630354C43
(1778535282.726169) can0 0000E014#3134323300000000
(1778535282.727181) can0 0000E015#0000000000000003
(1778535282.728195) can0 0000F000#0000000000000000
(1778535282.729196) can0 0000F001#0000000000000000
(1778535282.730177) can0 18FF28F4#10330000020F0000
(1778535282.731153) can0 18FE28F4#0CE20CE039390000
(1778535282.732156) can0 18FD28F4#1527FA6F00000000
(1778535282.733072) can0 4D4#000033007D0F0203
(1778535282.734054) can0 4D5#E00CE20C39390000
(1778535282.735142) can0 18914010#0CE2100CE00F0000
(1778535282.736162) can0 18904010#020F0000753001FE
(1778535282.737142) can0 18FA28F4#373CA12C10270000
(1778535282.738157) can0 18FB28F4#E20CE00C39390000
(1778535282.739188) can0 18FC28F4#383300000F020000
(1778535282.740156) can0 18F810F3#0F02E80333640100
(1778535282.741170) can0 18F811F3#E20C1001E00C0F01
(1778535282.742164) can0 18F812F3#3901013901010000
(1778535282.743176) can0 18F813F3#0101000000000000
(1778535282.744164) can0 18F814F3#32000F19A9015F00
(1778535282.745176) can0 18F815F3#0000000010030000
(1778535282.746074) can0 273#000000000F023300
(1778535282.747082) can0 1E1#020F271001FE01FE
(1778535282.748100) can0 1F5#0000000000000000
(1778535282.749175) can0 0800A6A9#0000000000000000
(1778535282.750143) can0 1000A6A9#0F02881333434343
(1778535282.751168) can0 1C00A6A9#0000000000030000
(1778535282.752182) can0 02018100#1003020F00000000
(1778535282.753181) can0 02028100#0000003364000000
(1778535282.754162) can0 02038100#0CE201100CE0010F
(1778535282.755184) can0 02048100#4301014301010000
(1778535282.812842) can0 0000E005#15273E0003B60591
(1778535282.813440) can0 1806E5F4#13EC010003B6023A
(1778535282.814177) can0 0000E000#13EC13EC020F0000
(1778535282.815137) can0 0000E004#111103B603B601E4
(1778535282.816161) can0 0000E006#0CE00CE00CE00CE0
(1778535282.817139) can0 0000E007#0CE00CE00CE00CE0
(1778535282.818152) can0 0000E008#0CE00CE00CE00CE0
(1778535282.819133) can0 0000E009#0CE00CE00CE00CE2
(1778535282.820185) can0 0000E010#0000000000000000
(1778535282.821177) can0 0000E011#0000000000000000
(1778535282.822158) can0 0000E012#0CE1000200000000
(1778535282.823170) can0 0000F001#0000000000000000
(1778535282.824190) can0 18FF28F4#10330000020F0000
(1778535282.825140) can0 18FE28F4#0CE20CE039390000
(1778535282.826153) can0 18FD28F4#1527FA6F00000000
(1778535282.827068) can0 4D4#000033007D0F0203
(1778535282.828050) can0 4D5#E00CE20C39390000
(1778535282.829147) can0 18914010#0CE2100CE00F0000
(1778535282.830158) can0 18904010#020F0000753001FE
(1778535282.831139) can0 18FA28F4#373CA12C10270000
(1778535282.832172) can0 18FB28F4#E20CE00C39390000
(1778535282.833172) can0 18FC28F4#383300000F020000
(1778535282.834133) can0 18F810F3#0F02E80333640100
(1778535282.835178) can0 18F815F3#0000000010030000
(1778535282.836066) can0 273#000000000F023300
(1778535282.837064) can0 1E1#020F271001FE01FE
(1778535282.838095) can0 1F5#0000000000000000
(1778535282.839168) can0 0800A6A9#0000000000000000
(1778535282.840172) can0 1000A6A9#0F02881333434343
(1778535282.841165) can0 1C00A6A9#0000000000030000
(1778535282.842184) can0 02018100#1003020F00000000
(1778535282.843165) can0 02028100#0000003364000000
(1778535282.844146) can0 02038100#0CE201100CE0010F
(1778535282.845159) can0 02048100#4301014301010000
(1778535282.912808) can0 0000E005#15273E0003B60591
(1778535282.913443) can0 1806E5F4#13EC010003B6023A
(1778535282.914161) can0 0000E000#13EC13EC020F0000
(1778535282.915141) can0 0000E004#111103B603B601E4
(1778535282.916142) can0 0000E006#0CE00CE00CE00CE0
(1778535282.917186) can0 0000E007#0CE00CE00CE00CE0
(1778535282.918135) can0 0000E008#0CE00CE00CE00CE0
(1778535282.919134) can0 0000E009#0CE00CE00CE00CE2
(1778535282.920180) can0 0000E010#0000000000000000
(1778535282.921180) can0 0000E011#0000000000000000
(1778535282.922160) can0 0000E012#0CE1000200000000
(1778535282.923174) can0 0000F001#0000000000000000
(1778535282.924174) can0 18FF28F4#10330000020F0000
(1778535282.925181) can0 18FE28F4#0CE20CE039390000
(1778535282.926148) can0 18FD28F4#1527FA6F00000000
(1778535282.927065) can0 4D4#000033007D0F0203
(1778535282.928047) can0 4D5#E00CE20C39390000
(1778535282.929141) can0 18914010#0CE2100CE00F0000
(1778535282.930155) can0 18904010#020F0000753001FE
(1778535282.931136) can0 18FA28F4#373CA12C10270000
(1778535282.932136) can0 18FB28F4#E20CE00C39390000
(1778535282.933167) can0 18FC28F4#383300000F020000
(1778535282.934129) can0 18F810F3#0F02E80333640100
(1778535282.935174) can0 18F815F3#0000000010030000
(1778535282.936060) can0 273#000000000F023300
(1778535282.937052) can0 1E1#020F271001FE01FE
(1778535282.938085) can0 1F5#0000000000000000
(1778535282.939167) can0 0800A6A9#0000000000000000
(1778535282.940130) can0 1000A6A9#0F02881333434343
(1778535282.941159) can0 1C00A6A9#0000000000030000
(1778535282.942175) can0 02018100#1003020F00000000
(1778535282.943155) can0 02028100#0000003364000000
(1778535282.944156) can0 02038100#0CE201100CE0010F
(1778535282.945148) can0 02048100#4301014301010000
(1778535283.012831) can0 0000E005#15273E0003B60591
(1778535283.013446) can0 1806E5F4#13EC010003B6023A
(1778535283.014165) can0 0000E000#13EC13EC020F0000
(1778535283.015130) can0 0000E004#111103B603B601E4
(1778535283.016145) can0 0000E006#0CE00CE00CE00CE0
(1778535283.017145) can0 0000E007#0CE00CE00CE00CE0
(1778535283.018138) can0 0000E008#0CE00CE00CE00CE0
(1778535283.019135) can0 0000E009#0CE00CE00CE00CE0
(1778535283.020171) can0 0000E010#0000000000000000
(1778535283.021165) can0 0000E011#0000000000000000
(1778535283.022164) can0 0000E012#0CE0000000000000
(1778535283.023176) can0 0000F001#0000000000000000
(1778535283.024158) can0 18FF28F4#10330000020F0000
(1778535283.025138) can0 18FE28F4#0CE00CE039390000
(1778535283.026140) can0 18FD28F4#1527FA6F00000000
(1778535283.027047) can0 4D4#000033007D0F0203
(1778535283.028050) can0 4D5#E00CE00C39390000
(1778535283.029147) can0 18914010#0CE0010CE0020000
(1778535283.030145) can0 18904010#020F0000753001FE
(1778535283.031121) can0 18FA28F4#373CA12C10270000
(1778535283.032140) can0 18FB28F4#E00CE00C39390000
(1778535283.033151) can0 18FC28F4#383300000F020000
(1778535283.034132) can0 18F810F3#0F02E80333640100
(1778535283.035164) can0 18F815F3#0000000010030000
(1778535283.036063) can0 273#000000000F023300
(1778535283.037044) can0 1E1#020F271001FE01FE
(1778535283.038075) can0 1F5#0000000000000000
(1778535283.039169) can0 0800A6A9#0000000000000000
(1778535283.040120) can0 1000A6A9#0F02881333434343
(1778535283.041152) can0 1C00A6A9#0000000000030000
(1778535283.042164) can0 02018100#1003020F00000000
(1778535283.043159) can0 02028100#0000003364000000
(1778535283.044145) can0 02038100#0CE001010CE00102
(1778535283.045139) can0 02048100#4301014301010000
(1778535283.112828) can0 0000E005#15273E0003B60591
(1778535283.113449) can0 1806E5F4#13EC010003B6023A
(1778535283.114161) can0 0000E000#13EC13EC020F0000
(1778535283.115129) can0 0000E004#111103B603B601E4
(1778535283.116142) can0 0000E006#0CE00CE00CE00CE0
(1778535283.117122) can0 0000E007#0CE00CE00CE00CE0
(1778535283.118140) can0 0000E008#0CE00CE00CE00CE0
(1778535283.119134) can0 0000E009#0CE00CE00CE00CE0
(1778535283.120162) can0 0000E010#0000000000000000
(1778535283.121166) can0 0000E011#0000000000000000
(1778535283.122160) can0 0000E012#0CE0000000000000
(1778535283.123172) can0 0000F001#0000000000000000
(1778535283.124173) can0 18FF28F4#10330000020F0000
(1778535283.125135) can0 18FE28F4#0CE00CE039390000
(1778535283.126135) can0 18FD28F4#1527FA6F00000000
(1778535283.127052) can0 4D4#000033007D0F0203
(1778535283.128027) can0 4D5#E00CE00C39390000
(1778535283.129141) can0 18914010#0CE0010CE0020000
(1778535283.130142) can0 18904010#020F0000753001FE
(1778535283.131123) can0 18FA28F4#373CA12C10270000
(1778535283.132147) can0 18FB28F4#E00CE00C39390000
(1778535283.133148) can0 18FC28F4#383300000F020000
(1778535283.134129) can0 18F810F3#0F02E80333640100
(1778535283.135161) can0 18F815F3#0000000010030000
(1778535283.136059) can0 273#000000000F023300
(1778535283.137040) can0 1E1#020F271001FE01FE
(1778535283.138071) can0 1F5#0000000000000000
(1778535283.139148) can0 0800A6A9#0000000000000000
(1778535283.140142) can0 1000A6A9#0F02881333434343
(1778535283.141148) can0 1C00A6A9#0000000000030000
(1778535283.142160) can0 02018100#1003020F00000000
(1778535283.143158) can0 02028100#0000003364000000
(1778535283.144131) can0 02038100#0CE001010CE00102
(1778535283.145136) can0 02048100#4301014301010000
(1778535283.229818) can0 0000E005#15273E0003B60591
(1778535283.230452) can0 1806E5F4#13EC010003B6023A
(1778535283.231158) can0 0000E000#13EC13EC020F0000
(1778535283.232120) can0 0000E004#111103B603B601E4
(1778535283.233163) can0 0000E006#0CE00CE00CE00CE0
(1778535283.234113) can0 0000E007#0CE00CE00CE00CE0
(1778535283.235122) can0 0000E008#0CE00CE00CE00CE0
(1778535283.236126) can0 0000E009#0CE00CE00CE00CE0
(1778535283.237157) can0 0000E010#0000000000000000
(1778535283.238158) can0 0000E011#0000000000000000
(1778535283.239149) can0 0000E012#0CE0000000000000
(1778535283.240101) can0 0000E013#4542323630354C43
(1778535283.241132) can0 0000E014#3134323300000000
(1778535283.242145) can0 0000E015#0000000000000003
(1778535283.243157) can0 0000F000#0000000000000000
(1778535283.244158) can0 0000F001#0000000000000000
(1778535283.245151) can0 18FF28F4#10330000020F0000
(1778535283.246119) can0 18FE28F4#0CE00CE039390000
(1778535283.247129) can0 18FD28F4#1527FA6F00000000
(1778535283.248050) can0 4D4#000033007D0F0203
(1778535283.249030) can0 4D5#E00CE00C39390000
(1778535283.250126) can0 18914010#0CE0010CE0020000
(1778535283.251134) can0 18904010#020F0000753001FE
(1778535283.252120) can0 18FA28F4#373CA12C10270000
(1778535283.253119) can0 18FB28F4#E00CE00C39390000
(1778535283.254132) can0 18FC28F4#383300000F020000
(1778535283.255113) can0 18F810F3#0F02E80333640100
(1778535283.256127) can0 18F811F3#E00C0101E00C0201
(1778535283.257126) can0 18F812F3#3901013901010000
(1778535283.258158) can0 18F813F3#0101000000000000
(1778535283.259115) can0 18F814F3#32000F19A9015F00
(1778535283.260152) can0 18F815F3#0000000010030000
(1778535283.261050) can0 273#000000000F023300
(1778535283.262031) can0 1E1#020F271001FE01FE
(1778535283.263051) can0 1F5#0000000000000000
(1778535283.264152) can0 0800A6A9#0000000000000000
(1778535283.265114) can0 1000A6A9#0F02881333434343
(1778535283.266145) can0 1C00A6A9#0000000000030000
(1778535283.267158) can0 02018100#1003020F00000000
(1778535283.268140) can0 02028100#0000003364000000
(1778535283.269133) can0 02038100#0CE001010CE00102
(1778535283.270145) can0 02048100#4301014301010000
(1778535283.327787) can0 0000E005#15273E0003B60591
(1778535283.328394) can0 1806E5F4#13EC010003B6023A
(1778535283.329148) can0 0000E000#13EC13EC020F0000
(1778535283.330110) can0 0000E004#111103B603B601E4
(1778535283.331122) can0 0000E006#0CE00CE00CE00CE0
(1778535283.332123) can0 0000E007#0CE00CE00CE00CE0
(1778535283.333122) can0 0000E008#0CE00CE00CE00CE0
(1778535283.334122) can0 0000E009#0CE00CE00CE00CE0
(1778535283.335147) can0 0000E010#0000000000000000
(1778535283.336148) can0 0000E011#0000000000000000
(1778535283.337147) can0 0000E012#0CE0000000000000
(1778535283.338160) can0 0000F001#0000000000000000
(1778535283.339140) can0 18FF28F4#10330000020F0000
(1778535283.340123) can0 18FE28F4#0CE00CE039390000
(1778535283.341122) can0 18FD28F4#1527FA6F00000000
(1778535283.342033) can0 4D4#000033007D0F0203
(1778535283.343030) can0 4D5#E00CE00C39390000
(1778535283.344133) can0 18914010#0CE0010CE0020000
(1778535283.345129) can0 18904010#020F0000753001FE
(1778535283.346110) can0 18FA28F4#373CA12C10270000
(1778535283.347122) can0 18FB28F4#E00CE00C39390000
(1778535283.348135) can0 18FC28F4#383300000F020000
(1778535283.349116) can0 18F810F3#0F02E80333640100
(1778535283.350148) can0 18F815F3#0000000010030000
(1778535283.351041) can0 273#000000000F023300
(1778535283.352028) can0 1E1#020F271001FE01FE
(1778535283.353059) can0 1F5#0000000000000000
(1778535283.354135) can0 0800A6A9#0000000000000000
(1778535283.355115) can0 1000A6A9#0F02881333434343
(1778535283.356136) can0 1C00A6A9#0000000000030000
(1778535283.357148) can0 02018100#1003020F00000000
(1778535283.358141) can0 02028100#0000003364000000
(1778535283.359123) can0 02038100#0CE001010CE00102
(1778535283.360123) can0 02048100#4301014301010000
(1778535283.427767) can0 0000E005#15273E0003B60591
(1778535283.428356) can0 1806E5F4#13EC010003B6023A
(1778535283.429134) can0 0000E000#13EC13EC020F0000
(1778535283.430118) can0 0000E004#111103B603B601E4
(1778535283.431118) can0 0000E006#0CE00CE00CE00CE0
(1778535283.432132) can0 0000E007#0CE00CE00CE00CE0
(1778535283.433109) can0 0000E008#0CE00CE00CE00CE0
(1778535283.434112) can0 0000E009#0CE00CE00CE00CE0
(1778535283.435144) can0 0000E010#0000000000000000
(1778535283.436138) can0 0000E011#0000000000000000
(1778535283.437137) can0 0000E012#0CE0000000000000
(1778535283.438150) can0 0000F001#0000000000000000
(1778535283.439131) can0 18FF28F4#10330000020F0000
(1778535283.440146) can0 18FE28F4#0CE00CE039390000
(1778535283.441121) can0 18FD28F4#1527FA6F00000000
(1778535283.442030) can0 4D4#000033007D0F0203
(1778535283.443024) can0 4D5#E00CE00C39390000
(1778535283.444119) can0 18914010#0CE0010CE0020000
(1778535283.445115) can0 18904010#020F0000753001FE
(1778535283.446113) can0 18FA28F4#373CA12C10270000
(1778535283.447113) can0 18FB28F4#E00CE00C39390000
(1778535283.448158) can0 18FC28F4#383300000F020000
(1778535283.449107) can0 18F810F3#0F02E80333640100
(1778535283.450138) can0 18F815F3#0000000010030000
(1778535283.451037) can0 273#000000000F023300
(1778535283.452019) can0 1E1#020F271001FE01FE
(1778535283.453044) can0 1F5#0000000000000000
(1778535283.454132) can0 0800A6A9#0000000000000000
(1778535283.455094) can0 1000A6A9#0F02881333434343
(1778535283.456171) can0 1C00A6A9#0000000000030000
(1778535283.457133) can0 02018100#1003020F00000000
(1778535283.458138) can0 02028100#0000003364000000
(1778535283.459113) can0 02038100#0CE001010CE00102
(1778535283.460114) can0 02048100#4301014301010000
(1778535283.527795) can0 0000E005#15273E0003B60591
(1778535283.528384) can0 1806E5F4#13EC010003B6023A
(1778535283.529135) can0 0000E000#13EC13EC020F0000
(1778535283.530116) can0 0000E004#111103B603B601E4
(1778535283.531107) can0 0000E006#0CE00CE00CE00CE0
(1778535283.532115) can0 0000E007#0CE00CE00CE00CE0
(1778535283.533159) can0 0000E008#0CE00CE00CE00CE0
(1778535283.534109) can0 0000E009#0CE00CE00CE00CE0
(1778535283.535135) can0 0000E010#0000000000000000
(1778535283.536135) can0 0000E011#0000000000000000
(1778535283.537135) can0 0000E012#0CE0000000000000
(1778535283.538148) can0 0000F001#0000000000000000
(1778535283.539129) can0 18FF28F4#10330000020F0000
(1778535283.540111) can0 18FE28F4#0CE00CE039390000
(1778535283.541123) can0 18FD28F4#1527FA6F00000000
(1778535283.542027) can0 4D4#000033007D0F0203
(1778535283.543017) can0 4D5#E00CE00C39390000
(1778535283.544117) can0 18914010#0CE0010CE0040000
(1778535283.545115) can0 18904010#020F0000753001FE
(1778535283.546112) can0 18FA28F4#373CA12C10270000
(1778535283.547104) can0 18FB28F4#E00CE00C39390000
(1778535283.548123) can0 18FC28F4#383300000F020000
(1778535283.549103) can0 18F810F3#0F02E80333640100
(1778535283.550135) can0 18F815F3#0000000010030000
(1778535283.551033) can0 273#000000000F023300
(1778535283.552015) can0 1E1#020F271001FE01FE
(1778535283.553046) can0 1F5#0000000000000000
(1778535283.554122) can0 0800A6A9#0000000000000000
(1778535283.555085) can0 1000A6A9#0F02881333434343
(1778535283.556123) can0 1C00A6A9#0000000000030000
(1778535283.557135) can0 02018100#1003020F00000000
(1778535283.558135) can0 02028100#0000003364000000
(1778535283.559121) can0 02038100#0CE001010CE00104
(1778535283.560110) can0 02048100#4301014301010000
(1778535283.627792) can0 0000E005#15273E0003B60591
(1778535283.628381) can0 1806E5F4#13EC010003B6023A
(1778535283.629133) can0 0000E000#13EC13EC020F0000
(1778535283.630099) can0 0000E004#111103B603B601E4
(1778535283.631100) can0 0000E006#0CE00CE00CE00CE0
(1778535283.632099) can0 0000E007#0CE00CE00CE00CE0
(1778535283.633104) can0 0000E008#0CE00CE00CE00CE0
(1778535283.634107) can0 0000E009#0CE00CE00CE00CE0
(1778535283.635137) can0 0000E010#0000000000000000
(1778535283.636138) can0 0000E011#0000000000000000
(1778535283.637133) can0 0000E012#0CE0000000000000
(1778535283.638132) can0 0000F001#0000000000000000
(1778535283.639132) can0 18FF28F4#10330000020F0000
(1778535283.640113) can0 18FE28F4#0CE00CE039390000
(1778535283.641107) can0 18FD28F4#1527FA6F00000000
(1778535283.642023) can0 4D4#000033007D0F0203
(1778535283.643004) can0 4D5#E00CE00C39390000
(1778535283.644119) can0 18914010#0CE0010CE0040000
(1778535283.645111) can0 18904010#020F0000753001FE
(1778535283.646100) can0 18FA28F4#373CA12C10270000
(1778535283.647093) can0 18FB28F4#E00CE00C39390000
(1778535283.648126) can0 18FC28F4#383300000F020000
(1778535283.649084) can0 18F810F3#0F02E80333640100
(1778535283.650118) can0 18F815F3#0000000010030000
(1778535283.651023) can0 273#000000000F023300
(1778535283.652017) can0 1E1#020F271001FE01FE
(1778535283.653030) can0 1F5#0000000000000000
(1778535283.654125) can0 0800A6A9#0000000000000000
(1778535283.655106) can0 1000A6A9#0F02881333434343
(1778535283.656119) can0 1C00A6A9#0000000000030000
(1778535283.657135) can0 02018100#1003020F00000000
(1778535283.658119) can0 02028100#0000003364000000
(1778535283.659116) can0 02038100#0CE001010CE00104
(1778535283.660113) can0 02048100#4301014301010000
(1778535283.744771) can0 0000E005#15273E0003B60591
(1778535283.745360) can0 1806E5F4#13EC010003B6023A
(1778535283.746115) can0 0000E000#13EC13EC020F0000
(1778535283.747096) can0 0000E004#111103B603B601E4
(1778535283.748129) can0 0000E006#0CE00CE00CE00CE0
(1778535283.749090) can0 0000E007#0CE00CE00CE00CE0
(1778535283.750090) can0 0000E008#0CE00CE00CE00CE0
(1778535283.751083) can0 0000E009#0CE00CE00CE00CE2
(1778535283.752130) can0 0000E010#0000000000000000
(1778535283.753128) can0 0000E011#0000000000000000
(1778535283.754109) can0 0000E012#0CE1000200000000
(1778535283.755081) can0 0000E013#4542323630354C43
(1778535283.756151) can0 0000E014#3134323300000000
(1778535283.757122) can0 0000E015#0000000000000003
(1778535283.758134) can0 0000F000#0000000000000000
(1778535283.759128) can0 0000F001#0000000000000000
(1778535283.760110) can0 18FF28F4#10330000020F0000
(1778535283.761097) can0 18FE28F4#0CE20CE039390000
(1778535283.762110) can0 18FD28F4#1527FA6F00000000
(1778535283.763008) can0 4D4#000033007D0F0203
(1778535283.764031) can0 4D5#E00CE20C39390000
(1778535283.765097) can0 18914010#0CE2100CE0020000
(1778535283.766097) can0 18904010#020F0000753001FE
(1778535283.767097) can0 18FA28F4#373CA12C10270000
(1778535283.768089) can0 18FB28F4#E20CE00C39390000
(1778535283.769109) can0 18FC28F4#383300000F020000
(1778535283.770096) can0 18F810F3#0F02E80333640100
(1778535283.771104) can0 18F811F3#E20C1001E00C0201
(1778535283.772098) can0 18F812F3#3901013901010000
(1778535283.773129) can0 18F813F3#0101000000000000
(1778535283.774097) can0 18F814F3#32000F19A9015F00
(1778535283.775122) can0 18F815F3#0000000010030000
(1778535283.776017) can0 273#000000000F023300
(1778535283.777002) can0 1E1#020F271001FE01FE
(1778535283.778034) can0 1F5#0000000000000000
(1778535283.779114) can0 0800A6A9#0000000000000000
(1778535283.780067) can0 1000A6A9#0F02881333434343
(1778535283.781103) can0 1C00A6A9#0000000000030000
(1778535283.782129) can0 02018100#1003020F00000000
(1778535283.783110) can0 02028100#0000003364000000
(1778535283.784111) can0 02038100#0CE201100CE00102
(1778535283.785104) can0 02048100#4301014301010000
(1778535283.842781) can0 0000E005#15273E0003B60591
(1778535283.843361) can0 1806E5F4#13EC010003B6023A
(1778535283.844112) can0 0000E000#13EC13EC020F0000
(1778535283.845080) can0 0000E004#111103B603B601E4
(1778535283.846099) can0 0000E006#0CE00CE00CE00CE0
(1778535283.847091) can0 0000E007#0CE00CE00CE00CE0
(1778535283.848094) can0 0000E008#0CE00CE00CE00CE0
(1778535283.849087) can0 0000E009#0CE00CE00CE00CE2
(1778535283.850119) can0 0000E010#0000000000000000
(1778535283.851118) can0 0000E011#0000000000000000
(1778535283.852101) can0 0000E012#0CE1000200000000
(1778535283.853130) can0 0000F001#0000000000000000
(1778535283.854113) can0 18FF28F4#10330000020F0000
(1778535283.855087) can0 18FE28F4#0CE20CE039390000
(1778535283.856107) can0 18FD28F4#1527FA6F00000000
(1778535283.857004) can0 4D4#000033007D0F0203
(1778535283.857985) can0 4D5#E00CE20C39390000
(1778535283.859092) can0 18914010#0CE2100CE0020000
(1778535283.860093) can0 18904010#020F0000753001FE
(1778535283.861093) can0 18FA28F4#373CA12C10270000
(1778535283.862087) can0 18FB28F4#E20CE00C39390000
(1778535283.863106) can0 18FC28F4#383300000F020000
(1778535283.864087) can0 18F810F3#0F02E80333640100
(1778535283.865112) can0 18F815F3#0000000010030000
(1778535283.866011) can0 273#000000000F023300
(1778535283.867011) can0 1E1#020F271001FE01FE
(1778535283.868024) can0 1F5#0000000000000000
(1778535283.869119) can0 0800A6A9#0000000000000000
(1778535283.870088) can0 1000A6A9#0F02881333434343
(1778535283.871092) can0 1C00A6A9#0000000000030000
(1778535283.872133) can0 02018100#1003020F00000000
(1778535283.873118) can0 02028100#0000003364000000
(1778535283.874106) can0 02038100#0CE201100CE00102
(1778535283.875101) can0 02048100#4301014301010000
(1778535283.942731) can0 0000E005#15273E0003B60591
(1778535283.943320) can0 1806E5F4#13EC010003B6023A
(1778535283.944108) can0 0000E000#13EC13EC020F0000
(1778535283.945082) can0 0000E004#111103B603B601E4
(1778535283.946083) can0 0000E006#0CE00CE00CE00CE0
(1778535283.947083) can0 0000E007#0CE00CE00CE00CE0
(1778535283.948078) can0 0000E008#0CE00CE00CE00CE0
(1778535283.949071) can0 0000E009#0CE00CE00CE00CE2
(1778535283.950121) can0 0000E010#0000000000000000
(1778535283.951122) can0 0000E011#0000000000000000
(1778535283.952102) can0 0000E012#0CE1000200000000
(1778535283.953115) can0 0000F001#0000000000000000
(1778535283.954115) can0 18FF28F4#10330000020F0000
(1778535283.955096) can0 18FE28F4#0CE20CE039390000
(1778535283.956090) can0 18FD28F4#1527FA6F00000000
(1778535283.957006) can0 4D4#000033007D0F0203
(1778535283.957988) can0 4D5#E00CE20C39390000
(1778535283.959084) can0 18914010#0CE2100CE0020000
(1778535283.960097) can0 18904010#020F0000753001FE
(1778535283.961079) can0 18FA28F4#373CA12C10270000
(1778535283.962077) can0 18FB28F4#E20CE00C39390000
(1778535283.963127) can0 18FC28F4#383300000F020000
(1778535283.964072) can0 18F810F3#0F02E80333640100
(1778535283.965122) can0 18F815F3#0000000010030000
(1778535283.966002) can0 273#000000000F023300
(1778535283.967001) can0 1E1#020F271001FE01FE
(1778535283.968027) can0 1F5#0000000000000000
(1778535283.969106) can0 0800A6A9#0000000000000000
(1778535283.970071) can0 1000A6A9#0F02881333434343
(1778535283.971122) can0 1C00A6A9#0000000000030000
(1778535283.972116) can0 02018100#1003020F00000000
(1778535283.973095) can0 02028100#0000003364000000
(1778535283.974097) can0 02038100#0CE201100CE00102
(1778535283.975090) can0 02048100#4301014301010000
(1778535284.042765) can0 0000E005#15273E0003B60591
(1778535284.043355) can0 1806E5F4#13EC010003B6023A
(1778535284.044112) can0 0000E000#13EC13EC020F0000
(1778535284.045074) can0 0000E004#111103B603B601E4
(1778535284.046086) can0 0000E006#0CE00CE00CE00CE0
(1778535284.047078) can0 0000E007#0CE00CE00CE00CE0
(1778535284.048099) can0 0000E008#0CE00CE00CE00CE0
(1778535284.049061) can0 0000E009#0CE00CE00CE00CE2
(1778535284.050111) can0 0000E010#0000000000000000
(1778535284.051105) can0 0000E011#0000000000000000
(1778535284.052106) can0 0000E012#0CE0000200000000
(1778535284.053118) can0 0000F001#0000000000000000
(1778535284.054099) can0 18FF28F4#10330000020F0000
(1778535284.055080) can0 18FE28F4#0CE20CE039390000
(1778535284.056112) can0 18FD28F4#1527FA6F00000000
(1778535284.056997) can0 4D4#000033007D0F0203
(1778535284.057978) can0 4D5#E00CE20C39390000
(1778535284.059070) can0 18914010#0CE2100CE0020000
(1778535284.060087) can0 18904010#020F0000753001FE
(1778535284.061067) can0 18FA28F4#373CA12C10270000
(1778535284.062080) can0 18FB28F4#E20CE00C39390000
(1778535284.063090) can0 18FC28F4#383300000F020000
(1778535284.064112) can0 18F810F3#0F02E80333640100
(1778535284.065106) can0 18F815F3#0000000010030000
(1778535284.066004) can0 273#000000000F023300
(1778535284.066985) can0 1E1#020F271001FE01FE
(1778535284.068017) can0 1F5#0000000000000000
(1778535284.069094) can0 0800A6A9#0000000000000000
(1778535284.070061) can0 1000A6A9#0F02881333434343
(1778535284.071086) can0 1C00A6A9#0000000000030000
(1778535284.072157) can0 02018100#1003020F00000000
(1778535284.073100) can0 02028100#0000003364000000
(1778535284.074081) can0 02038100#0CE201100CE00102
(1778535284.075075) can0 02048100#4301014301010000
(1778535284.142747) can0 0000E005#15273E0003B60591
(1778535284.143339) can0 1806E5F4#13EC010003B6023A
(1778535284.144095) can0 0000E000#13EC13EC020F0000
(1778535284.145076) can0 0000E004#111103B603B601E4
(1778535284.146070) can0 0000E006#0CE00CE00CE00CE0
(1778535284.147070) can0 0000E007#0CE00CE00CE00CE0
(1778535284.148070) can0 0000E008#0CE00CE00CE00CE0
(1778535284.149111) can0 0000E009#0CE00CE00CE00CE2
(1778535284.150108) can0 0000E010#0000000000000000
(1778535284.151108) can0 0000E011#0000000000000000
(1778535284.152089) can0 0000E012#0CE0000200000000
(1778535284.153100) can0 0000F001#0000000000000000
(1778535284.154101) can0 18FF28F4#10330000020F0000
(1778535284.155064) can0 18FE28F4#0CE20CE039390000
(1778535284.156077) can0 18FD28F4#1527FA6F00000000
(1778535284.156993) can0 4D4#000033007D0F0203
(1778535284.157975) can0 4D5#E00CE20C39390000
(1778535284.159070) can0 18914010#0CE2100CE0020000
(1778535284.160084) can0 18904010#020F0000753001FE
(1778535284.161065) can0 18FA28F4#373CA12C10270000
(1778535284.162064) can0 18FB28F4#E20CE00C39390000
(1778535284.163096) can0 18FC28F4#383300000F020000
(1778535284.164058) can0 18F810F3#0F02E80333640100
(1778535284.165101) can0 18F815F3#0000000010030000
(1778535284.165988) can0 273#000000000F023300
(1778535284.166988) can0 1E1#020F271001FE01FE
(1778535284.168014) can0 1F5#0000000000000000
(1778535284.169095) can0 0800A6A9#0000000000000000
(1778535284.170057) can0 1000A6A9#0F02881333434343
(1778535284.171090) can0 1C00A6A9#0000000000030000
(1778535284.172104) can0 02018100#1003020F00000000
(1778535284.173081) can0 02028100#0000003364000000
(1778535284.174077) can0 02038100#0CE201100CE00102
(1778535284.175077) can0 02048100#4301014301010000
(1778535284.259749) can0 0000E005#15273E0003B60591
(1778535284.260330) can0 1806E5F4#13EC010003B6023A
(1778535284.261087) can0 0000E000#13EC13EC020F0000
(1778535284.262067) can0 0000E004#111103B603B601E4
(1778535284.263080) can0 0000E006#0CE00CE00CE00CE0
(1778535284.264061) can0 0000E007#0CE00CE00CE00CE0
(1778535284.265061) can0 0000E008#0CE00CE00CE00CE0
(1778535284.266060) can0 0000E009#0CE00CE00CE00CE0
(1778535284.267105) can0 0000E010#0000000000000000
(1778535284.268100) can0 0000E011#0000000000000000
(1778535284.269086) can0 0000E012#0CE0000000000000
(1778535284.270049) can0 0000E013#4542323630354C43
(1778535284.271092) can0 0000E014#3134323300000000
(1778535284.272088) can0 0000E015#0000000000000003
(1778535284.273105) can0 0000F000#0000000000000000
(1778535284.274106) can0 0000F001#0000000000000000
(1778535284.275087) can0 18FF28F4#10330000020F0000
(1778535284.276068) can0 18FE28F4#0CE00CE039390000
(1778535284.277080) can0 18FD28F4#1527FA6F00000000
(1778535284.277979) can0 4D4#000033007D0F0203
(1778535284.278991) can0 4D5#E00CE00C39390000
(1778535284.280070) can0 18914010#0CE0010CE0040000
(1778535284.281067) can0 18904010#020F0000753001FE
(1778535284.282068) can0 18FA28F4#373CA12C10270000
(1778535284.283068) can0 18FB28F4#E00CE00C39390000
(1778535284.284074) can0 18FC28F4#383300000F020000
(1778535284.285061) can0 18F810F3#0F02E80333640100
(1778535284.286061) can0 18F811F3#E00C0101E00C0401
(1778535284.287106) can0 18F812F3#3901013901010000
(1778535284.288087) can0 18F813F3#0101000000000000
(1778535284.289068) can0 18F814F3#32000F19A9015F00
(1778535284.290094) can0 18F815F3#0000000010030000
(1778535284.290997) can0 273#000000000F023300
(1778535284.291971) can0 1E1#020F271001FE01FE
(1778535284.293005) can0 1F5#0000000000000000
(1778535284.294081) can0 0800A6A9#0000000000000000
(1778535284.295093) can0 1000A6A9#0F02881333434343
(1778535284.296074) can0 1C00A6A9#0000000000030000
(1778535284.297100) can0 02018100#1003020F00000000
(1778535284.298080) can0 02028100#0000003364000000
(1778535284.299081) can0 02038100#0CE001010CE00104
(1778535284.300075) can0 02048100#4301014301010000
(1778535284.357747) can0 0000E005#15273E0003B60591
(1778535284.358337) can0 1806E5F4#13EC010003B6023A
(1778535284.359089) can0 0000E000#13EC13EC020F0000
(1778535284.360049) can0 0000E004#111103B603B601E4
(1778535284.361070) can0 0000E006#0CE00CE00CE00CE0
(1778535284.362064) can0 0000E007#0CE00CE00CE00CE0
(1778535284.363064) can0 0000E008#0CE00CE00CE00CE0
(1778535284.364090) can0 0000E009#0CE00CE00CE00CE0
(1778535284.365090) can0 0000E010#0000000000000000
(1778535284.366090) can0 0000E011#0000000000000000
(1778535284.367089) can0 0000E012#0CE0000000000000
(1778535284.368103) can0 0000F001#0000000000000000
(1778535284.369083) can0 18FF28F4#10330000020F0000
(1778535284.370064) can0 18FE28F4#0CE00CE039390000
(1778535284.371064) can0 18FD28F4#1527FA6F00000000
(1778535284.372027) can0 4D4#000033007D0F0203
(1778535284.372976) can0 4D5#E00CE00C39390000
(1778535284.374071) can0 18914010#0CE0010CE0040000
(1778535284.375071) can0 18904010#020F0000753001FE
(1778535284.376046) can0 18FA28F4#373CA12C10270000
(1778535284.377064) can0 18FB28F4#E00CE00C39390000
(1778535284.378077) can0 18FC28F4#383300000F020000
(1778535284.379058) can0 18F810F3#0F02E80333640100
(1778535284.380140) can0 18F815F3#0000000010030000
(1778535284.380988) can0 273#000000000F023300
(1778535284.381969) can0 1E1#020F271001FE01FE
(1778535284.383001) can0 1F5#0000000000000000
(1778535284.384072) can0 0800A6A9#0000000000000000
(1778535284.385046) can0 1000A6A9#0F02881333434343
(1778535284.386077) can0 1C00A6A9#0000000000030000
(1778535284.387090) can0 02018100#1003020F00000000
(1778535284.388084) can0 02028100#0000003364000000
(1778535284.389083) can0 02038100#0CE001010CE00104
(1778535284.390064) can0 02048100#4301014301010000
(1778535284.457744) can0 0000E005#15273E0003B60591
(1778535284.458335) can0 1806E5F4#13EC010003B6023A
(1778535284.459086) can0 0000E000#13EC13EC020F0000
(1778535284.460054) can0 0000E004#111103B603B601E4
(1778535284.461054) can0 0000E006#0CE00CE00CE00CE0
(1778535284.462044) can0 0000E007#0CE00CE00CE00CE0
(1778535284.463061) can0 0000E008#0CE00CE00CE00CE0
(1778535284.464061) can0 0000E009#0CE00CE00CE00CE0
(1778535284.465093) can0 0000E010#0000000000000000
(1778535284.466086) can0 0000E011#0000000000000000
(1778535284.467086) can0 0000E012#0CE0000000000000
(1778535284.468087) can0 0000F001#0000000000000000
(1778535284.469079) can0 18FF28F4#10330000020F0000
(1778535284.470061) can0 18FE28F4#0CE00CE039390000
(1778535284.471061) can0 18FD28F4#1527FA6F00000000
(1778535284.471979) can0 4D4#000033007D0F0203
(1778535284.472959) can0 4D5#E00CE00C39390000
(1778535284.474066) can0 18914010#0CE0010CE0040000
(1778535284.475068) can0 18904010#020F0000753001FE
(1778535284.476049) can0 18FA28F4#373CA12C10270000
(1778535284.477048) can0 18FB28F4#E00CE00C39390000
(1778535284.478071) can0 18FC28F4#383300000F020000
(1778535284.479041) can0 18F810F3#0F02E80333640100
(1778535284.480074) can0 18F815F3#0000000010030000
(1778535284.480972) can0 273#000000000F023300
(1778535284.481972) can0 1E1#020F271001FE01FE
(1778535284.482998) can0 1F5#0000000000000000
(1778535284.484081) can0 0800A6A9#0000000000000000
(1778535284.485041) can0 1000A6A9#0F02881333434343
(1778535284.486067) can0 1C00A6A9#0000000000030000
(1778535284.487086) can0 02018100#1003020F00000000
(1778535284.488068) can0 02028100#0000003364000000
(1778535284.489067) can0 02038100#0CE001010CE00104
(1778535284.490055) can0 02048100#4301014301010000
(1778535284.557739) can0 0000E005#15273E0003B60591
(1778535284.558331) can0 1806E5F4#13EC010003B6023A
(1778535284.559069) can0 0000E000#13EC13EC020F0000
(1778535284.560051) can0 0000E004#111103B603B601E4
(1778535284.561050) can0 0000E006#0CE00CE00CE00CE0
(1778535284.562044) can0 0000E007#0CE00CE00CE00CE0
(1778535284.563057) can0 0000E008#0CE00CE00CE00CE0
(1778535284.564040) can0 0000E009#0CE00CE00CE00CE0
(1778535284.565089) can0 0000E010#0000000000000000
(1778535284.566083) can0 0000E011#0000000000000000
(1778535284.567064) can0 0000E012#0CE0000000000000
(1778535284.568073) can0 0000F001#0000000000000000
(1778535284.569076) can0 18FF28F4#10330000020F0000
(1778535284.570045) can0 18FE28F4#0CE00CE039390000
(1778535284.571076) can0 18FD28F4#1527FA6F00000000
(1778535284.571975) can0 4D4#000033007D0F0203
(1778535284.572956) can0 4D5#E00CE00C39390000
(1778535284.574064) can0 18914010#0CE0010CE0030000
(1778535284.575064) can0 18904010#020F0000753001FE
(1778535284.576045) can0 18FA28F4#373CA12C10270000
(1778535284.577045) can0 18FB28F4#E00CE00C39390000
(1778535284.578053) can0 18FC28F4#383300000F020000
(1778535284.579067) can0 18F810F3#0F02E80333640100
(1778535284.580070) can0 18F815F3#0000000010030000
(1778535284.580968) can0 273#000000000F023300
(1778535284.581968) can0 1E1#020F271001FE01FE
(1778535284.582981) can0 1F5#0000000000000000
(1778535284.584076) can0 0800A6A9#0000000000000000
(1778535284.585038) can0 1000A6A9#0F02881333434343
(1778535284.586070) can0 1C00A6A9#0000000000030000
(1778535284.587116) can0 02018100#1003020F00000000
(1778535284.588065) can0 02028100#0000003364000000
(1778535284.589065) can0 02038100#0CE001010CE00103
(1778535284.590058) can0 02048100#4301014301010000
(1778535284.657719) can0 0000E005#15273E0003B60591
(1778535284.658316) can0 1806E5F4#13EC010003B6023A
(1778535284.659067) can0 0000E000#13EC13EC020F0000
(1778535284.660054) can0 0000E004#111103B603B601E4
(1778535284.661047) can0 0000E006#0CE00CE00CE00CE0
(1778535284.662048) can0 0000E007#0CE00CE00CE00CE0
(1778535284.663041) can0 0000E008#0CE00CE00CE00CE0
(1778535284.664073) can0 0000E009#0CE00CE00CE00CE0
(1778535284.665065) can0 0000E010#0000000000000000
(1778535284.666066) can0 0000E011#0000000000000000
(1778535284.667066) can0 0000E012#0CE0000000000000
(1778535284.668079) can0 0000F001#0000000000000000
(1778535284.669054) can0 18FF28F4#10330000020F0000
(1778535284.670041) can0 18FE28F4#0CE00CE039390000
(1778535284.671060) can0 18FD28F4#1527FA6F00000000
(1778535284.672004) can0 4D4#000033007D0F0203
(1778535284.672958) can0 4D5#E00CE00C39390000
(1778535284.674048) can0 18914010#0CE0010CE0030000
(1778535284.675047) can0 18904010#020F0000753001FE
(1778535284.676048) can0 18FA28F4#373CA12C10270000
(1778535284.677043) can0 18FB28F4#E00CE00C39390000
(1778535284.678060) can0 18FC28F4#383300000F020000
(1778535284.679042) can0 18F810F3#0F02E80333640100
(1778535284.680118) can0 18F815F3#0000000010030000
(1778535284.680963) can0 273#000000000F023300
(1778535284.681953) can0 1E1#020F271001FE01FE
(1778535284.682978) can0 1F5#0000000000000000
(1778535284.684061) can0 0800A6A9#0000000000000000
(1778535284.685022) can0 1000A6A9#0F02881333434343
(1778535284.686054) can0 1C00A6A9#0000000000030000
(1778535284.687067) can0 02018100#1003020F00000000
(1778535284.688068) can0 02028100#0000003364000000
(1778535284.689058) can0 02038100#0CE001010CE00103
(1778535284.690042) can0 02048100#4301014301010000
(1778535284.774730) can0 0000E005#15273E0003B60591
(1778535284.775314) can0 1806E5F4#13EC010003B6023A
(1778535284.776050) can0 0000E000#13EC13EC020F0000
(1778535284.777038) can0 0000E004#111103B603B601E4
(1778535284.778031) can0 0000E006#0CE00CE00CE00CE0
(1778535284.779032) can0 0000E007#0CE00CE00CE00CE0
(1778535284.780045) can0 0000E008#0CE00CE00CE00CE0
(1778535284.781025) can0 0000E009#0CE00CE00CE00CE2
(1778535284.782070) can0 0000E010#0000000000000000
(1778535284.783070) can0 0000E011#0000000000000000
(1778535284.784047) can0 0000E012#0CE1000100000000
(1778535284.785019) can0 0000E013#4542323630354C43
(1778535284.786045) can0 0000E014#3134323300000000
(1778535284.787057) can0 0000E015#0000000000000003
(1778535284.788073) can0 0000F000#0000000000000000
(1778535284.789070) can0 0000F001#0000000000000000
(1778535284.790069) can0 18FF28F4#10330000020F0000
(1778535284.791032) can0 18FE28F4#0CE20CE039390000
(1778535284.792052) can0 18FD28F4#1527FA6F00000000
(1778535284.792962) can0 4D4#000033007D0F0203
(1778535284.793944) can0 4D5#E00CE20C39390000
(1778535284.795038) can0 18914010#0CE2100CE0010000
(1778535284.796054) can0 18904010#020F0000753001FE
(1778535284.797038) can0 18FA28F4#373CA12C10270000
(1778535284.798032) can0 18FB28F4#E20CE00C39390000
(1778535284.799044) can0 18FC28F4#383300000F020000
(1778535284.800028) can0 18F810F3#0F02E80333640100
(1778535284.801039) can0 18F811F3#E20C1001E00C0101
(1778535284.802058) can0 18F812F3#3901013901010000
(1778535284.803071) can0 18F813F3#0101000000000000
(1778535284.804033) can0 18F814F3#32000F19A9015F00
(1778535284.805064) can0 18F815F3#0000000010030000
(1778535284.805962) can0 273#000000000F023300
(1778535284.806957) can0 1E1#020F271001FE01FE
(1778535284.807971) can0 1F5#0000000000000000
(1778535284.809065) can0 0800A6A9#0000000000000000
(1778535284.810045) can0 1000A6A9#0F02881333434343
(1778535284.811057) can0 1C00A6A9#0000000000030000
(1778535284.812066) can0 02018100#1003020F00000000
(1778535284.813052) can0 02028100#0000003364000000
(1778535284.814045) can0 02038100#0CE201100CE00101
(1778535284.815039) can0 02048100#4301014301010000
(1778535284.872725) can0 0000E005#15273E0003B60591
(1778535284.873315) can0 1806E5F4#13EC010003B6023A
(1778535284.874054) can0 0000E000#13EC13EC020F0000
(1778535284.875034) can0 0000E004#111103B603B601E4
(1778535284.876026) can0 0000E006#0CE00CE00CE00CE0
(1778535284.877028) can0 0000E007#0CE00CE00CE00CE0
(1778535284.878028) can0 0000E008#0CE00CE00CE00CE0
(1778535284.879041) can0 0000E009#0CE00CE00CE00CE2
(1778535284.880068) can0 0000E010#0000000000000000
(1778535284.881067) can0 0000E011#0000000000000000
(1778535284.882048) can0 0000E012#0CE1000100000000
(1778535284.883060) can0 0000F001#0000000000000000
(1778535284.884061) can0 18FF28F4#10330000020F0000
(1778535284.885029) can0 18FE28F4#0CE20CE039390000
(1778535284.886041) can0 18FD28F4#1527FA6F00000000
(1778535284.886971) can0 4D4#000033007D0F0203
(1778535284.887935) can0 4D5#E00CE20C39390000
(1778535284.889035) can0 18914010#0CE2100CE0010000
(1778535284.890048) can0 18904010#020F0000753001FE
(1778535284.891028) can0 18FA28F4#373CA12C10270000
(1778535284.892023) can0 18FB28F4#E20CE00C39390000
(1778535284.893054) can0 18FC28F4#383300000F020000
(1778535284.894023) can0 18F810F3#0F02E80333640100
(1778535284.895099) can0 18F815F3#0000000010030000
(1778535284.895953) can0 273#000000000F023300
(1778535284.896946) can0 1E1#020F271001FE01FE
(1778535284.897978) can0 1F5#0000000000000000
(1778535284.899054) can0 0800A6A9#0000000000000000
(1778535284.900020) can0 1000A6A9#0F02881333434343
(1778535284.901054) can0 1C00A6A9#0000000000030000
(1778535284.902066) can0 02018100#1003020F00000000
(1778535284.903093) can0 02028100#0000003364000000
(1778535284.904039) can0 02038100#0CE201100CE00101
(1778535284.905041) can0 02048100#4301014301010000
(1778535284.972715) can0 0000E005#15273E0003B60591
(1778535284.973305) can0 1806E5F4#13EC010003B6023A
(1778535284.974044) can0 0000E000#13EC13EC020F0000
(1778535284.975025) can0 0000E004#111103B603B601E4
(1778535284.976018) can0 0000E006#0CE00CE00CE00CE0
(1778535284.977018) can0 0000E007#0CE00CE00CE00CE0
(1778535284.978028) can0 0000E008#0CE00CE00CE00CE0
(1778535284.979012) can0 0000E009#0CE00CE00CE00CE2
(1778535284.980108) can0 0000E010#0000000000000000
(1778535284.981057) can0 0000E011#0000000000000000
(1778535284.982032) can0 0000E012#0CE1000100000000
(1778535284.983051) can0 0000F001#0000000000000000
(1778535284.984051) can0 18FF28F4#10330000020F0000
(1778535284.985013) can0 18FE28F4#0CE20CE039390000
(1778535284.986032) can0 18FD28F4#1527FA6F00000000
(1778535284.986949) can0 4D4#000033007D0F0203
(1778535284.987975) can0 4D5#E00CE20C39390000
(1778535284.989038) can0 18914010#0CE2100CE0010000
(1778535284.990029) can0 18904010#020F0000753001FE
(1778535284.991019) can0 18FA28F4#373CA12C10270000
(1778535284.992013) can0 18FB28F4#E20CE00C39390000
(1778535284.993045) can0 18FC28F4#383300000F020000
(1778535284.994010) can0 18F810F3#0F02E80333640100
(1778535284.995057) can0 18F815F3#0000000010030000
(1778535284.995944) can0 273#000000000F023300
(1778535284.996937) can0 1E1#020F271001FE01FE
(1778535284.997968) can0 1F5#0000000000000000
(1778535284.999045) can0 0800A6A9#0000000000000000
(1778535285.000014) can0 1000A6A9#0F02881333434343
(1778535285.001045) can0 1C00A6A9#0000000000030000
(1778535285.002052) can0 02018100#1003020F00000000
(1778535285.003039) can0 02028100#0000003364000000
(1778535285.004033) can0 02038100#0CE201100CE00101
(1778535285.005032) can0 02048100#4301014301010000
(1778535285.072708) can0 0000E005#15273E0003B60591
(1778535285.073299) can0 1806E5F4#13EC010003B6023A
(1778535285.074034) can0 0000E000#13EC13EC020F0000
(1778535285.075021) can0 0000E004#111103B603B601E4
(1778535285.076015) can0 0000E006#0CE00CE00CE00CE0
(1778535285.077015) can0 0000E007#0CE00CE00CE00CE0
(1778535285.078027) can0 0000E008#0CE00CE00CE00CE0
(1778535285.079028) can0 0000E009#0CE00CE00CE00CE0
(1778535285.080048) can0 0000E010#0000000000000000
(1778535285.081054) can0 0000E011#0000000000000000
(1778535285.082053) can0 0000E012#0CE0000000000000
(1778535285.083047) can0 0000F001#0000000000000000
(1778535285.084044) can0 18FF28F4#10330000020F0000
(1778535285.085028) can0 18FE28F4#0CE00CE039390000
(1778535285.086022) can0 18FD28F4#1527FA6F00000000
(1778535285.086939) can0 4D4#000033007D0F0203
(1778535285.087920) can0 4D5#E00CE00C39390000
(1778535285.089015) can0 18914010#0CE0010CE00E0000
(1778535285.090028) can0 18904010#020F0000753001FE
(1778535285.091015) can0 18FA28F4#373CA12C10270000
(1778535285.092009) can0 18FB28F4#E00CE00C39390000
(1778535285.093041) can0 18FC28F4#383300000F020000
(1778535285.094003) can0 18F810F3#0F02E80333640100
(1778535285.095054) can0 18F815F3#0000000010030000
(1778535285.095929) can0 273#000000000F023300
(1778535285.096933) can0 1E1#020F271001FE01FE
(1778535285.097965) can0 1F5#0000000000000000
(1778535285.099041) can0 0800A6A9#0000000000000000
(1778535285.100010) can0 1000A6A9#0F02881333434343
(1778535285.101035) can0 1C00A6A9#0000000000030000
(1778535285.102067) can0 02018100#1003020F00000000
(1778535285.103029) can0 02028100#0000003364000000
(1778535285.104025) can0 02038100#0CE001010CE0010E
(1778535285.105022) can0 02048100#4301014301010000
(1778535285.172708) can0 0000E005#15273E0003B60591
(1778535285.173292) can0 1806E5F4#13EC010003B6023A
(1778535285.174031) can0 0000E000#13EC13EC020F0000
(1778535285.175012) can0 0000E004#111103B603B601E4
(1778535285.176012) can0 0000E006#0CE00CE00CE00CE0
(1778535285.177006) can0 0000E007#0CE00CE00CE00CE0
(1778535285.178024) can0 0000E008#0CE00CE00CE00CE0
(1778535285.179018) can0 0000E009#0CE00CE00CE00CE0
(1778535285.180051) can0 0000E010#0000000000000000
(1778535285.181050) can0 0000E011#0000000000000000
(1778535285.182043) can0 0000E012#0CE0000000000000
(1778535285.183044) can0 0000F001#0000000000000000
(1778535285.184045) can0 18FF28F4#10330000020F0000
(1778535285.185006) can0 18FE28F4#0CE00CE039390000
(1778535285.186016) can0 18FD28F4#1527FA6F00000000
(1778535285.186955) can0 4D4#000033007D0F0203
(1778535285.187917) can0 4D5#E00CE00C39390000
(1778535285.189012) can0 18914010#0CE0010CE00E0000
(1778535285.190031) can0 18904010#020F0000753001FE
(1778535285.191012) can0 18FA28F4#373CA12C10270000
(1778535285.192006) can0 18FB28F4#E00CE00C39390000
(1778535285.193038) can0 18FC28F4#383300000F020000
(1778535285.193997) can0 18F810F3#0F02E80333640100
(1778535285.195064) can0 18F815F3#0000000010030000
(1778535285.195937) can0 273#000000000F023300
(1778535285.196930) can0 1E1#020F271001FE01FE
(1778535285.197955) can0 1F5#0000000000000000
(1778535285.199038) can0 0800A6A9#0000000000000000
(1778535285.200007) can0 1000A6A9#0F02881333434343
(1778535285.201033) can0 1C00A6A9#0000000000030000
(1778535285.202051) can0 02018100#1003020F00000000
(1778535285.203064) can0 02028100#0000003364000000
(1778535285.204025) can0 02038100#0CE001010CE0010E
(1778535285.205025) can0 02048100#4301014301010000
(1778535285.289682) can0 0000E005#15273E0003B60591
(1778535285.290280) can0 1806E5F4#13EC010003B6023A
(1778535285.291034) can0 0000E000#13EC13EC020F0000
(1778535285.292016) can0 0000E004#111103B603B601E4
(1778535285.293010) can0 0000E006#0CE00CE00CE00CE0
(1778535285.294009) can0 0000E007#0CE00CE00CE00CE0
(1778535285.295009) can0 0000E008#0CE00CE00CE00CE0
(1778535285.296002) can0 0000E009#0CE00CE00CE00CE0
(1778535285.297054) can0 0000E010#0000000000000000
(1778535285.298048) can0 0000E011#0000000000000000
(1778535285.299028) can0 0000E012#0CE0000000000000
(1778535285.299997) can0 0000E013#4542323630354C43
(1778535285.301023) can0 0000E014#3134323300000000
(1778535285.302041) can0 0000E015#0000000000000003
(1778535285.303034) can0 0000F000#0000000000000000
(1778535285.304035) can0 0000F001#0000000000000000
(1778535285.305028) can0 18FF28F4#10330000020F0000
(1778535285.306016) can0 18FE28F4#0CE00CE039390000
(1778535285.307010) can0 18FD28F4#1527FA6F00000000
(1778535285.307928) can0 4D4#000033007D0F0203
(1778535285.308908) can0 4D5#E00CE00C39390000
(1778535285.310003) can0 18914010#0CE0010CE00B0000
(1778535285.311022) can0 18904010#020F0000753001FE
(1778535285.312003) can0 18FA28F4#373CA12C10270000
(1778535285.312996) can0 18FB28F4#E00CE00C39390000
(1778535285.314028) can0 18FC28F4#383300000F020000
(1778535285.314997) can0 18F810F3#0F02E80333640100
(1778535285.316005) can0 18F811F3#E00C0101E00C0B01
(1778535285.317003) can0 18F812F3#3901013901010000
(1778535285.318035) can0 18F813F3#0101000000000000
(1778535285.318997) can0 18F814F3#32000F19A9015F00
(1778535285.320029) can0 18F815F3#0000000010030000
(1778535285.320928) can0 273#000000000F023300
(1778535285.321927) can0 1E1#020F271001FE01FE
(1778535285.322952) can0 1F5#0000000000000000
(1778535285.324024) can0 0800A6A9#0000000000000000
(1778535285.324997) can0 1000A6A9#0F02881333434343
(1778535285.326023) can0 1C00A6A9#0000000000030000
(1778535285.327035) can0 02018100#1003020F00000000
(1778535285.328028) can0 02028100#0000003364000000
(1778535285.329016) can0 02038100#0CE001010CE0010B
(1778535285.330010) can0 02048100#4301014301010000
(1778535285.387683) can0 0000E005#15273E0003B60591
(1778535285.388267) can0 1806E5F4#13EC010003B6023A
(1778535285.389025) can0 0000E000#13EC13EC020F0000
(1778535285.390006) can0 0000E004#111103B603B601E4
(1778535285.391006) can0 0000E006#0CE00CE00CE00CE0
(1778535285.391996) can0 0000E007#0CE00CE00CE00CE0
(1778535285.392999) can0 0000E008#0CE00CE00CE00CE0
(1778535285.394000) can0 0000E009#0CE00CE00CE00CE0
(1778535285.395045) can0 0000E010#0000000000000000
(1778535285.396022) can0 0000E011#0000000000000000
(1778535285.397025) can0 0000E012#0CE0000000000000
(1778535285.398038) can0 0000F001#0000000000000000
(1778535285.399019) can0 18FF28F4#10330000020F0000
(1778535285.400000) can0 18FE28F4#0CE00CE039390000
(1778535285.401012) can0 18FD28F4#1527FA6F00000000
(1778535285.401929) can0 4D4#000033007D0F0203
(1778535285.402910) can0 4D5#E00CE00C39390000
(1778535285.404004) can0 18914010#0CE0010CE00B0000
(1778535285.405006) can0 18904010#020F0000753001FE
(1778535285.406000) can0 18FA28F4#373CA12C10270000
(1778535285.407000) can0 18FB28F4#E00CE00C39390000
(1778535285.408008) can0 18FC28F4#383300000F020000
(1778535285.408994) can0 18F810F3#0F02E80333640100
(1778535285.410045) can0 18F815F3#0000000010030000
(1778535285.410924) can0 273#000000000F023300
(1778535285.411924) can0 1E1#020F271001FE01FE
(1778535285.412936) can0 1F5#0000000000000000
(1778535285.414019) can0 0800A6A9#0000000000000000
