(1779048787.064778) can0 0000E005#16D2440003B60591
(1779048787.065352) can0 1806E5F4#13E6010003B6023A
(1779048787.066162) can0 0000E000#13E613E6020E0000
(1779048787.067164) can0 0000E004#171703B603B601E3
(1779048787.068196) can0 0000E006#0CDA0CDA0CDA0CDA
(1779048787.069158) can0 0000E007#0CDA0CDA0CDA0CDC
(1779048787.070156) can0 0000E008#0CDC0CDA0CDA0CDA
(1779048787.071139) can0 0000E009#0CDA0CDC0CDA0CDC
(1779048787.072194) can0 0000E010#0000000000000000
(1779048787.073183) can0 0000E011#0000000000000000
(1779048787.074165) can0 0000E012#0CDB000200000000
(1779048787.075184) can0 0000F001#0000000000000000
(1779048787.076178) can0 18FF28F4#10320000020E0000
(1779048787.077159) can0 18FE28F4#0CDC0CDA3F3F0000
(1779048787.078158) can0 18FD28F4#16D2FA6F00000000
(1779048787.079076) can0 4D4#000032007D0E0203
(1779048787.080057) can0 4D5#DA0CDC0C3F3F0000
(1779048787.081152) can0 18914010#0CDC100CDA010000
(1779048787.082150) can0 18904010#020E020E753001FD
(1779048787.083152) can0 18FA28F4#E23DA12C10270000
(1779048787.084146) can0 18FB28F4#DC0CDA0C3F3F0000
(1779048787.085165) can0 18FC28F4#383200000E020000
(1779048787.086147) can0 18F810F3#0E02E80332640100
(1779048787.087178) can0 18F815F3#0000000010030000
(1779048787.088084) can0 273#000000000E023200
(1779048787.089077) can0 1E1#020E271001FD01FD
(1779048787.090085) can0 1F5#0000000000000000
(1779048787.091184) can0 0800A6A9#0000000000000000
(1779048787.092133) can0 1000A6A9#0E02881332494949
(1779048787.093166) can0 1C00A6A9#0000000000030000
(1779048787.094170) can0 02018100#1003020E00000000
(1779048787.095178) can0 02028100#0000003264000000
(1779048787.096160) can0 02038100#0CDC01100CDA0101
(1779048787.097153) can0 02048100#4901014901010000
(1779048787.098051) can0 1AD#9214000059321717
(1779048787.099064) can0 2AD#DC0C800C92140016
(1779048787.100076) can0 3AD#0000000000009214
(1779048787.101078) can0 4AD#EB00000000000000
(1779048787.102097) can0 76A#7F00000000000000
(1779048787.164760) can0 0000E005#16D2440003B60591
(1779048787.165330) can0 1806E5F4#13E6010003B6023A
(1779048787.166157) can0 0000E000#13E613E6020E0000
(1779048787.167158) can0 0000E004#171703B603B601E3
(1779048787.168138) can0 0000E006#0CDA0CDA0CDA0CDA
(1779048787.169155) can0 0000E007#0CDA0CDA0CDA0CDC
(1779048787.170150) can0 0000E008#0CDC0CDA0CDA0CDA
(1779048787.171137) can0 0000E009#0CDA0CDC0CDA0CDC
(1779048787.172181) can0 0000E010#0000000000000000
(1779048787.173181) can0 0000E011#0000000000000000
(1779048787.174163) can0 0000E012#0CDB000200000000
(1779048787.175170) can0 0000F001#0000000000000000
(1779048787.176175) can0 18FF28F4#10320000020E0000
(1779048787.177156) can0 18FE28F4#0CDC0CDA3F3F0000
(1779048787.178157) can0 18FD28F4#16D2FA6F00000000
(1779048787.179067) can0 4D4#000032007D0E0203
(1779048787.180067) can0 4D5#DA0CDC0C3F3F0000
(1779048787.181150) can0 18914010#0CDC100CDA010000
(1779048787.182145) can0 18904010#020E020E753001FD
(1779048787.183144) can0 18FA28F4#E23DA12C10270000
(1779048787.184143) can0 18FB28F4#DC0CDA0C3F3F0000
(1779048787.185156) can0 18FC28F4#383200000E020000
(1779048787.186137) can0 18F810F3#0E02E80332640100
(1779048787.187169) can0 18F815F3#0000000010030000
(1779048787.188067) can0 273#000000000E023200
(1779048787.189067) can0 1E1#020E271001FD01FD
(1779048787.190092) can0 1F5#0000000000000000
(1779048787.191163) can0 0800A6A9#0000000000000000
(1779048787.192144) can0 1000A6A9#0E02881332494949
(1779048787.193156) can0 1C00A6A9#0000000000030000
(1779048787.194169) can0 02018100#1003020E00000000
(1779048787.195169) can0 02028100#0000003264000000
(1779048787.196152) can0 02038100#0CDC01100CDA0101
(1779048787.197152) can0 02048100#4901014901010000
(1779048787.198080) can0 1AD#9214000059321717
(1779048787.199042) can0 2AD#DC0C800C92140016
(1779048787.200074) can0 3AD#0000000000009214
(1779048787.201073) can0 4AD#EB00000000000000
(1779048787.202077) can0 76A#7F00000000000000
(1779048787.301752) can0 0000E005#16D2440003B60591
(1779048787.302340) can0 1806E5F4#13E6010003B6023A
(1779048787.303154) can0 0000E000#13E613E6020E0000
(1779048787.304135) can0 0000E004#171703B603B601E3
(1779048787.305135) can0 0000E006#0CDC0CDA0CDA0CDA
(1779048787.306148) can0 0000E007#0CDA0CDA0CDA0CDC
(1779048787.307135) can0 0000E008#0CDA0CDC0CDA0CDC
(1779048787.308128) can0 0000E009#0CDA0CDA0CDA0CDC
(1779048787.309174) can0 0000E010#0000000000000000
(1779048787.310174) can0 0000E011#0000000000000000
(1779048787.311154) can0 0000E012#0CDB000100000000
(1779048787.312119) can0 0000E013#4542323630354C43
(1779048787.313153) can0 0000E014#3134323300000000
(1779048787.314168) can0 0000E015#0000000000000003
(1779048787.315179) can0 0000F000#0000000000000000
(1779048787.316161) can0 0000F001#0000000000000000
(1779048787.317161) can0 18FF28F4#10320000020E0000
(1779048787.318142) can0 18FE28F4#0CDC0CDA3F3F0000
(1779048787.319141) can0 18FD28F4#16D2FA6F00000000
(1779048787.320052) can0 4D4#000032007D0E0203
(1779048787.321065) can0 4D5#DA0CDC0C3F3F0000
(1779048787.322137) can0 18914010#0CDC010CDA020000
(1779048787.323139) can0 18904010#020E020E753001FD
(1779048787.324144) can0 18924010#3F013F0100000000
(1779048787.325148) can0 18934010#000000AF0000BD0E
(1779048787.326161) can0 18944010#1003000000000000
(1779048787.327174) can0 18954010#0000000000000000
(1779048787.328174) can0 18954010#0100000000000000
(1779048787.329173) can0 18954010#0200000000000000
(1779048787.330168) can0 18954010#0300000000000000
(1779048787.331167) can0 18954010#0400000000000000
(1779048787.332159) can0 18954010#0500000000000000
(1779048787.333162) can0 18964010#003F3F3F00000000
(1779048787.334162) can0 18974010#0000000000000000
(1779048787.335155) can0 18984010#0000000000000000
(1779048787.336135) can0 18FA28F4#E23DA12C10270000
(1779048787.337136) can0 18FB28F4#DC0CDA0C3F3F0000
(1779048787.338149) can0 18FC28F4#383200000E020000
(1779048787.339129) can0 18F810F3#0E02E80332640100
(1779048787.340142) can0 18F811F3#DC0C0101DA0C0201
(1779048787.341155) can0 18F812F3#3F01013F01010000
(1779048787.342168) can0 18F813F3#0101000000000000
(1779048787.343130) can0 18F814F3#3200BA1AA9015F00
(1779048787.344175) can0 18F815F3#0000000010030000
(1779048787.345059) can0 273#000000000E023200
(1779048787.346060) can0 1E1#020E271001FD01FD
(1779048787.347072) can0 1F5#0000000000000000
(1779048787.348164) can0 0800A6A9#0000000000000000
(1779048787.349130) can0 1000A6A9#0E02881332494949
(1779048787.350143) can0 1C00A6A9#0000000000030000
(1779048787.351162) can0 02018100#1003020E00000000
(1779048787.352193) can0 02028100#0000003264000000
(1779048787.353137) can0 02038100#0CDC01010CDA0102
(1779048787.354136) can0 02048100#4901014901010000
(1779048787.355035) can0 1AD#9214000059321717
(1779048787.356052) can0 2AD#DC0C800C92140016
(1779048787.357067) can0 3AD#0000000000009214
(1779048787.358068) can0 4AD#EB00000000000000
(1779048787.359061) can0 76A#7F00000000000000
(1779048787.417687) can0 0000E005#16D2440003B60591
(1779048787.418318) can0 1806E5F4#13E6010003B6023A
(1779048787.419146) can0 0000E000#13E613E6020E0000
(1779048787.420145) can0 0000E004#171703B603B601E3
(1779048787.421145) can0 0000E006#0CDC0CDA0CDA0CDA
(1779048787.422140) can0 0000E007#0CDA0CDA0CDA0CDC
(1779048787.423120) can0 0000E008#0CDA0CDC0CDA0CDC
(1779048787.424120) can0 0000E009#0CDA0CDA0CDA0CDC
(1779048787.425163) can0 0000E010#0000000000000000
(1779048787.426165) can0 0000E011#0000000000000000
(1779048787.427145) can0 0000E012#0CDB000100000000
(1779048787.428164) can0 0000F001#0000000000000000
(1779048787.429175) can0 18FF28F4#10320000020E0000
(1779048787.430146) can0 18FE28F4#0CDC0CDA3F3F0000
(1779048787.431149) can0 18FD28F4#16D2FA6F00000000
(1779048787.432065) can0 4D4#000032007D0E0203
(1779048787.433046) can0 4D5#DA0CDC0C3F3F0000
(1779048787.434135) can0 18914010#0CDC010CDA020000
(1779048787.435134) can0 18904010#020E020E753001FD
(1779048787.436133) can0 18FA28F4#E23DA12C10270000
(1779048787.437172) can0 18FB28F4#DC0CDA0C3F3F0000
(1779048787.438147) can0 18FC28F4#383200000E020000
(1779048787.439126) can0 18F810F3#0E02E80332640100
(1779048787.440153) can0 18F815F3#0000000010030000
(1779048787.441054) can0 273#000000000E023200
(1779048787.442051) can0 1E1#020E271001FD01FD
(1779048787.443070) can0 1F5#0000000000000000
(1779048787.444165) can0 0800A6A9#0000000000000000
(1779048787.445159) can0 1000A6A9#0E02881332494949
(1779048787.446147) can0 1C00A6A9#0000000000030000
(1779048787.447159) can0 02018100#1003020E00000000
(1779048787.448158) can0 02028100#0000003264000000
(1779048787.449134) can0 02038100#0CDC01010CDA0102
(1779048787.450134) can0 02048100#4901014901010000
(1779048787.451032) can0 1AD#9214000059321717
(1779048787.452044) can0 2AD#DC0C800C92140016
(1779048787.453101) can0 3AD#0000000000009214
(1779048787.454070) can0 4AD#EB00000000000000
(1779048787.455070) can0 76A#7F00000000000000
(1779048787.517704) can0 0000E005#16D2440003B60591
(1779048787.518323) can0 1806E5F4#13E6010003B6023A
(1779048787.519157) can0 0000E000#13E613E6020E0000
(1779048787.520136) can0 0000E004#171703B603B601E3
(1779048787.521136) can0 0000E006#0CDC0CDA0CDA0CDA
(1779048787.522174) can0 0000E007#0CDA0CDA0CDA0CDC
(1779048787.523130) can0 0000E008#0CDA0CDC0CDA0CDC
(1779048787.524129) can0 0000E009#0CDA0CDA0CDA0CDC
(1779048787.525156) can0 0000E010#0000000000000000
(1779048787.526150) can0 0000E011#0000000000000000
(1779048787.527136) can0 0000E012#0CDB000100000000
(1779048787.528168) can0 0000F001#0000000000000000
(1779048787.529149) can0 18FF28F4#10320000020E0000
(1779048787.530182) can0 18FE28F4#0CDC0CDA3F3F0000
(1779048787.531131) can0 18FD28F4#16D2FA6F00000000
(1779048787.532049) can0 4D4#000032007D0E0203
(1779048787.533048) can0 4D5#DA0CDC0C3F3F0000
(1779048787.534122) can0 18914010#0CDC010CDA020000
(1779048787.535126) can0 18904010#020E020E753001FD
(1779048787.536139) can0 18FA28F4#E23DA12C10270000
(1779048787.537137) can0 18FB28F4#DC0CDA0C3F3F0000
(1779048787.538143) can0 18FC28F4#383200000E020000
(1779048787.539130) can0 18F810F3#0E02E80332640100
(1779048787.540165) can0 18F815F3#0000000010030000
(1779048787.541061) can0 273#000000000E023200
(1779048787.542042) can0 1E1#020E271001FD01FD
(1779048787.543073) can0 1F5#0000000000000000
(1779048787.544151) can0 0800A6A9#0000000000000000
(1779048787.545118) can0 1000A6A9#0E02881332494949
(1779048787.546149) can0 1C00A6A9#0000000000030000
(1779048787.547170) can0 02018100#1003020E00000000
(1779048787.548163) can0 02028100#0000003264000000
(1779048787.549144) can0 02038100#0CDC01010CDA0102
(1779048787.550135) can0 02048100#4901014901010000
(1779048787.551034) can0 1AD#9214000059321717
(1779048787.552036) can0 2AD#DC0C800C92140016
(1779048787.553061) can0 3AD#0000000000009214
(1779048787.554062) can0 4AD#EB00000000000000
(1779048787.555055) can0 76A#7F00000000000000
(1779048787.617752) can0 0000E005#16D2440003B60591
(1779048787.618333) can0 1806E5F4#13E6010003B6023A
(1779048787.619150) can0 0000E000#13E613E6020E0000
(1779048787.620132) can0 0000E004#171703B603B601E3
(1779048787.621132) can0 0000E006#0CDA0CDA0CDA0CDA
(1779048787.622128) can0 0000E007#0CDA0CDA0CDA0CDC
(1779048787.623120) can0 0000E008#0CDA0CDC0CDA0CDC
(1779048787.624121) can0 0000E009#0CDA0CDA0CDA0CDC
(1779048787.625152) can0 0000E010#0000000000000000
(1779048787.626150) can0 0000E011#0000000000000000
(1779048787.627133) can0 0000E012#0CDB000100000000
(1779048787.628166) can0 0000F001#0000000000000000
(1779048787.629147) can0 18FF28F4#10320000020E0000
(1779048787.630129) can0 18FE28F4#0CDC0CDA3F3F0000
(1779048787.631126) can0 18FD28F4#16D2FA6F00000000
(1779048787.632039) can0 4D4#000032007D0E0203
(1779048787.633038) can0 4D5#DA0CDC0C3F3F0000
(1779048787.634122) can0 18914010#0CDC080CDA010000
(1779048787.635115) can0 18904010#020E020E753001FD
(1779048787.636134) can0 18FA28F4#E23DA12C10270000
(1779048787.637127) can0 18FB28F4#DC0CDA0C3F3F0000
(1779048787.638128) can0 18FC28F4#383200000E020000
(1779048787.639128) can0 18F810F3#0E02E80332640100
(1779048787.640153) can0 18F815F3#0000000010030000
(1779048787.641058) can0 273#000000000E023200
(1779048787.642040) can0 1E1#020E271001FD01FD
(1779048787.643065) can0 1F5#0000000000000000
(1779048787.644165) can0 0800A6A9#0000000000000000
(1779048787.645109) can0 1000A6A9#0E02881332494949
(1779048787.646140) can0 1C00A6A9#0000000000030000
(1779048787.647139) can0 02018100#1003020E00000000
(1779048787.648140) can0 02028100#0000003264000000
(1779048787.649121) can0 02038100#0CDC01080CDA0101
(1779048787.650134) can0 02048100#4901014901010000
(1779048787.651014) can0 1AD#9214000059321717
(1779048787.652058) can0 2AD#DC0C800C92140016
(1779048787.653053) can0 3AD#0000000000009214
(1779048787.654060) can0 4AD#EB00000000000000
(1779048787.655050) can0 76A#7F00000000000000
(1779048787.717698) can0 0000E005#16D2440003B60591
(1779048787.718266) can0 1806E5F4#13E6010003B6023A
(1779048787.719137) can0 0000E000#13E613E6020E0000
(1779048787.720111) can0 0000E004#171703B603B601E3
(1779048787.721130) can0 0000E006#0CDA0CDA0CDA0CDA
(1779048787.722131) can0 0000E007#0CDA0CDA0CDA0CDC
(1779048787.723111) can0 0000E008#0CDA0CDC0CDA0CDC
(1779048787.724112) can0 0000E009#0CDA0CDA0CDA0CDC
(1779048787.725156) can0 0000E010#0000000000000000
(1779048787.726156) can0 0000E011#0000000000000000
(1779048787.727137) can0 0000E012#0CDB000100000000
(1779048787.728143) can0 0000F001#0000000000000000
(1779048787.729163) can0 18FF28F4#10320000020E0000
(1779048787.730112) can0 18FE28F4#0CDC0CDA3F3F0000
(1779048787.731125) can0 18FD28F4#16D2FA6F00000000
(1779048787.732042) can0 4D4#000032007D0E0203
(1779048787.733029) can0 4D5#DA0CDC0C3F3F0000
(1779048787.734119) can0 18914010#0CDC080CDA010000
(1779048787.735118) can0 18904010#020E020E753001FD
(1779048787.736119) can0 18FA28F4#E23DA12C10270000
(1779048787.737150) can0 18FB28F4#DC0CDA0C3F3F0000
(1779048787.738132) can0 18FC28F4#383200000E020000
(1779048787.739112) can0 18F810F3#0E02E80332640100
(1779048787.740136) can0 18F815F3#0000000010030000
(1779048787.741042) can0 273#000000000E023200
(1779048787.742029) can0 1E1#020E271001FD01FD
(1779048787.743055) can0 1F5#0000000000000000
(1779048787.744135) can0 0800A6A9#0000000000000000
(1779048787.745152) can0 1000A6A9#0E02881332494949
(1779048787.746140) can0 1C00A6A9#0000000000030000
(1779048787.747162) can0 02018100#1003020E00000000
(1779048787.748146) can0 02028100#0000003264000000
(1779048787.749125) can0 02038100#0CDC01080CDA0101
(1779048787.750119) can0 02048100#4901014901010000
(1779048787.751017) can0 1AD#9214000059321717
(1779048787.752016) can0 2AD#DC0C800C92140016
(1779048787.753095) can0 3AD#0000000000009214
(1779048787.754043) can0 4AD#EB00000000000000
(1779048787.755055) can0 76A#7F00000000000000
(1779048787.834727) can0 0000E005#16D2440003B60591
(1779048787.835333) can0 1806E5F4#13E6010003B6023A
(1779048787.836121) can0 0000E000#13E613E6020E0000
(1779048787.837122) can0 0000E004#171703B603B601E3
(1779048787.838103) can0 0000E006#0CDA0CDA0CDA0CDA
(1779048787.839114) can0 0000E007#0CDA0CDA0CDA0CDC
(1779048787.840116) can0 0000E008#0CDA0CDC0CDA0CDA
(1779048787.841097) can0 0000E009#0CDA0CDA0CDA0CDC
(1779048787.842141) can0 0000E010#0000000000000000
(1779048787.843141) can0 0000E011#0000000000000000
(1779048787.844142) can0 0000E012#0CDB000200000000
(1779048787.845089) can0 0000E013#4542323630354C43
(1779048787.846115) can0 0000E014#3134323300000000
(1779048787.847135) can0 0000E015#0000000000000003
(1779048787.848147) can0 0000F000#0000000000000000
(1779048787.849148) can0 0000F001#0000000000000000
(1779048787.850128) can0 18FF28F4#10320000020E0000
(1779048787.851109) can0 18FE28F4#0CDC0CDA3F3F0000
(1779048787.852109) can0 18FD28F4#16D2FA6F00000000
(1779048787.853039) can0 4D4#000032007D0E0203
(1779048787.854019) can0 4D5#DA0CDC0C3F3F0000
(1779048787.855116) can0 18914010#0CDC100CDA010000
(1779048787.856116) can0 18904010#020E020E753001FD
(1779048787.857129) can0 18924010#3F013F0100000000
(1779048787.858109) can0 18934010#000000B00000BD0E
(1779048787.859129) can0 18944010#1003000000000000
(1779048787.860161) can0 18954010#0000000000000000
(1779048787.861154) can0 18954010#0100000000000000
(1779048787.862135) can0 18954010#0200000000000000
(1779048787.863135) can0 18954010#0300000000000000
(1779048787.864129) can0 18954010#0400000000000000
(1779048787.865125) can0 18954010#0500000000000000
(1779048787.866131) can0 18964010#003F3F3F00000000
(1779048787.867140) can0 18974010#0000000000000000
(1779048787.868136) can0 18984010#0000000000000000
(1779048787.869100) can0 18FA28F4#E23DA12C10270000
(1779048787.870112) can0 18FB28F4#DC0CDA0C3F3F0000
(1779048787.871130) can0 18FC28F4#383200000E020000
(1779048787.872110) can0 18F810F3#0E02E80332640100
(1779048787.873124) can0 18F811F3#DC0C1001DA0C0101
(1779048787.874117) can0 18F812F3#3F01013F01010000
(1779048787.875160) can0 18F813F3#0101000000000000
(1779048787.876110) can0 18F814F3#3200BA1AA9015F00
(1779048787.877132) can0 18F815F3#0000000010030000
(1779048787.878041) can0 273#000000000E023200
(1779048787.879020) can0 1E1#020E271001FD01FD
(1779048787.880051) can0 1F5#0000000000000000
(1779048787.881139) can0 0800A6A9#0000000000000000
(1779048787.882092) can0 1000A6A9#0E02881332494949
(1779048787.883156) can0 1C00A6A9#0000000000030000
(1779048787.884135) can0 02018100#1003020E00000000
(1779048787.885137) can0 02028100#0000003264000000
(1779048787.886117) can0 02038100#0CDC01100CDA0101
(1779048787.887117) can0 02048100#4901014901010000
(1779048787.888015) can0 1AD#9214000059321717
(1779048787.889011) can0 2AD#DC0C800C92140016
(1779048787.890041) can0 3AD#0000000000009214
(1779048787.891071) can0 4AD#EB00000000000000
(1779048787.892041) can0 76A#7F00000000000000
(1779048787.950667) can0 0000E005#16D2440003B60591
(1779048787.951260) can0 1806E5F4#13E6010003B6023A
(1779048787.952139) can0 0000E000#13E613E6020E0000
(1779048787.953106) can0 0000E004#171703B603B601E3
(1779048787.954107) can0 0000E006#0CDA0CDA0CDA0CDA
(1779048787.955106) can0 0000E007#0CDA0CDA0CDA0CDC
(1779048787.956099) can0 0000E008#0CDA0CDC0CDA0CDA
(1779048787.957100) can0 0000E009#0CDA0CDA0CDA0CDC
(1779048787.958143) can0 0000E010#0000000000000000
(1779048787.959144) can0 0000E011#0000000000000000
(1779048787.960157) can0 0000E012#0CDB000200000000
(1779048787.961138) can0 0000F001#0000000000000000
(1779048787.962118) can0 18FF28F4#10320000020E0000
(1779048787.963106) can0 18FE28F4#0CDC0CDA3F3F0000
(1779048787.964101) can0 18FD28F4#16D2FA6F00000000
(1779048787.965037) can0 4D4#000032007D0E0203
(1779048787.966018) can0 4D5#DA0CDC0C3F3F0000
(1779048787.967113) can0 18914010#0CDC100CDA010000
(1779048787.968145) can0 18904010#020E020E753001FD
(1779048787.969107) can0 18FA28F4#E23DA12C10270000
(1779048787.970106) can0 18FB28F4#DC0CDA0C3F3F0000
(1779048787.971126) can0 18FC28F4#383200000E020000
(1779048787.972107) can0 18F810F3#0E02E80332640100
(1779048787.973138) can0 18F815F3#0000000010030000
(1779048787.974035) can0 273#000000000E023200
(1779048787.975018) can0 1E1#020E271001FD01FD
(1779048787.976081) can0 1F5#0000000000000000
(1779048787.977126) can0 0800A6A9#0000000000000000
(1779048787.978095) can0 1000A6A9#0E02881332494949
(1779048787.979126) can0 1C00A6A9#0000000000030000
(1779048787.980139) can0 02018100#1003020E00000000
(1779048787.981138) can0 02028100#0000003264000000
(1779048787.982114) can0 02038100#0CDC01100CDA0101
(1779048787.983114) can0 02048100#4901014901010000
(1779048787.984064) can0 1AD#9214000059321717
(1779048787.985012) can0 2AD#DC0C800C92140016
(1779048787.986036) can0 3AD#0000000000009214
(1779048787.987038) can0 4AD#EB00000000000000
(1779048787.988032) can0 76A#7F00000000000000
(1779048788.050739) can0 0000E005#16D2440003B60591
(1779048788.051341) can0 1806E5F4#13E6010003B6023A
(1779048788.052113) can0 0000E000#13E613E6020E0000
(1779048788.053143) can0 0000E004#171703B603B601E3
(1779048788.054091) can0 0000E006#0CDA0CDA0CDA0CDA
(1779048788.055108) can0 0000E007#0CDA0CDA0CDA0CDC
(1779048788.056091) can0 0000E008#0CDA0CDC0CDA0CDA
(1779048788.057090) can0 0000E009#0CDA0CDA0CDA0CDC
(1779048788.058138) can0 0000E010#0000000000000000
(1779048788.059130) can0 0000E011#0000000000000000
(1779048788.060117) can0 0000E012#0CDB000200000000
(1779048788.061180) can0 0000F001#0000000000000000
(1779048788.062111) can0 18FF28F4#10320000020E0000
(1779048788.063108) can0 18FE28F4#0CDC0CDA3F3F0000
(1779048788.064109) can0 18FD28F4#16D2FA6F00000000
(1779048788.065022) can0 4D4#000032007D0E0203
(1779048788.066010) can0 4D5#DA0CDC0C3F3F0000
(1779048788.067094) can0 18914010#0CDC100CDA010000
(1779048788.068098) can0 18904010#020E020E753001FD
(1779048788.069161) can0 18FA28F4#E23DA12C10270000
(1779048788.070098) can0 18FB28F4#DC0CDA0C3F3F0000
(1779048788.071105) can0 18FC28F4#383200000E020000
(1779048788.072091) can0 18F810F3#0E02E80332640100
(1779048788.073123) can0 18F815F3#0000000010030000
(1779048788.074023) can0 273#000000000E023200
(1779048788.075023) can0 1E1#020E271001FD01FD
(1779048788.076035) can0 1F5#0000000000000000
(1779048788.077129) can0 0800A6A9#0000000000000000
(1779048788.078079) can0 1000A6A9#0E02881332494949
(1779048788.079102) can0 1C00A6A9#0000000000030000
(1779048788.080124) can0 02018100#1003020E00000000
(1779048788.081123) can0 02028100#0000003264000000
(1779048788.082105) can0 02038100#0CDC01100CDA0101
(1779048788.083092) can0 02048100#4901014901010000
(1779048788.084003) can0 1AD#9214000059321717
(1779048788.085016) can0 2AD#DC0C800C92140016
(1779048788.086029) can0 3AD#0000000000009214
(1779048788.087022) can0 4AD#EB00000000000000
(1779048788.088034) can0 76A#7F00000000000000
(1779048788.150704) can0 0000E005#16D2440003B60591
(1779048788.151286) can0 1806E5F4#13E6010003B6023A
(1779048788.152115) can0 0000E000#13E613E6020E0000
(1779048788.153099) can0 0000E004#171703B603B601E3
(1779048788.154101) can0 0000E006#0CDA0CDA0CDA0CDA
(1779048788.155095) can0 0000E007#0CDC0CDA0CDA0CDC
(1779048788.156087) can0 0000E008#0CDC0CDC0CDA0CDA
(1779048788.157094) can0 0000E009#0CDC0CDC0CDC0CDC
(1779048788.158141) can0 0000E010#0000000000000000
(1779048788.159119) can0 0000E011#0000000000000000
(1779048788.160120) can0 0000E012#0CDB000100000000
(1779048788.161133) can0 0000F001#0000000000000000
(1779048788.162115) can0 18FF28F4#10320000020E0000
(1779048788.163095) can0 18FE28F4#0CDC0CDA3F3F0000
(1779048788.164090) can0 18FD28F4#16D2FA6F00000000
(1779048788.165012) can0 4D4#000032007D0E0203
(1779048788.166013) can0 4D5#DA0CDC0C3F3F0000
(1779048788.167108) can0 18914010#0CDC050CDA010000
(1779048788.168087) can0 18904010#020E020E753001FD
(1779048788.169101) can0 18FA28F4#E23DA12C10270000
(1779048788.170101) can0 18FB28F4#DC0CDA0C3F3F0000
(1779048788.171101) can0 18FC28F4#383200000E020000
(1779048788.172094) can0 18F810F3#0E02E80332640100
(1779048788.173127) can0 18F815F3#0000000010030000
(1779048788.174025) can0 273#000000000E023200
(1779048788.175025) can0 1E1#020E271001FD01FD
(1779048788.176036) can0 1F5#0000000000000000
(1779048788.177119) can0 0800A6A9#0000000000000000
(1779048788.178089) can0 1000A6A9#0E02881332494949
(1779048788.179113) can0 1C00A6A9#0000000000030000
(1779048788.180127) can0 02018100#1003020E00000000
(1779048788.181114) can0 02028100#0000003264000000
(1779048788.182108) can0 02038100#0CDC01050CDA0101
(1779048788.183120) can0 02048100#4901014901010000
(1779048788.184006) can0 1AD#9214000059321717
(1779048788.185001) can0 2AD#DC0C800C92140016
(1779048788.186019) can0 3AD#0000000000009214
(1779048788.187026) can0 4AD#EB00000000000000
(1779048788.188022) can0 76A#7F00000000000000
(1779048788.250675) can0 0000E005#16D2440003B60591
(1779048788.251248) can0 1806E5F4#13E6010003B6023A
(1779048788.252111) can0 0000E000#13E613E6020E0000
(1779048788.253090) can0 0000E004#171703B603B601E3
(1779048788.254092) can0 0000E006#0CDA0CDA0CDA0CDA
(1779048788.255091) can0 0000E007#0CDC0CDA0CDA0CDC
(1779048788.256085) can0 0000E008#0CDC0CDC0CDA0CDA
(1779048788.257085) can0 0000E009#0CDC0CDC0CDC0CDC
(1779048788.258136) can0 0000E010#0000000000000000
(1779048788.259130) can0 0000E011#0000000000000000
(1779048788.260130) can0 0000E012#0CDB000100000000
(1779048788.261123) can0 0000F001#0000000000000000
(1779048788.262112) can0 18FF28F4#10320000020E0000
(1779048788.263092) can0 18FE28F4#0CDC0CDA3F3F0000
(1779048788.264092) can0 18FD28F4#16D2FA6F00000000
(1779048788.265022) can0 4D4#000032007D0E0203
(1779048788.266004) can0 4D5#DA0CDC0C3F3F0000
(1779048788.267080) can0 18914010#0CDC050CDA010000
(1779048788.268113) can0 18904010#020E020E753001FD
(1779048788.269092) can0 18FA28F4#E23DA12C10270000
(1779048788.270093) can0 18FB28F4#DC0CDA0C3F3F0000
(1779048788.271105) can0 18FC28F4#383200000E020000
(1779048788.272093) can0 18F810F3#0E02E80332640100
(1779048788.273117) can0 18F815F3#0000000010030000
(1779048788.274023) can0 273#000000000E023200
(1779048788.275003) can0 1E1#020E271001FD01FD
(1779048788.276066) can0 1F5#0000000000000000
(1779048788.277106) can0 0800A6A9#0000000000000000
(1779048788.278087) can0 1000A6A9#0E02881332494949
(1779048788.279106) can0 1C00A6A9#0000000000030000
(1779048788.280123) can0 02018100#1003020E00000000
(1779048788.281118) can0 02028100#0000003264000000
(1779048788.282099) can0 02038100#0CDC01050CDA0101
(1779048788.283098) can0 02048100#4901014901010000
(1779048788.284029) can0 1AD#9214000059321717
(1779048788.284987) can0 2AD#DC0C800C92140016
(1779048788.286022) can0 3AD#0000000000009214
(1779048788.287016) can0 4AD#EB00000000000000
(1779048788.288016) can0 76A#7F00000000000000
(1779048788.367648) can0 0000E005#16D2440003B60591
(1779048788.368229) can0 1806E5F4#13E6010003B6023A
(1779048788.369159) can0 0000E000#13E613E6020E0000
(1779048788.370096) can0 0000E004#171703B603B601E3
(1779048788.371076) can0 0000E006#0CDC0CDA0CDA0CDA
(1779048788.372089) can0 0000E007#0CDA0CDA0CDA0CDC
(1779048788.373089) can0 0000E008#0CDA0CDC0CDA0CDA
(1779048788.374071) can0 0000E009#0CDA0CDA0CDA0CDC
(1779048788.375112) can0 0000E010#0000000000000000
(1779048788.376115) can0 0000E011#0000000000000000
(1779048788.377095) can0 0000E012#0CDB000100000000
(1779048788.378064) can0 0000E013#4542323630354C43
(1779048788.379087) can0 0000E014#3134323300000000
(1779048788.380108) can0 0000E015#0000000000000003
(1779048788.381121) can0 0000F000#0000000000000000
(1779048788.382122) can0 0000F001#0000000000000000
(1779048788.383102) can0 18FF28F4#10320000020E0000
(1779048788.384083) can0 18FE28F4#0CDC0CDA3F3F0000
(1779048788.385083) can0 18FD28F4#16D2FA6F00000000
(1779048788.386014) can0 4D4#000032007D0E0203
(1779048788.386990) can0 4D5#DA0CDC0C3F3F0000
(1779048788.388077) can0 18914010#0CDC010CDA020000
(1779048788.389089) can0 18904010#020E020E753001FD
(1779048788.390102) can0 18924010#3F013F0100000000
(1779048788.391097) can0 18934010#000000B10000BD0E
(1779048788.392103) can0 18944010#1003000000000000
(1779048788.393114) can0 18954010#0000000000000000
(1779048788.394128) can0 18954010#0100000000000000
(1779048788.395110) can0 18954010#0200000000000000
(1779048788.396109) can0 18954010#0300000000000000
(1779048788.397109) can0 18954010#0400000000000000
(1779048788.398135) can0 18954010#0500000000000000
(1779048788.399106) can0 18964010#003F3F3F00000000
(1779048788.400124) can0 18974010#0000000000000000
(1779048788.401110) can0 18984010#0000000000000000
(1779048788.402077) can0 18FA28F4#E23DA12C10270000
(1779048788.403088) can0 18FB28F4#DC0CDA0C3F3F0000
(1779048788.404104) can0 18FC28F4#383200000E020000
(1779048788.405084) can0 18F810F3#0E02E80332640100
(1779048788.406098) can0 18F811F3#DC0C0101DA0C0201
(1779048788.407090) can0 18F812F3#3F01013F01010000
(1779048788.408103) can0 18F813F3#0101000000000000
(1779048788.409082) can0 18F814F3#3200BA1AA9015F00
(1779048788.410115) can0 18F815F3#0000000010030000
(1779048788.411015) can0 273#000000000E023200
(1779048788.412006) can0 1E1#020E271001FD01FD
(1779048788.413030) can0 1F5#0000000000000000
(1779048788.414136) can0 0800A6A9#0000000000000000
(1779048788.415065) can0 1000A6A9#0E02881332494949
(1779048788.416096) can0 1C00A6A9#0000000000030000
(1779048788.417116) can0 02018100#1003020E00000000
(1779048788.418110) can0 02028100#0000003264000000
(1779048788.419090) can0 02038100#0CDC01010CDA0102
(1779048788.420090) can0 02048100#4901014901010000
(1779048788.420989) can0 1AD#9214000059321717
(1779048788.422020) can0 2AD#DC0C800C92140016
(1779048788.423000) can0 3AD#0000000000009214
(1779048788.424020) can0 4AD#EB00000000000000
(1779048788.425015) can0 76A#7F00000000000000
(1779048788.483651) can0 0000E005#16D2440003B60591
(1779048788.484230) can0 1806E5F4#13E6010003B6023A
(1779048788.485092) can0 0000E000#13E613E6020E0000
(1779048788.486086) can0 0000E004#171703B603B601E3
(1779048788.487067) can0 0000E006#0CDC0CDA0CDA0CDA
(1779048788.488081) can0 0000E007#0CDA0CDA0CDA0CDC
(1779048788.489067) can0 0000E008#0CDA0CDC0CDA0CDA
(1779048788.490062) can0 0000E009#0CDA0CDA0CDA0CDC
(1779048788.491129) can0 0000E010#0000000000000000
(1779048788.492107) can0 0000E011#0000000000000000
(1779048788.493087) can0 0000E012#0CDB000100000000
(1779048788.494123) can0 0000F001#0000000000000000
(1779048788.495099) can0 18FF28F4#10320000020E0000
(1779048788.496081) can0 18FE28F4#0CDC0CDA3F3F0000
(1779048788.497081) can0 18FD28F4#16D2FA6F00000000
(1779048788.497999) can0 4D4#000032007D0E0203
(1779048788.499011) can0 4D5#DA0CDC0C3F3F0000
(1779048788.500075) can0 18914010#0CDC010CDA020000
(1779048788.501080) can0 18904010#020E020E753001FD
(1779048788.502089) can0 18FA28F4#E23DA12C10270000
(1779048788.503063) can0 18FB28F4#DC0CDA0C3F3F0000
(1779048788.504087) can0 18FC28F4#383200000E020000
(1779048788.505068) can0 18F810F3#0E02E80332640100
(1779048788.506100) can0 18F815F3#0000000010030000
(1779048788.507046) can0 273#000000000E023200
(1779048788.507998) can0 1E1#020E271001FD01FD
(1779048788.509010) can0 1F5#0000000000000000
(1779048788.510106) can0 0800A6A9#0000000000000000
(1779048788.511074) can0 1000A6A9#0E02881332494949
(1779048788.512087) can0 1C00A6A9#0000000000030000
(1779048788.513100) can0 02018100#1003020E00000000
(1779048788.514100) can0 02028100#0000003264000000
(1779048788.515124) can0 02038100#0CDC01010CDA0102
(1779048788.516075) can0 02048100#4901014901010000
(1779048788.516973) can0 1AD#9214000059321717
(1779048788.517987) can0 2AD#DC0C800C92140016
(1779048788.519000) can0 3AD#0000000000009214
(1779048788.520018) can0 4AD#EB00000000000000
(1779048788.521011) can0 76A#7F00000000000000
(1779048788.583693) can0 0000E005#16D2440003B60591
(1779048788.584277) can0 1806E5F4#13E6010003B6023A
(1779048788.585097) can0 0000E000#13E613E6020E0000
(1779048788.586078) can0 0000E004#171703B603B601E3
(1779048788.587076) can0 0000E006#0CDC0CDA0CDA0CDA
(1779048788.588067) can0 0000E007#0CDA0CDA0CDA0CDC
(1779048788.589076) can0 0000E008#0CDA0CDC0CDA0CDA
(1779048788.590072) can0 0000E009#0CDA0CDA0CDA0CDC
(1779048788.591117) can0 0000E010#0000000000000000
(1779048788.592140) can0 0000E011#0000000000000000
(1779048788.593096) can0 0000E012#0CDB000100000000
(1779048788.594110) can0 0000F001#0000000000000000
(1779048788.595089) can0 18FF28F4#10320000020E0000
(1779048788.596072) can0 18FE28F4#0CDC0CDA3F3F0000
(1779048788.597072) can0 18FD28F4#16D2FA6F00000000
(1779048788.597989) can0 4D4#000032007D0E0203
(1779048788.598988) can0 4D5#DA0CDC0C3F3F0000
(1779048788.600116) can0 18914010#0CDC010CDA020000
(1779048788.601078) can0 18904010#020E020E753001FD
(1779048788.602079) can0 18FA28F4#E23DA12C10270000
(1779048788.603078) can0 18FB28F4#DC0CDA0C3F3F0000
(1779048788.604087) can0 18FC28F4#383200000E020000
(1779048788.605070) can0 18F810F3#0E02E80332640100
(1779048788.606103) can0 18F815F3#0000000010030000
(1779048788.607002) can0 273#000000000E023200
(1779048788.607982) can0 1E1#020E271001FD01FD
(1779048788.609014) can0 1F5#0000000000000000
(1779048788.610092) can0 0800A6A9#0000000000000000
(1779048788.611059) can0 1000A6A9#0E02881332494949
(1779048788.612089) can0 1C00A6A9#0000000000030000
(1779048788.613103) can0 02018100#1003020E00000000
(1779048788.614105) can0 02028100#0000003264000000
(1779048788.615084) can0 02038100#0CDC01010CDA0102
(1779048788.616084) can0 02048100#4901014901010000
(1779048788.616981) can0 1AD#9214000059321717
(1779048788.617982) can0 2AD#DC0C800C92140016
(1779048788.619009) can0 3AD#0000000000009214
(1779048788.620003) can0 4AD#EB00000000000000
(1779048788.620997) can0 76A#7F00000000000000
(1779048788.683633) can0 0000E005#16D2440003B60591
(1779048788.684215) can0 1806E5F4#13E6010003B6023A
(1779048788.685084) can0 0000E000#13E613E6020E0000
(1779048788.686068) can0 0000E004#171703B603B601E3
(1779048788.687068) can0 0000E006#0CDA0CDA0CDA0CDA
(1779048788.688068) can0 0000E007#0CDA0CDA0CDA0CDC
(1779048788.689060) can0 0000E008#0CDA0CDC0CDA0CDA
(1779048788.690062) can0 0000E009#0CDA0CDA0CDA0CDC
(1779048788.691106) can0 0000E010#0000000000000000
(1779048788.692106) can0 0000E011#0000000000000000
(1779048788.693088) can0 0000E012#0CDB000200000000
(1779048788.694100) can0 0000F001#0000000000000000
(1779048788.695087) can0 18FF28F4#10320000020E0000
(1779048788.696068) can0 18FE28F4#0CDC0CDA3F3F0000
(1779048788.697062) can0 18FD28F4#16D2FA6F00000000
(1779048788.697998) can0 4D4#000032007D0E0203
(1779048788.698979) can0 4D5#DA0CDC0C3F3F0000
(1779048788.700075) can0 18914010#0CDC100CDA010000
(1779048788.701067) can0 18904010#020E020E753001FD
(1779048788.702069) can0 18FA28F4#E23DA12C10270000
(1779048788.703069) can0 18FB28F4#DC0CDA0C3F3F0000
(1779048788.704087) can0 18FC28F4#383200000E020000
(1779048788.705069) can0 18F810F3#0E02E80332640100
(1779048788.706094) can0 18F815F3#0000000010030000
(1779048788.706998) can0 273#000000000E023200
(1779048788.707979) can0 1E1#020E271001FD01FD
(1779048788.709009) can0 1F5#0000000000000000
(1779048788.710088) can0 0800A6A9#0000000000000000
(1779048788.711056) can0 1000A6A9#0E02881332494949
(1779048788.712087) can0 1C00A6A9#0000000000030000
(1779048788.713099) can0 02018100#1003020E00000000
(1779048788.714101) can0 02028100#0000003264000000
(1779048788.715081) can0 02038100#0CDC01100CDA0101
(1779048788.716075) can0 02048100#4901014901010000
(1779048788.716973) can0 1AD#9214000059321717
(1779048788.717973) can0 2AD#DC0C800C92140016
(1779048788.718999) can0 3AD#0000000000009214
(1779048788.719999) can0 4AD#EB00000000000000
(1779048788.720994) can0 76A#7F00000000000000
(1779048788.783649) can0 0000E005#16D2440003B60591
(1779048788.784213) can0 1806E5F4#13E6010003B6023A
(1779048788.785084) can0 0000E000#13E613E6020E0000
(1779048788.786063) can0 0000E004#171703B603B601E3
(1779048788.787065) can0 0000E006#0CDA0CDA0CDA0CDA
(1779048788.788058) can0 0000E007#0CDA0CDA0CDA0CDC
(1779048788.789058) can0 0000E008#0CDA0CDC0CDA0CDA
(1779048788.790058) can0 0000E009#0CDA0CDA0CDA0CDC
(1779048788.791103) can0 0000E010#0000000000000000
(1779048788.792103) can0 0000E011#0000000000000000
(1779048788.793084) can0 0000E012#0CDB000200000000
(1779048788.794097) can0 0000F001#0000000000000000
(1779048788.795078) can0 18FF28F4#10320000020E0000
(1779048788.796065) can0 18FE28F4#0CDC0CDA3F3F0000
(1779048788.797059) can0 18FD28F4#16D2FA6F00000000
(1779048788.797993) can0 4D4#000032007D0E0203
(1779048788.798989) can0 4D5#DA0CDC0C3F3F0000
(1779048788.800071) can0 18914010#0CDC100CDA010000
(1779048788.801072) can0 18904010#020E020E753001FD
(1779048788.802065) can0 18FA28F4#E23DA12C10270000
(1779048788.803065) can0 18FB28F4#DC0CDA0C3F3F0000
(1779048788.804079) can0 18FC28F4#383200000E020000
(1779048788.805059) can0 18F810F3#0E02E80332640100
(1779048788.806087) can0 18F815F3#0000000010030000
(1779048788.807027) can0 273#000000000E023200
(1779048788.807976) can0 1E1#020E271001FD01FD
(1779048788.809007) can0 1F5#0000000000000000
(1779048788.810086) can0 0800A6A9#0000000000000000
(1779048788.811053) can0 1000A6A9#0E02881332494949
(1779048788.812078) can0 1C00A6A9#0000000000030000
(1779048788.813097) can0 02018100#1003020E00000000
(1779048788.814090) can0 02028100#0000003264000000
(1779048788.815104) can0 02038100#0CDC01100CDA0101
(1779048788.816072) can0 02048100#4901014901010000
(1779048788.816969) can0 1AD#9214000059321717
(1779048788.817960) can0 2AD#DC0C800C92140016
(1779048788.818996) can0 3AD#0000000000009214
(1779048788.819990) can0 4AD#EB00000000000000
(1779048788.820996) can0 76A#7F00000000000000
(1779048788.900623) can0 0000E005#16D2440003B60591
(1779048788.901219) can0 1806E5F4#13E6010003B6023A
(1779048788.902069) can0 0000E000#13E613E6020E0000
(1779048788.903068) can0 0000E004#171703B603B601E3
(1779048788.904050) can0 0000E006#0CDA0CDA0CDA0CDA
(1779048788.905062) can0 0000E007#0CDA0CDA0CDA0CDC
(1779048788.906050) can0 0000E008#0CDA0CDC0CDA0CDA
(1779048788.907043) can0 0000E009#0CDA0CDA0CDA0CDC
(1779048788.908084) can0 0000E010#0000000000000000
(1779048788.909087) can0 0000E011#0000000000000000
(1779048788.910069) can0 0000E012#0CDB000100000000
(1779048788.911037) can0 0000E013#4542323630354C43
(1779048788.912067) can0 0000E014#3134323300000000
(1779048788.913081) can0 0000E015#0000000000000003
(1779048788.914095) can0 0000F000#0000000000000000
(1779048788.915094) can0 0000F001#0000000000000000
(1779048788.916075) can0 18FF28F4#10320000020E0000
(1779048788.917063) can0 18FE28F4#0CDC0CDA3F3F0000
(1779048788.918057) can0 18FD28F4#16D2FA6F00000000
(1779048788.918974) can0 4D4#000032007D0E0203
(1779048788.919971) can0 4D5#DA0CDC0C3F3F0000
(1779048788.921050) can0 18914010#0CDC080CDA010000
(1779048788.922050) can0 18904010#020E020E753001FD
(1779048788.923063) can0 18924010#3F013F0100000000
(1779048788.924056) can0 18934010#000000B20000BD0E
(1779048788.925076) can0 18944010#1003000000000000
(1779048788.926094) can0 18954010#0000000000000000
(1779048788.927088) can0 18954010#0100000000000000
(1779048788.928087) can0 18954010#0200000000000000
(1779048788.929083) can0 18954010#0300000000000000
(1779048788.930083) can0 18954010#0400000000000000
(1779048788.931082) can0 18954010#0500000000000000
(1779048788.932077) can0 18964010#003F3F3F00000000
(1779048788.933095) can0 18974010#0000000000000000
(1779048788.934076) can0 18984010#0000000000000000
(1779048788.935056) can0 18FA28F4#E23DA12C10270000
(1779048788.936045) can0 18FB28F4#DC0CDA0C3F3F0000
(1779048788.937083) can0 18FC28F4#383200000E020000
(1779048788.938045) can0 18F810F3#0E02E80332640100
(1779048788.939057) can0 18F811F3#DC0C0801DA0C0101
(1779048788.940070) can0 18F812F3#3F01013F01010000
(1779048788.941082) can0 18F813F3#0101000000000000
(1779048788.942051) can0 18F814F3#3200BA1AA9015F00
(1779048788.943076) can0 18F815F3#0000000010030000
(1779048788.943971) can0 273#000000000E023200
(1779048788.944988) can0 1E1#020E271001FD01FD
(1779048788.945988) can0 1F5#0000000000000000
(1779048788.947083) can0 0800A6A9#0000000000000000
(1779048788.948043) can0 1000A6A9#0E02881332494949
(1779048788.949064) can0 1C00A6A9#0000000000030000
(1779048788.950077) can0 02018100#1003020E00000000
(1779048788.951076) can0 02028100#0000003264000000
(1779048788.952057) can0 02038100#0CDC01080CDA0101
(1779048788.953089) can0 02048100#4901014901010000
(1779048788.953957) can0 1AD#9114000059321717
(1779048788.954956) can0 2AD#DC0C800C91140016
(1779048788.955980) can0 3AD#0000000000009114
(1779048788.956981) can0 4AD#EB00000000000000
(1779048788.957981) can0 76A#7F00000000000000
(1779048789.016672) can0 0000E005#16D2440003B60591
(1779048789.017246) can0 1806E5F4#13E6010003B6023A
(1779048789.018074) can0 0000E000#13E613E6020E0000
(1779048789.019054) can0 0000E004#171703B603B601E3
(1779048789.020054) can0 0000E006#0CDA0CDA0CDA0CDA
(1779048789.021047) can0 0000E007#0CDA0CDA0CDA0CDC
(1779048789.022066) can0 0000E008#0CDA0CDC0CDA0CDA
(1779048789.023048) can0 0000E009#0CDA0CDA0CDA0CDC
(1779048789.024092) can0 0000E010#0000000000000000
(1779048789.025082) can0 0000E011#0000000000000000
(1779048789.026074) can0 0000E012#0CDB000100000000
(1779048789.027086) can0 0000F001#0000000000000000
(1779048789.028067) can0 18FF28F4#10320000020E0000
(1779048789.029047) can0 18FE28F4#0CDC0CDA3F3F0000
(1779048789.030080) can0 18FD28F4#16D2FA6F00000000
(1779048789.030978) can0 4D4#000032007D0E0203
(1779048789.031959) can0 4D5#DA0CDC0C3F3F0000
(1779048789.033054) can0 18914010#0CDC080CDA010000
(1779048789.034060) can0 18904010#020E020E753001FD
(1779048789.035055) can0 18FA28F4#E23DA12C10270000
(1779048789.036054) can0 18FB28F4#DC0CDA0C3F3F0000
(1779048789.037059) can0 18FC28F4#383200000E020000
(1779048789.038080) can0 18F810F3#0E02E80332640100
(1779048789.039079) can0 18F815F3#0000000010030000
(1779048789.039979) can0 273#000000000E023200
(1779048789.040956) can0 1E1#020E271001FD01FD
(1779048789.042003) can0 1F5#0000000000000000
(1779048789.043083) can0 0800A6A9#0000000000000000
(1779048789.044042) can0 1000A6A9#0E02881332494949
(1779048789.045068) can0 1C00A6A9#0000000000030000
(1779048789.046112) can0 02018100#1003020E00000000
(1779048789.047080) can0 02028100#0000003264000000
(1779048789.048061) can0 02038100#0CDC01080CDA0101
(1779048789.049051) can0 02048100#4901014901010000
(1779048789.049939) can0 1AD#9114000059321717
(1779048789.050952) can0 2AD#DC0C800C91140016
(1779048789.051965) can0 3AD#0000000000009114
(1779048789.052972) can0 4AD#EB00000000000000
(1779048789.054023) can0 76A#7F00000000000000
(1779048789.116613) can0 0000E005#16D2440003B60591
(1779048789.117193) can0 1806E5F4#13E6010003B6023A
(1779048789.118064) can0 0000E000#13E613E6020E0000
(1779048789.119045) can0 0000E004#171703B603B601E3
(1779048789.120045) can0 0000E006#0CDA0CDA0CDA0CDA
(1779048789.121057) can0 0000E007#0CDA0CDA0CDA0CDC
(1779048789.122039) can0 0000E008#0CDA0CDC0CDA0CDA
(1779048789.123082) can0 0000E009#0CDA0CDA0CDA0CDC
(1779048789.124083) can0 0000E010#0000000000000000
(1779048789.125074) can0 0000E011#0000000000000000
(1779048789.126063) can0 0000E012#0CDB000100000000
(1779048789.127076) can0 0000F001#0000000000000000
(1779048789.128057) can0 18FF28F4#10320000020E0000
(1779048789.129058) can0 18FE28F4#0CDC0CDA3F3F0000
(1779048789.130059) can0 18FD28F4#16D2FA6F00000000
(1779048789.131019) can0 4D4#000032007D0E0203
(1779048789.131957) can0 4D5#DA0CDC0C3F3F0000
(1779048789.133046) can0 18914010#0CDC080CDA010000
(1779048789.134045) can0 18904010#020E020E753001FD
(1779048789.135045) can0 18FA28F4#E23DA12C10270000
(1779048789.136045) can0 18FB28F4#DC0CDA0C3F3F0000
(1779048789.137057) can0 18FC28F4#383200000E020000
(1779048789.138039) can0 18F810F3#0E02E80332640100
(1779048789.139070) can0 18F815F3#0000000010030000
(1779048789.139968) can0 273#000000000E023200
(1779048789.140949) can0 1E1#020E271001FD01FD
(1779048789.141982) can0 1F5#0000000000000000
(1779048789.143064) can0 0800A6A9#0000000000000000
(1779048789.144026) can0 1000A6A9#0E02881332494949
(1779048789.145055) can0 1C00A6A9#0000000000030000
(1779048789.146071) can0 02018100#1003020E00000000
(1779048789.147070) can0 02028100#0000003264000000
(1779048789.148050) can0 02038100#0CDC01080CDA0101
(1779048789.149044) can0 02048100#4901014901010000
(1779048789.149951) can0 1AD#9114000059321717
(1779048789.150963) can0 2AD#DC0C800C91140016
(1779048789.151975) can0 3AD#0000000000009114
(1779048789.152970) can0 4AD#EB00000000000000
(1779048789.153982) can0 76A#7F00000000000000
(1779048789.239649) can0 0000E005#16D2440003B60591
(1779048789.240247) can0 1806E5F4#13E6010003B6023A
(1779048789.241051) can0 0000E000#13E613E6020E0000
(1779048789.242054) can0 0000E004#171703B603B601E3
(1779048789.243040) can0 0000E006#0CDA0CDA0CDA0CDA
(1779048789.244056) can0 0000E007#0CDA0CDA0CDA0CDC
(1779048789.245041) can0 0000E008#0CDC0CDC0CDA0CDA
(1779048789.246023) can0 0000E009#0CDA0CDA0CDA0CDC
(1779048789.247075) can0 0000E010#0000000000000000
(1779048789.248067) can0 0000E011#0000000000000000
(1779048789.249055) can0 0000E012#0CDB000100000000
(1779048789.250082) can0 0000F001#0000000000000000
(1779048789.251067) can0 18FF28F4#10320000020E0000
(1779048789.252049) can0 18FE28F4#0CDC0CDA3F3F0000
(1779048789.253057) can0 18FD28F4#16D2FA6F00000000
(1779048789.253960) can0 4D4#000032007D0E0203
(1779048789.254960) can0 4D5#DA0CDC0C3F3F0000
(1779048789.256036) can0 18914010#0CDC080CDA010000
(1779048789.257032) can0 18904010#020E020E753001FD
(1779048789.258036) can0 18FA28F4#E23DA12C10270000
(1779048789.259036) can0 18FB28F4#DC0CDA0C3F3F0000
(1779048789.260049) can0 18FC28F4#383200000E020000
(1779048789.261061) can0 18F810F3#0E02E80332640100
(1779048789.262075) can0 18F815F3#0000000010030000
(1779048789.262960) can0 273#000000000E023200
(1779048789.263960) can0 1E1#020E271001FD01FD
(1779048789.264969) can0 1F5#0000000000000000
(1779048789.266075) can0 0800A6A9#0000000000000000
(1779048789.267032) can0 1000A6A9#0E02881332494949
(1779048789.268050) can0 1C00A6A9#0000000000030000
(1779048789.269107) can0 02018100#1003020E00000000
(1779048789.270063) can0 02028100#0000003264000000
(1779048789.271045) can0 02038100#0CDC01080CDA0101
(1779048789.272056) can0 02048100#4901014901010000
(1779048789.272936) can0 1AD#9214000059321717
(1779048789.273954) can0 2AD#DC0C800C92140016
(1779048789.274967) can0 3AD#0000000000009214
(1779048789.275979) can0 4AD#EB00000000000000
(1779048789.277021) can0 76A#7F00000000000000
(1779048789.339589) can0 0000E005#16D2440003B60591
(1779048789.340181) can0 1806E5F4#13E6010003B6023A
(1779048789.341046) can0 0000E000#13E613E6020E0000
(1779048789.342043) can0 0000E004#171703B603B601E3
(1779048789.343026) can0 0000E006#0CDA0CDA0CDA0CDA
(1779048789.344039) can0 0000E007#0CDA0CDA0CDA0CDC
(1779048789.345042) can0 0000E008#0CDC0CDC0CDA0CDA
(1779048789.346072) can0 0000E009#0CDA0CDA0CDA0CDC
(1779048789.347066) can0 0000E010#0000000000000000
(1779048789.348065) can0 0000E011#0000000000000000
(1779048789.349046) can0 0000E012#0CDB000100000000
(1779048789.350062) can0 0000F001#0000000000000000
(1779048789.351058) can0 18FF28F4#10320000020E0000
(1779048789.352040) can0 18FE28F4#0CDC0CDA3F3F0000
(1779048789.353041) can0 18FD28F4#16D2FA6F00000000
(1779048789.354006) can0 4D4#000032007D0E0203
(1779048789.354938) can0 4D5#DA0CDC0C3F3F0000
(1779048789.356033) can0 18914010#0CDC080CDA010000
(1779048789.357033) can0 18904010#020E020E753001FD
(1779048789.358029) can0 18FA28F4#E23DA12C10270000
(1779048789.359027) can0 18FB28F4#DC0CDA0C3F3F0000
(1779048789.360041) can0 18FC28F4#383200000E020000
(1779048789.361028) can0 18F810F3#0E02E80332640100
(1779048789.362100) can0 18F815F3#0000000010030000
(1779048789.362958) can0 273#000000000E023200
(1779048789.363958) can0 1E1#020E271001FD01FD
(1779048789.364970) can0 1F5#0000000000000000
(1779048789.366045) can0 0800A6A9#0000000000000000
(1779048789.367014) can0 1000A6A9#0E02881332494949
(1779048789.368047) can0 1C00A6A9#0000000000030000
(1779048789.369060) can0 02018100#1003020E00000000
(1779048789.370060) can0 02028100#0000003264000000
(1779048789.371040) can0 02038100#0CDC01080CDA0101
(1779048789.372035) can0 02048100#4901014901010000
(1779048789.372932) can0 1AD#9214000059321717
(1779048789.373942) can0 2AD#DC0C800C92140016
(1779048789.374963) can0 3AD#0000000000009214
(1779048789.375958) can0 4AD#EB00000000000000
(1779048789.376970) can0 76A#7F00000000000000
(1779048789.456588) can0 0000E005#16D2440003B60591
(1779048789.457182) can0 1806E5F4#13E6010003B6023A
(1779048789.458044) can0 0000E000#13E613E6020E0000
(1779048789.459030) can0 0000E004#171703B603B601E3
(1779048789.460024) can0 0000E006#0CDA0CDA0CDA0CDA
(1779048789.461038) can0 0000E007#0CDA0CDA0CDA0CDC
(1779048789.462025) can0 0000E008#0CDA0CDA0CDA0CDA
(1779048789.463018) can0 0000E009#0CDC0CDC0CDA0CDC
(1779048789.464066) can0 0000E010#0000000000000000
(1779048789.465063) can0 0000E011#0000000000000000
(1779048789.466044) can0 0000E012#0CDB000100000000
(1779048789.467012) can0 0000E013#4542323630354C43
(1779048789.468040) can0 0000E014#3134323300000000
(1779048789.469056) can0 0000E015#0000000000000003
(1779048789.470077) can0 0000F000#0000000000000000
(1779048789.471055) can0 0000F001#0000000000000000
(1779048789.472056) can0 18FF28F4#10320000020E0000
(1779048789.473033) can0 18FE28F4#0CDC0CDA3F3F0000
(1779048789.474031) can0 18FD28F4#16D2FA6F00000000
(1779048789.474948) can0 4D4#000032007D0E0203
(1779048789.475960) can0 4D5#DA0CDC0C3F3F0000
(1779048789.477025) can0 18914010#0CDC080CDA010000
(1779048789.478027) can0 18904010#020E020E753001FD
(1779048789.479038) can0 18924010#3F013F0100000000
(1779048789.480033) can0 18934010#000000B30000BD0E
(1779048789.481050) can0 18944010#1003000000000000
(1779048789.482065) can0 18954010#0000000000000000
(1779048789.483064) can0 18954010#0100000000000000
(1779048789.484075) can0 18954010#0200000000000000
(1779048789.485057) can0 18954010#0300000000000000
(1779048789.486058) can0 18954010#0400000000000000
(1779048789.487052) can0 18954010#0500000000000000
(1779048789.488043) can0 18964010#003F3F3F00000000
(1779048789.489051) can0 18974010#0000000000000000
(1779048789.490045) can0 18984010#0000000000000000
(1779048789.491025) can0 18FA28F4#E23DA12C10270000
(1779048789.492048) can0 18FB28F4#DC0CDA0C3F3F0000
(1779048789.493038) can0 18FC28F4#383200000E020000
(1779048789.494020) can0 18F810F3#0E02E80332640100
(1779048789.495032) can0 18F811F3#DC0C0801DA0C0101
(1779048789.496045) can0 18F812F3#3F01013F01010000
(1779048789.497058) can0 18F813F3#0101000000000000
(1779048789.498020) can0 18F814F3#3200BA1AA9015F00
(1779048789.499052) can0 18F815F3#0000000010030000
(1779048789.499991) can0 273#000000000E023200
(1779048789.500944) can0 1E1#020E271001FD01FD
(1779048789.501980) can0 1F5#0000000000000000
(1779048789.503055) can0 0800A6A9#0000000000000000
(1779048789.504012) can0 1000A6A9#0E02881332494949
(1779048789.505051) can0 1C00A6A9#0000000000030000
(1779048789.506046) can0 02018100#1003020E00000000
(1779048789.507044) can0 02028100#0000003264000000
(1779048789.508078) can0 02038100#0CDC01080CDA0101
(1779048789.509039) can0 02048100#4901014901010000
(1779048789.509925) can0 1AD#9114000059321717
(1779048789.510937) can0 2AD#DC0C800C91140016
(1779048789.511952) can0 3AD#0000000000009114
(1779048789.512949) can0 4AD#EB00000000000000
(1779048789.513963) can0 76A#7F00000000000000
(1779048789.572597) can0 0000E005#16D2440003B60591
(1779048789.573179) can0 1806E5F4#13E6010003B6023A
(1779048789.574037) can0 0000E000#13E613E6020E0000
(1779048789.575034) can0 0000E004#171703B603B601E3
(1779048789.576016) can0 0000E006#0CDA0CDA0CDA0CDA
