(1779322084.785006) can0 0000E005#1702440003B60591
(1779322084.785553) can0 1806E5F4#13CC010003B6023A
(1779322084.786435) can0 0000E000#13CC13CC020D0000
(1779322084.787404) can0 0000E004#181803B603B601E1
(1779322084.788388) can0 0000E006#0CD50CD50CD50CD3
(1779322084.789389) can0 0000E007#0CD50CD30CD50CD5
(1779322084.790388) can0 0000E008#0CD50CD50CD50CD5
(1779322084.791393) can0 0000E009#0CD50CD50CD50CD6
(1779322084.792429) can0 0000E010#0000000000000000
(1779322084.793420) can0 0000E011#0000000000000000
(1779322084.794428) can0 0000E012#0CD4000200000000
(1779322084.795423) can0 0000F001#0000000000000000
(1779322084.796421) can0 18FF28F4#10320000020D0000
(1779322084.797402) can0 18FE28F4#0CD60CD340400000
(1779322084.798488) can0 18FD28F4#1702FA6F00000000
(1779322084.799319) can0 4D4#000032007D0D0203
(1779322084.800294) can0 4D5#D30CD60C40400000
(1779322084.801396) can0 18914010#0CD6100CD3040000
(1779322084.802390) can0 18904010#020D020D753001FA
(1779322084.803407) can0 18FA28F4#123EA12C10270000
(1779322084.804389) can0 18FB28F4#D60CD30C40400000
(1779322084.805422) can0 18FC28F4#383200000D020000
(1779322084.806389) can0 18F810F3#0D02E80332640100
(1779322084.807423) can0 18F815F3#0000000010030000
(1779322084.808313) can0 273#000000000D023200
(1779322084.809314) can0 1E1#020D271001FA01FA
(1779322084.810333) can0 1F5#0000000000000000
(1779322084.811429) can0 0800A6A9#0000000000000000
(1779322084.812390) can0 1000A6A9#0D028813324A4A4A
(1779322084.813409) can0 1C00A6A9#0000000000030000
(1779322084.814430) can0 02018100#1003020D00000000
(1779322084.815413) can0 02028100#0000003264000000
(1779322084.816403) can0 02038100#0CD601100CD30104
(1779322084.817416) can0 02048100#4A01014A01010000
(1779322084.818290) can0 1AD#8714000059321818
(1779322084.819290) can0 2AD#D60C800C87140016
(1779322084.820326) can0 3AD#0000000000008714
(1779322084.821313) can0 4AD#EB00000000000000
(1779322084.822331) can0 76A#7F00000000000000
(1779322084.884964) can0 0000E005#1702440003B60591
(1779322084.885508) can0 1806E5F4#13CC010003B6023A
(1779322084.886413) can0 0000E000#13CC13CC020D0000
(1779322084.887393) can0 0000E004#181803B603B601E1
(1779322084.888393) can0 0000E006#0CD50CD50CD50CD3
(1779322084.889395) can0 0000E007#0CD50CD30CD50CD5
(1779322084.890393) can0 0000E008#0CD50CD50CD50CD5
(1779322084.891393) can0 0000E009#0CD50CD50CD50CD6
(1779322084.892426) can0 0000E010#0000000000000000
(1779322084.893425) can0 0000E011#0000000000000000
(1779322084.894426) can0 0000E012#0CD4000200000000
(1779322084.895425) can0 0000F001#0000000000000000
(1779322084.896406) can0 18FF28F4#10320000020D0000
(1779322084.897394) can0 18FE28F4#0CD60CD340400000
(1779322084.898394) can0 18FD28F4#1702FA6F00000000
(1779322084.899311) can0 4D4#000032007D0D0203
(1779322084.900293) can0 4D5#D30CD60C40400000
(1779322084.901393) can0 18914010#0CD6100CD3040000
(1779322084.902423) can0 18904010#020D020D753001FA
(1779322084.903394) can0 18FA28F4#123EA12C10270000
(1779322084.904394) can0 18FB28F4#D60CD30C40400000
(1779322084.905419) can0 18FC28F4#383200000D020000
(1779322084.906393) can0 18F810F3#0D02E80332640100
(1779322084.907420) can0 18F815F3#0000000010030000
(1779322084.908311) can0 273#000000000D023200
(1779322084.909290) can0 1E1#020D271001FA01FA
(1779322084.910394) can0 1F5#0000000000000000
(1779322084.911407) can0 0800A6A9#0000000000000000
(1779322084.912394) can0 1000A6A9#0D028813324A4A4A
(1779322084.913394) can0 1C00A6A9#0000000000030000
(1779322084.914414) can0 02018100#1003020D00000000
(1779322084.915413) can0 02028100#0000003264000000
(1779322084.916394) can0 02038100#0CD601100CD30104
(1779322084.917394) can0 02048100#4A01014A01010000
(1779322084.918317) can0 1AD#8714000059321818
(1779322084.919283) can0 2AD#D60C800C87140016
(1779322084.920310) can0 3AD#0000000000008714
(1779322084.921304) can0 4AD#EB00000000000000
(1779322084.922317) can0 76A#7F00000000000000
(1779322085.001969) can0 0000E005#1702440003B60591
(1779322085.002514) can0 1806E5F4#13CC010003B6023A
(1779322085.003450) can0 0000E000#13CC13CC020D0000
(1779322085.004399) can0 0000E004#181803B603B601E1
(1779322085.005399) can0 0000E006#0CD50CD50CD50CD3
(1779322085.006399) can0 0000E007#0CD30CD50CD50CD3
(1779322085.007399) can0 0000E008#0CD50CD50CD50CD3
(1779322085.008399) can0 0000E009#0CD50CD50CD50CD6
(1779322085.009431) can0 0000E010#0000000000000000
(1779322085.010426) can0 0000E011#0000000000000000
(1779322085.011405) can0 0000E012#0CD4000200000000
(1779322085.012399) can0 0000E013#4542323630354C43
(1779322085.013400) can0 0000E014#3134323300000000
(1779322085.014415) can0 0000E015#0000000000000003
(1779322085.015418) can0 0000F000#0000000000000000
(1779322085.016418) can0 0000F001#0000000000000000
(1779322085.017412) can0 18FF28F4#10320000020D0000
(1779322085.018410) can0 18FE28F4#0CD60CD340400000
(1779322085.019400) can0 18FD28F4#1702FA6F00000000
(1779322085.020303) can0 4D4#000032007D0D0203
(1779322085.021288) can0 4D5#D30CD60C40400000
(1779322085.022400) can0 18914010#0CD6100CD3040000
(1779322085.023400) can0 18904010#020D020D753001FA
(1779322085.024412) can0 18924010#4001400100000000
(1779322085.025404) can0 18934010#000000570000BC19
(1779322085.026409) can0 18944010#1003000000000000
(1779322085.027426) can0 18954010#0000000000000000
(1779322085.028427) can0 18954010#0100000000000000
(1779322085.029425) can0 18954010#0200000000000000
(1779322085.030416) can0 18954010#0300000000000000
(1779322085.031419) can0 18954010#0400000000000000
(1779322085.032419) can0 18954010#0500000000000000
(1779322085.033413) can0 18964010#0040404000000000
(1779322085.034413) can0 18974010#0000000000000000
(1779322085.035406) can0 18984010#0000000000000000
(1779322085.036400) can0 18FA28F4#123EA12C10270000
(1779322085.037400) can0 18FB28F4#D60CD30C40400000
(1779322085.038415) can0 18FC28F4#383200000D020000
(1779322085.039401) can0 18F810F3#0D02E80332640100
(1779322085.040401) can0 18F811F3#D60C1001D30C0401
(1779322085.041400) can0 18F812F3#4001014001010000
(1779322085.042409) can0 18F813F3#0101000000000000
(1779322085.043400) can0 18F814F3#3200EA1AA9015F00
(1779322085.044407) can0 18F815F3#0000000010030000
(1779322085.045299) can0 273#000000000D023200
(1779322085.046297) can0 1E1#020D271001FA01FA
(1779322085.047311) can0 1F5#0000000000000000
(1779322085.048433) can0 0800A6A9#0000000000000000
(1779322085.049400) can0 1000A6A9#0D028813324A4A4A
(1779322085.050401) can0 1C00A6A9#0000000000030000
(1779322085.051401) can0 02018100#1003020D00000000
(1779322085.052401) can0 02028100#0000003264000000
(1779322085.053401) can0 02038100#0CD601100CD30104
(1779322085.054406) can0 02048100#4A01014A01010000
(1779322085.055279) can0 1AD#8714000059321818
(1779322085.056308) can0 2AD#D60C800C87140016
(1779322085.057305) can0 3AD#0000000000008714
(1779322085.058318) can0 4AD#EB00000000000000
(1779322085.059319) can0 76A#7F00000000000000
(1779322085.117947) can0 0000E005#1702440003B60591
(1779322085.118496) can0 1806E5F4#13CC010003B6023A
(1779322085.119405) can0 0000E000#13CC13CC020D0000
(1779322085.120405) can0 0000E004#181803B603B601E1
(1779322085.121404) can0 0000E006#0CD50CD50CD50CD3
(1779322085.122416) can0 0000E007#0CD30CD50CD50CD3
(1779322085.123405) can0 0000E008#0CD50CD50CD50CD3
(1779322085.124404) can0 0000E009#0CD50CD50CD50CD6
(1779322085.125438) can0 0000E010#0000000000000000
(1779322085.126418) can0 0000E011#0000000000000000
(1779322085.127405) can0 0000E012#0CD4000200000000
(1779322085.128417) can0 0000F001#0000000000000000
(1779322085.129405) can0 18FF28F4#10320000020D0000
(1779322085.130410) can0 18FE28F4#0CD60CD340400000
(1779322085.131405) can0 18FD28F4#1702FA6F00000000
(1779322085.132297) can0 4D4#000032007D0D0203
(1779322085.133315) can0 4D5#D30CD60C40400000
(1779322085.134405) can0 18914010#0CD6100CD3040000
(1779322085.135405) can0 18904010#020D020D753001FA
(1779322085.136406) can0 18FA28F4#123EA12C10270000
(1779322085.137405) can0 18FB28F4#D60CD30C40400000
(1779322085.138405) can0 18FC28F4#383200000D020000
(1779322085.139406) can0 18F810F3#0D02E80332640100
(1779322085.140412) can0 18F815F3#0000000010030000
(1779322085.141347) can0 273#000000000D023200
(1779322085.142294) can0 1E1#020D271001FA01FA
(1779322085.143318) can0 1F5#0000000000000000
(1779322085.144405) can0 0800A6A9#0000000000000000
(1779322085.145406) can0 1000A6A9#0D028813324A4A4A
(1779322085.146409) can0 1C00A6A9#0000000000030000
(1779322085.147412) can0 02018100#1003020D00000000
(1779322085.148415) can0 02028100#0000003264000000
(1779322085.149426) can0 02038100#0CD601100CD30104
(1779322085.150406) can0 02048100#4A01014A01010000
(1779322085.151293) can0 1AD#8714000059321818
(1779322085.152289) can0 2AD#D60C800C87140016
(1779322085.153295) can0 3AD#0000000000008714
(1779322085.154309) can0 4AD#EB00000000000000
(1779322085.155305) can0 76A#7F00000000000000
(1779322085.218004) can0 0000E005#1702440003B60591
(1779322085.218551) can0 1806E5F4#13CC010003B6023A
(1779322085.219410) can0 0000E000#13CC13CC020D0000
(1779322085.220410) can0 0000E004#181803B603B601E1
(1779322085.221410) can0 0000E006#0CD50CD50CD50CD3
(1779322085.222410) can0 0000E007#0CD30CD50CD50CD3
(1779322085.223409) can0 0000E008#0CD50CD50CD50CD3
(1779322085.224410) can0 0000E009#0CD50CD50CD50CD6
(1779322085.225422) can0 0000E010#0000000000000000
(1779322085.226456) can0 0000E011#0000000000000000
(1779322085.227410) can0 0000E012#0CD4000200000000
(1779322085.228410) can0 0000F001#0000000000000000
(1779322085.229410) can0 18FF28F4#10320000020D0000
(1779322085.230421) can0 18FE28F4#0CD60CD340400000
(1779322085.231411) can0 18FD28F4#1702FA6F00000000
(1779322085.232296) can0 4D4#000032007D0D0203
(1779322085.233286) can0 4D5#D30CD60C40400000
(1779322085.234429) can0 18914010#0CD6100CD3040000
(1779322085.235410) can0 18904010#020D020D753001FA
(1779322085.236410) can0 18FA28F4#123EA12C10270000
(1779322085.237411) can0 18FB28F4#D60CD30C40400000
(1779322085.238419) can0 18FC28F4#383200000D020000
(1779322085.239411) can0 18F810F3#0D02E80332640100
(1779322085.240415) can0 18F815F3#0000000010030000
(1779322085.241302) can0 273#000000000D023200
(1779322085.242287) can0 1E1#020D271001FA01FA
(1779322085.243314) can0 1F5#0000000000000000
(1779322085.244411) can0 0800A6A9#0000000000000000
(1779322085.245410) can0 1000A6A9#0D028813324A4A4A
(1779322085.246417) can0 1C00A6A9#0000000000030000
(1779322085.247411) can0 02018100#1003020D00000000
(1779322085.248412) can0 02028100#0000003264000000
(1779322085.249411) can0 02038100#0CD601100CD30104
(1779322085.250411) can0 02048100#4A01014A01010000
(1779322085.251275) can0 1AD#8714000059321818
(1779322085.252285) can0 2AD#D60C800C87140016
(1779322085.253299) can0 3AD#0000000000008714
(1779322085.254313) can0 4AD#EB00000000000000
(1779322085.255308) can0 76A#7F00000000000000
(1779322085.317936) can0 0000E005#1702440003B60591
(1779322085.318492) can0 1806E5F4#13CC010003B6023A
(1779322085.319415) can0 0000E000#13CC13CC020D0000
(1779322085.320415) can0 0000E004#181803B603B601E1
(1779322085.321416) can0 0000E006#0CD50CD50CD30CD5
(1779322085.322355) can0 0000E007#0CD30CD50CD50CD5
(1779322085.323355) can0 0000E008#0CD50CD50CD50CD3
(1779322085.324349) can0 0000E009#0CD50CD50CD50CD6
(1779322085.325415) can0 0000E010#0000000000000000
(1779322085.326423) can0 0000E011#0000000000000000
(1779322085.327422) can0 0000E012#0CD4000200000000
(1779322085.328417) can0 0000F001#0000000000000000
(1779322085.329415) can0 18FF28F4#10320000020D0000
(1779322085.330419) can0 18FE28F4#0CD60CD340400000
(1779322085.331420) can0 18FD28F4#1702FA6F00000000
(1779322085.332292) can0 4D4#000032007D0D0203
(1779322085.333272) can0 4D5#D30CD60C40400000
(1779322085.334443) can0 18914010#0CD6100CD3030000
(1779322085.335419) can0 18904010#020D020D753001FA
(1779322085.336418) can0 18FA28F4#123EA12C10270000
(1779322085.337418) can0 18FB28F4#D60CD30C40400000
(1779322085.338420) can0 18FC28F4#383200000D020000
(1779322085.339358) can0 18F810F3#0D02E80332640100
(1779322085.340415) can0 18F815F3#0000000010030000
(1779322085.341287) can0 273#000000000D023200
(1779322085.342292) can0 1E1#020D271001FA01FA
(1779322085.343305) can0 1F5#0000000000000000
(1779322085.344417) can0 0800A6A9#0000000000000000
(1779322085.345350) can0 1000A6A9#0D028813324A4A4A
(1779322085.346423) can0 1C00A6A9#0000000000030000
(1779322085.347416) can0 02018100#1003020D00000000
(1779322085.348416) can0 02028100#0000003264000000
(1779322085.349416) can0 02038100#0CD601100CD30103
(1779322085.350423) can0 02048100#4A01014A01010000
(1779322085.351274) can0 1AD#8714000059321818
(1779322085.352267) can0 2AD#D60C800C87140016
(1779322085.353304) can0 3AD#0000000000008714
(1779322085.354300) can0 4AD#EB00000000000000
(1779322085.355308) can0 76A#7F00000000000000
(1779322085.417943) can0 0000E005#1702440003B60591
(1779322085.418490) can0 1806E5F4#13CC010003B6023A
(1779322085.419424) can0 0000E000#13CC13CC020D0000
(1779322085.420420) can0 0000E004#181803B603B601E1
(1779322085.421354) can0 0000E006#0CD50CD50CD30CD5
(1779322085.422352) can0 0000E007#0CD30CD50CD50CD5
(1779322085.423354) can0 0000E008#0CD50CD50CD50CD3
(1779322085.424353) can0 0000E009#0CD50CD50CD50CD6
(1779322085.425420) can0 0000E010#0000000000000000
(1779322085.426422) can0 0000E011#0000000000000000
(1779322085.427421) can0 0000E012#0CD4000200000000
(1779322085.428420) can0 0000F001#0000000000000000
(1779322085.429420) can0 18FF28F4#10320000020D0000
(1779322085.430420) can0 18FE28F4#0CD60CD340400000
(1779322085.431420) can0 18FD28F4#1702FA6F00000000
(1779322085.432284) can0 4D4#000032007D0D0203
(1779322085.433295) can0 4D5#D30CD60C40400000
(1779322085.434432) can0 18914010#0CD6100CD3030000
(1779322085.435421) can0 18904010#020D020D753001FA
(1779322085.436420) can0 18FA28F4#123EA12C10270000
(1779322085.437421) can0 18FB28F4#D60CD30C40400000
(1779322085.438421) can0 18FC28F4#383200000D020000
(1779322085.439426) can0 18F810F3#0D02E80332640100
(1779322085.440421) can0 18F815F3#0000000010030000
(1779322085.441319) can0 273#000000000D023200
(1779322085.442277) can0 1E1#020D271001FA01FA
(1779322085.443308) can0 1F5#0000000000000000
(1779322085.444424) can0 0800A6A9#0000000000000000
(1779322085.445351) can0 1000A6A9#0D028813324A4A4A
(1779322085.446430) can0 1C00A6A9#0000000000030000
(1779322085.447427) can0 02018100#1003020D00000000
(1779322085.448423) can0 02028100#0000003264000000
(1779322085.449423) can0 02038100#0CD601100CD30103
(1779322085.450422) can0 02048100#4A01014A01010000
(1779322085.451272) can0 1AD#8714000059321818
(1779322085.452280) can0 2AD#D60C800C87140016
(1779322085.453304) can0 3AD#0000000000008714
(1779322085.454301) can0 4AD#EB00000000000000
(1779322085.455298) can0 76A#7F00000000000000
(1779322085.534950) can0 0000E005#1702440003B60591
(1779322085.535490) can0 1806E5F4#13CC010003B6023A
(1779322085.536432) can0 0000E000#13CC13CC020D0000
(1779322085.537431) can0 0000E004#181803B603B601E1
(1779322085.538371) can0 0000E006#0CD50CD30CD50CD5
(1779322085.539366) can0 0000E007#0CD50CD50CD50CD5
(1779322085.540364) can0 0000E008#0CD50CD50CD30CD3
(1779322085.541355) can0 0000E009#0CD50CD30CD50CD6
(1779322085.542430) can0 0000E010#0000000000000000
(1779322085.543426) can0 0000E011#0000000000000000
(1779322085.544425) can0 0000E012#0CD4000200000000
(1779322085.545352) can0 0000E013#4542323630354C43
(1779322085.546439) can0 0000E014#3134323300000000
(1779322085.547427) can0 0000E015#0000000000000003
(1779322085.548427) can0 0000F000#0000000000000000
(1779322085.549427) can0 0000F001#0000000000000000
(1779322085.550431) can0 18FF28F4#10320000020D0000
(1779322085.551364) can0 18FE28F4#0CD60CD340400000
(1779322085.552440) can0 18FD28F4#1702FA6F00000000
(1779322085.553320) can0 4D4#000032007D0D0203
(1779322085.554276) can0 4D5#D30CD60C40400000
(1779322085.555372) can0 18914010#0CD6100CD3020000
(1779322085.556370) can0 18904010#020D020D753001FA
(1779322085.557428) can0 18924010#4001400100000000
(1779322085.558427) can0 18934010#000000580000BC19
(1779322085.559427) can0 18944010#1003000000000000
(1779322085.560428) can0 18954010#0000000000000000
(1779322085.561429) can0 18954010#0100000000000000
(1779322085.562445) can0 18954010#0200000000000000
(1779322085.563442) can0 18954010#0300000000000000
(1779322085.564430) can0 18954010#0400000000000000
(1779322085.565432) can0 18954010#0500000000000000
(1779322085.566429) can0 18964010#0040404000000000
(1779322085.567427) can0 18974010#0000000000000000
(1779322085.568428) can0 18984010#0000000000000000
(1779322085.569371) can0 18FA28F4#123EA12C10270000
(1779322085.570371) can0 18FB28F4#D60CD30C40400000
(1779322085.571429) can0 18FC28F4#383200000D020000
(1779322085.572351) can0 18F810F3#0D02E80332640100
(1779322085.573429) can0 18F811F3#D60C1001D30C0201
(1779322085.574442) can0 18F812F3#4001014001010000
(1779322085.575436) can0 18F813F3#0101000000000000
(1779322085.576370) can0 18F814F3#3200EA1AA9015F00
(1779322085.577431) can0 18F815F3#0000000010030000
(1779322085.578295) can0 273#000000000D023200
(1779322085.579294) can0 1E1#020D271001FA01FA
(1779322085.580308) can0 1F5#0000000000000000
(1779322085.581430) can0 0800A6A9#0000000000000000
(1779322085.582342) can0 1000A6A9#0D028813324A4A4A
(1779322085.583431) can0 1C00A6A9#0000000000030000
(1779322085.584432) can0 02018100#1003020D00000000
(1779322085.585432) can0 02028100#0000003264000000
(1779322085.586438) can0 02038100#0CD601100CD30102
(1779322085.587433) can0 02048100#4A01014A01010000
(1779322085.588270) can0 1AD#8714000059321818
(1779322085.589272) can0 2AD#D60C800C87140016
(1779322085.590303) can0 3AD#0000000000008714
(1779322085.591298) can0 4AD#EB00000000000000
(1779322085.592295) can0 76A#7F00000000000000
(1779322085.650980) can0 0000E005#1702440003B60591
(1779322085.651539) can0 1806E5F4#13CC010003B6023A
(1779322085.652458) can0 0000E000#13CC13CC020D0000
(1779322085.653379) can0 0000E004#181803B603B601E1
(1779322085.654350) can0 0000E006#0CD50CD30CD50CD5
(1779322085.655347) can0 0000E007#0CD50CD50CD50CD5
(1779322085.656366) can0 0000E008#0CD50CD50CD30CD3
(1779322085.657347) can0 0000E009#0CD50CD30CD50CD6
(1779322085.658438) can0 0000E010#0000000000000000
(1779322085.659437) can0 0000E011#0000000000000000
(1779322085.660437) can0 0000E012#0CD4000200000000
(1779322085.661435) can0 0000F001#0000000000000000
(1779322085.662435) can0 18FF28F4#10320000020D0000
(1779322085.663372) can0 18FE28F4#0CD60CD340400000
(1779322085.664436) can0 18FD28F4#1702FA6F00000000
(1779322085.665299) can0 4D4#000032007D0D0203
(1779322085.666279) can0 4D5#D30CD60C40400000
(1779322085.667353) can0 18914010#0CD6100CD3020000
(1779322085.668368) can0 18904010#020D020D753001FA
(1779322085.669378) can0 18FA28F4#123EA12C10270000
(1779322085.670364) can0 18FB28F4#D60CD30C40400000
(1779322085.671437) can0 18FC28F4#383200000D020000
(1779322085.672444) can0 18F810F3#0D02E80332640100
(1779322085.673439) can0 18F815F3#0000000010030000
(1779322085.674289) can0 273#000000000D023200
(1779322085.675290) can0 1E1#020D271001FA01FA
(1779322085.676308) can0 1F5#0000000000000000
(1779322085.677457) can0 0800A6A9#0000000000000000
(1779322085.678349) can0 1000A6A9#0D028813324A4A4A
(1779322085.679441) can0 1C00A6A9#0000000000030000
(1779322085.680438) can0 02018100#1003020D00000000
(1779322085.681439) can0 02028100#0000003264000000
(1779322085.682377) can0 02038100#0CD601100CD30102
(1779322085.683381) can0 02048100#4A01014A01010000
(1779322085.684274) can0 1AD#8714000059321818
(1779322085.685268) can0 2AD#D60C800C87140016
(1779322085.686291) can0 3AD#0000000000008714
(1779322085.687318) can0 4AD#EB00000000000000
(1779322085.688332) can0 76A#7F00000000000000
(1779322085.750945) can0 0000E005#1702440003B60591
(1779322085.751476) can0 1806E5F4#13CC010003B6023A
(1779322085.752371) can0 0000E000#13CC13CC020D0000
(1779322085.753355) can0 0000E004#181803B603B601E1
(1779322085.754347) can0 0000E006#0CD50CD30CD50CD5
(1779322085.755346) can0 0000E007#0CD50CD50CD50CD5
(1779322085.756326) can0 0000E008#0CD50CD50CD30CD3
(1779322085.757437) can0 0000E009#0CD50CD30CD50CD6
(1779322085.758437) can0 0000E010#0000000000000000
(1779322085.759437) can0 0000E011#0000000000000000
(1779322085.760378) can0 0000E012#0CD4000200000000
(1779322085.761437) can0 0000F001#0000000000000000
(1779322085.762371) can0 18FF28F4#10320000020D0000
(1779322085.763347) can0 18FE28F4#0CD60CD340400000
(1779322085.764370) can0 18FD28F4#1702FA6F00000000
(1779322085.765330) can0 4D4#000032007D0D0203
(1779322085.766268) can0 4D5#D30CD60C40400000
(1779322085.767360) can0 18914010#0CD6100CD3020000
(1779322085.768359) can0 18904010#020D020D753001FA
(1779322085.769353) can0 18FA28F4#123EA12C10270000
(1779322085.770358) can0 18FB28F4#D60CD30C40400000
(1779322085.771372) can0 18FC28F4#383200000D020000
(1779322085.772353) can0 18F810F3#0D02E80332640100
(1779322085.773437) can0 18F815F3#0000000010030000
(1779322085.774269) can0 273#000000000D023200
(1779322085.775269) can0 1E1#020D271001FA01FA
(1779322085.776301) can0 1F5#0000000000000000
(1779322085.777372) can0 0800A6A9#0000000000000000
(1779322085.778340) can0 1000A6A9#0D028813324A4A4A
(1779322085.779376) can0 1C00A6A9#0000000000030000
(1779322085.780377) can0 02018100#1003020D00000000
(1779322085.781370) can0 02028100#0000003264000000
(1779322085.782371) can0 02038100#0CD601100CD30102
(1779322085.783372) can0 02048100#4A01014A01010000
(1779322085.784250) can0 1AD#8714000059321818
(1779322085.785259) can0 2AD#D60C800C87140016
(1779322085.786281) can0 3AD#0000000000008714
(1779322085.787295) can0 4AD#EB00000000000000
(1779322085.788288) can0 76A#7F00000000000000
(1779322085.850915) can0 0000E005#1702440003B60591
(1779322085.851473) can0 1806E5F4#13CC010003B6023A
(1779322085.852365) can0 0000E000#13CC13CC020D0000
(1779322085.853344) can0 0000E004#181803B603B601E1
(1779322085.854330) can0 0000E006#0CD50CD50CD50CD5
(1779322085.855344) can0 0000E007#0CD50CD50CD50CD5
(1779322085.856338) can0 0000E008#0CD50CD50CD50CD3
(1779322085.857337) can0 0000E009#0CD50CD50CD50CD6
(1779322085.858441) can0 0000E010#0000000000000000
(1779322085.859441) can0 0000E011#0000000000000000
(1779322085.860361) can0 0000E012#0CD5000200000000
(1779322085.861443) can0 0000F001#0000000000000000
(1779322085.862365) can0 18FF28F4#10320000020D0000
(1779322085.863351) can0 18FE28F4#0CD60CD340400000
(1779322085.864364) can0 18FD28F4#1702FA6F00000000
(1779322085.865285) can0 4D4#000032007D0D0203
(1779322085.866266) can0 4D5#D30CD60C40400000
(1779322085.867345) can0 18914010#0CD6100CD30C0000
(1779322085.868357) can0 18904010#020D020D753001FA
(1779322085.869357) can0 18FA28F4#123EA12C10270000
(1779322085.870340) can0 18FB28F4#D60CD30C40400000
(1779322085.871376) can0 18FC28F4#383200000D020000
(1779322085.872332) can0 18F810F3#0D02E80332640100
(1779322085.873442) can0 18F815F3#0000000010030000
(1779322085.874280) can0 273#000000000D023200
(1779322085.875268) can0 1E1#020D271001FA01FA
(1779322085.876292) can0 1F5#0000000000000000
(1779322085.877375) can0 0800A6A9#0000000000000000
(1779322085.878332) can0 1000A6A9#0D028813324A4A4A
(1779322085.879365) can0 1C00A6A9#0000000000030000
(1779322085.880442) can0 02018100#1003020D00000000
(1779322085.881377) can0 02028100#0000003264000000
(1779322085.882358) can0 02038100#0CD601100CD3010C
(1779322085.883352) can0 02048100#4A01014A01010000
(1779322085.884254) can0 1AD#8814000059321818
(1779322085.885266) can0 2AD#D60C800C88140016
(1779322085.886280) can0 3AD#0000000000008814
(1779322085.887313) can0 4AD#EB00000000000000
(1779322085.888282) can0 76A#7F00000000000000
(1779322085.950973) can0 0000E005#1702440003B60591
(1779322085.951523) can0 1806E5F4#13CC010003B6023A
(1779322085.952363) can0 0000E000#13CC13CC020D0000
(1779322085.953349) can0 0000E004#181803B603B601E1
(1779322085.954338) can0 0000E006#0CD50CD50CD50CD5
(1779322085.955333) can0 0000E007#0CD50CD50CD50CD5
(1779322085.956345) can0 0000E008#0CD50CD50CD50CD3
(1779322085.957331) can0 0000E009#0CD50CD50CD50CD6
(1779322085.958448) can0 0000E010#0000000000000000
(1779322085.959446) can0 0000E011#0000000000000000
(1779322085.960364) can0 0000E012#0CD5000200000000
(1779322085.961447) can0 0000F001#0000000000000000
(1779322085.962370) can0 18FF28F4#10320000020D0000
(1779322085.963350) can0 18FE28F4#0CD60CD340400000
(1779322085.964386) can0 18FD28F4#1702FA6F00000000
(1779322085.965271) can0 4D4#000032007D0D0203
(1779322085.966252) can0 4D5#D30CD60C40400000
(1779322085.967352) can0 18914010#0CD6100CD30C0000
(1779322085.968352) can0 18904010#020D020D753001FA
(1779322085.969358) can0 18FA28F4#123EA12C10270000
(1779322085.970337) can0 18FB28F4#D60CD30C40400000
(1779322085.971370) can0 18FC28F4#383200000D020000
(1779322085.972369) can0 18F810F3#0D02E80332640100
(1779322085.973370) can0 18F815F3#0000000010030000
(1779322085.974272) can0 273#000000000D023200
(1779322085.975254) can0 1E1#020D271001FA01FA
(1779322085.976290) can0 1F5#0000000000000000
(1779322085.977385) can0 0800A6A9#0000000000000000
(1779322085.978337) can0 1000A6A9#0D028813324A4A4A
(1779322085.979364) can0 1C00A6A9#0000000000030000
(1779322085.980449) can0 02018100#1003020D00000000
(1779322085.981364) can0 02028100#0000003264000000
(1779322085.982351) can0 02038100#0CD601100CD3010C
(1779322085.983361) can0 02048100#4A01014A01010000
(1779322085.984253) can0 1AD#8814000059321818
(1779322085.985265) can0 2AD#D60C800C88140016
(1779322085.986278) can0 3AD#0000000000008814
(1779322085.987292) can0 4AD#EB00000000000000
(1779322085.988317) can0 76A#7F00000000000000
(1779322086.067977) can0 0000E005#1702440003B60591
(1779322086.068529) can0 1806E5F4#13CC010003B6023A
(1779322086.069356) can0 0000E000#13CC13CC020D0000
(1779322086.070349) can0 0000E004#181803B603B601E1
(1779322086.071341) can0 0000E006#0CD50CD50CD30CD5
(1779322086.072335) can0 0000E007#0CD50CD50CD50CD5
(1779322086.073387) can0 0000E008#0CD50CD50CD50CD3
(1779322086.074334) can0 0000E009#0CD50CD50CD50CD6
(1779322086.075375) can0 0000E010#0000000000000000
(1779322086.076378) can0 0000E011#0000000000000000
(1779322086.077355) can0 0000E012#0CD4000200000000
(1779322086.078329) can0 0000E013#4542323630354C43
(1779322086.079359) can0 0000E014#3134323300000000
(1779322086.080373) can0 0000E015#0000000000000003
(1779322086.081387) can0 0000F000#0000000000000000
(1779322086.082387) can0 0000F001#0000000000000000
(1779322086.083362) can0 18FF28F4#10320000020D0000
(1779322086.084348) can0 18FE28F4#0CD60CD340400000
(1779322086.085362) can0 18FD28F4#1702FA6F00000000
(1779322086.086265) can0 4D4#000032007D0D0203
(1779322086.087253) can0 4D5#D30CD60C40400000
(1779322086.088343) can0 18914010#0CD6100CD3030000
(1779322086.089340) can0 18904010#020D020D753001FA
(1779322086.090368) can0 18924010#4001400100000000
(1779322086.091350) can0 18934010#000000590000BC19
(1779322086.092366) can0 18944010#1003000000000000
(1779322086.093386) can0 18954010#0000000000000000
(1779322086.094385) can0 18954010#0100000000000000
(1779322086.095387) can0 18954010#0200000000000000
(1779322086.096376) can0 18954010#0300000000000000
(1779322086.097375) can0 18954010#0400000000000000
(1779322086.098375) can0 18954010#0500000000000000
(1779322086.099358) can0 18964010#0040404000000000
(1779322086.100369) can0 18974010#0000000000000000
(1779322086.101369) can0 18984010#0000000000000000
(1779322086.102350) can0 18FA28F4#123EA12C10270000
(1779322086.103344) can0 18FB28F4#D60CD30C40400000
(1779322086.104374) can0 18FC28F4#383200000D020000
(1779322086.105342) can0 18F810F3#0D02E80332640100
(1779322086.106343) can0 18F811F3#D60C1001D30C0301
(1779322086.107354) can0 18F812F3#4001014001010000
(1779322086.108385) can0 18F813F3#0101000000000000
(1779322086.109357) can0 18F814F3#3200EA1AA9015F00
(1779322086.110389) can0 18F815F3#0000000010030000
(1779322086.111284) can0 273#000000000D023200
(1779322086.112268) can0 1E1#020D271001FA01FA
(1779322086.113298) can0 1F5#0000000000000000
(1779322086.114372) can0 0800A6A9#0000000000000000
(1779322086.115339) can0 1000A6A9#0D028813324A4A4A
(1779322086.116364) can0 1C00A6A9#0000000000030000
(1779322086.117377) can0 02018100#1003020D00000000
(1779322086.118395) can0 02028100#0000003264000000
(1779322086.119351) can0 02038100#0CD601100CD30103
(1779322086.120354) can0 02048100#4A01014A01010000
(1779322086.121240) can0 1AD#8714000059321818
(1779322086.122260) can0 2AD#D60C800C87140016
(1779322086.123273) can0 3AD#0000000000008714
(1779322086.124302) can0 4AD#EB00000000000000
(1779322086.125291) can0 76A#7F00000000000000
(1779322086.183914) can0 0000E005#1702440003B60591
(1779322086.184477) can0 1806E5F4#13CC010003B6023A
(1779322086.185349) can0 0000E000#13CC13CC020D0000
(1779322086.186339) can0 0000E004#181803B603B601E1
(1779322086.187333) can0 0000E006#0CD50CD50CD30CD5
(1779322086.188333) can0 0000E007#0CD50CD50CD50CD5
(1779322086.189332) can0 0000E008#0CD50CD50CD50CD3
(1779322086.190333) can0 0000E009#0CD50CD50CD50CD6
(1779322086.191373) can0 0000E010#0000000000000000
(1779322086.192373) can0 0000E011#0000000000000000
(1779322086.193354) can0 0000E012#0CD4000200000000
(1779322086.194367) can0 0000F001#0000000000000000
(1779322086.195391) can0 18FF28F4#10320000020D0000
(1779322086.196340) can0 18FE28F4#0CD60CD340400000
(1779322086.197349) can0 18FD28F4#1702FA6F00000000
(1779322086.198270) can0 4D4#000032007D0D0203
(1779322086.199253) can0 4D5#D30CD60C40400000
(1779322086.200347) can0 18914010#0CD6100CD3030000
(1779322086.201341) can0 18904010#020D020D753001FA
(1779322086.202347) can0 18FA28F4#123EA12C10270000
(1779322086.203355) can0 18FB28F4#D60CD30C40400000
(1779322086.204367) can0 18FC28F4#383200000D020000
(1779322086.205340) can0 18F810F3#0D02E80332640100
(1779322086.206367) can0 18F815F3#0000000010030000
(1779322086.207270) can0 273#000000000D023200
(1779322086.208251) can0 1E1#020D271001FA01FA
(1779322086.209281) can0 1F5#0000000000000000
(1779322086.210355) can0 0800A6A9#0000000000000000
(1779322086.211356) can0 1000A6A9#0D028813324A4A4A
(1779322086.212355) can0 1C00A6A9#0000000000030000
(1779322086.213355) can0 02018100#1003020D00000000
(1779322086.214368) can0 02028100#0000003264000000
(1779322086.215334) can0 02038100#0CD601100CD30103
(1779322086.216347) can0 02048100#4A01014A01010000
(1779322086.217232) can0 1AD#8714000059321818
(1779322086.218245) can0 2AD#D60C800C87140016
(1779322086.219309) can0 3AD#0000000000008714
(1779322086.220271) can0 4AD#EB00000000000000
(1779322086.221269) can0 76A#7F00000000000000
(1779322086.283905) can0 0000E005#1702440003B60591
(1779322086.284462) can0 1806E5F4#13CC010003B6023A
(1779322086.285345) can0 0000E000#13CC13CC020D0000
(1779322086.286339) can0 0000E004#181803B603B601E1
(1779322086.287326) can0 0000E006#0CD50CD50CD30CD5
(1779322086.288352) can0 0000E007#0CD50CD50CD50CD5
(1779322086.289319) can0 0000E008#0CD50CD50CD50CD3
(1779322086.290319) can0 0000E009#0CD50CD50CD50CD6
(1779322086.291378) can0 0000E010#0000000000000000
(1779322086.292359) can0 0000E011#0000000000000000
(1779322086.293344) can0 0000E012#0CD4000200000000
(1779322086.294375) can0 0000F001#0000000000000000
(1779322086.295353) can0 18FF28F4#10320000020D0000
(1779322086.296385) can0 18FE28F4#0CD60CD340400000
(1779322086.297355) can0 18FD28F4#1702FA6F00000000
(1779322086.298253) can0 4D4#000032007D0D0203
(1779322086.299237) can0 4D5#D30CD60C40400000
(1779322086.300332) can0 18914010#0CD6100CD3030000
(1779322086.301332) can0 18904010#020D020D753001FA
(1779322086.302344) can0 18FA28F4#123EA12C10270000
(1779322086.303336) can0 18FB28F4#D60CD30C40400000
(1779322086.304464) can0 18FC28F4#383200000D020000
(1779322086.305321) can0 18F810F3#0D02E80332640100
(1779322086.306368) can0 18F815F3#0000000010030000
(1779322086.307256) can0 273#000000000D023200
(1779322086.308256) can0 1E1#020D271001FA01FA
(1779322086.309281) can0 1F5#0000000000000000
(1779322086.310360) can0 0800A6A9#0000000000000000
(1779322086.311327) can0 1000A6A9#0D028813324A4A4A
(1779322086.312353) can0 1C00A6A9#0000000000030000
(1779322086.313354) can0 02018100#1003020D00000000
(1779322086.314354) can0 02028100#0000003264000000
(1779322086.315339) can0 02038100#0CD601100CD30103
(1779322086.316352) can0 02048100#4A01014A01010000
(1779322086.317237) can0 1AD#8714000059321818
(1779322086.318240) can0 2AD#D60C800C87140016
(1779322086.319262) can0 3AD#0000000000008714
(1779322086.320275) can0 4AD#EB00000000000000
(1779322086.321269) can0 76A#7F00000000000000
(1779322086.383937) can0 0000E005#1702440003B60591
(1779322086.384499) can0 1806E5F4#13CC010003B6023A
(1779322086.385351) can0 0000E000#13CC13CC020D0000
(1779322086.386349) can0 0000E004#181803B603B601E1
(1779322086.387313) can0 0000E006#0CD30CD50CD50CD5
(1779322086.388331) can0 0000E007#0CD30CD30CD50CD5
(1779322086.389324) can0 0000E008#0CD50CD50CD30CD3
(1779322086.390311) can0 0000E009#0CD30CD50CD50CD6
(1779322086.391365) can0 0000E010#0000000000000000
(1779322086.392363) can0 0000E011#0000000000000000
(1779322086.393354) can0 0000E012#0CD4000200000000
(1779322086.394364) can0 0000F001#0000000000000000
(1779322086.395349) can0 18FF28F4#10320000020D0000
(1779322086.396330) can0 18FE28F4#0CD60CD340400000
(1779322086.397349) can0 18FD28F4#1702FA6F00000000
(1779322086.398267) can0 4D4#000032007D0D0203
(1779322086.399248) can0 4D5#D30CD60C40400000
(1779322086.400324) can0 18914010#0CD6100CD3010000
(1779322086.401337) can0 18904010#020D020D753001FA
(1779322086.402338) can0 18FA28F4#123EA12C10270000
(1779322086.403336) can0 18FB28F4#D60CD30C40400000
(1779322086.404350) can0 18FC28F4#383200000D020000
(1779322086.405331) can0 18F810F3#0D02E80332640100
(1779322086.406358) can0 18F815F3#0000000010030000
(1779322086.407264) can0 273#000000000D023200
(1779322086.408248) can0 1E1#020D271001FA01FA
(1779322086.409280) can0 1F5#0000000000000000
(1779322086.410356) can0 0800A6A9#0000000000000000
(1779322086.411325) can0 1000A6A9#0D028813324A4A4A
(1779322086.412357) can0 1C00A6A9#0000000000030000
(1779322086.413351) can0 02018100#1003020D00000000
(1779322086.414350) can0 02028100#0000003264000000
(1779322086.415329) can0 02038100#0CD601100CD30101
(1779322086.416344) can0 02048100#4A01014A01010000
(1779322086.417229) can0 1AD#8714000059321818
(1779322086.418242) can0 2AD#D60C800C87140016
(1779322086.419253) can0 3AD#0000000000008714
(1779322086.420269) can0 4AD#EB00000000000000
(1779322086.421268) can0 76A#7F00000000000000
(1779322086.477215) can0 00000E00#00354C4331343233
(1779322086.484947) can0 0000E005#1702440003B60591
(1779322086.485504) can0 1806E5F4#13CC010003B6023A
(1779322086.486355) can0 0000E000#13CC13CC020D0000
(1779322086.487335) can0 0000E004#181803B603B601E1
(1779322086.488316) can0 0000E006#0CD30CD50CD50CD5
(1779322086.489316) can0 0000E007#0CD30CD30CD50CD5
(1779322086.490316) can0 0000E008#0CD50CD50CD30CD3
(1779322086.491316) can0 0000E009#0CD30CD50CD50CD6
(1779322086.492368) can0 0000E010#0000000000000000
(1779322086.493361) can0 0000E011#0000000000000000
(1779322086.494354) can0 0000E012#0CD4000200000000
(1779322086.495382) can0 0000F001#0000000000000000
(1779322086.496354) can0 18FF28F4#10320000020D0000
(1779322086.497335) can0 18FE28F4#0CD60CD340400000
(1779322086.498348) can0 18FD28F4#1702FA6F00000000
(1779322086.499253) can0 4D4#000032007D0D0203
(1779322086.500227) can0 4D5#D30CD60C40400000
(1779322086.501329) can0 18914010#0CD6100CD3010000
(1779322086.502331) can0 18904010#020D020D753001FA
(1779322086.503355) can0 18FA28F4#123EA12C10270000
(1779322086.504319) can0 18FB28F4#D60CD30C40400000
(1779322086.505355) can0 18FC28F4#383200000D020000
(1779322086.506323) can0 18F810F3#0D02E80332640100
(1779322086.507363) can0 18F815F3#0000000010030000
(1779322086.508253) can0 273#000000000D023200
(1779322086.509247) can0 1E1#020D271001FA01FA
(1779322086.510278) can0 1F5#0000000000000000
(1779322086.511382) can0 0800A6A9#0000000000000000
(1779322086.512317) can0 1000A6A9#0D028813324A4A4A
(1779322086.513349) can0 1C00A6A9#0000000000030000
(1779322086.514361) can0 02018100#1003020D00000000
(1779322086.515362) can0 02028100#0000003264000000
(1779322086.516338) can0 02038100#0CD601100CD30101
(1779322086.517337) can0 02048100#4A01014A01010000
(1779322086.518241) can0 1AD#8714000059321818
(1779322086.519266) can0 2AD#D60C800C87140016
(1779322086.520247) can0 3AD#0000000000008714
(1779322086.521260) can0 4AD#EB00000000000000
(1779322086.522260) can0 76A#7F00000000000000
(1779322086.600935) can0 0000E005#1702440003B60591
(1779322086.601486) can0 1806E5F4#13CC010003B6023A
(1779322086.602344) can0 0000E000#13CC13CC020D0000
(1779322086.603341) can0 0000E004#181803B603B601E1
(1779322086.604354) can0 0000E006#0CD50CD30CD30CD3
(1779322086.605315) can0 0000E007#0CD30CD50CD50CD3
(1779322086.606321) can0 0000E008#0CD50CD50CD30CD5
(1779322086.607316) can0 0000E009#0CD50CD50CD50CD6
(1779322086.608367) can0 0000E010#0000000000000000
(1779322086.609360) can0 0000E011#0000000000000000
(1779322086.610347) can0 0000E012#0CD4000200000000
(1779322086.611309) can0 0000E013#4542323630354C43
(1779322086.612341) can0 0000E014#3134323300000000
(1779322086.613354) can0 0000E015#0000000000000003
(1779322086.614368) can0 0000F000#0000000000000000
(1779322086.615354) can0 0000F001#0000000000000000
(1779322086.616354) can0 18FF28F4#10320000020D0000
(1779322086.617330) can0 18FE28F4#0CD60CD340400000
(1779322086.618336) can0 18FD28F4#1702FA6F00000000
(1779322086.619253) can0 4D4#000032007D0D0203
(1779322086.620233) can0 4D5#D30CD60C40400000
(1779322086.621328) can0 18914010#0CD6100CD3020000
(1779322086.622329) can0 18904010#020D020D753001FA
(1779322086.623342) can0 18924010#4001400100000000
(1779322086.624342) can0 18934010#0000005A0000BC19
(1779322086.625331) can0 18944010#1003000000000000
(1779322086.626367) can0 18954010#0000000000000000
(1779322086.627368) can0 18954010#0100000000000000
(1779322086.628367) can0 18954010#0200000000000000
(1779322086.629360) can0 18954010#0300000000000000
(1779322086.630362) can0 18954010#0400000000000000
(1779322086.631343) can0 18954010#0500000000000000
(1779322086.632342) can0 18964010#0040404000000000
(1779322086.633355) can0 18974010#0000000000000000
(1779322086.634355) can0 18984010#0000000000000000
(1779322086.635318) can0 18FA28F4#123EA12C10270000
(1779322086.636317) can0 18FB28F4#D60CD30C40400000
(1779322086.637340) can0 18FC28F4#383200000D020000
(1779322086.638310) can0 18F810F3#0D02E80332640100
(1779322086.639324) can0 18F811F3#D60C1001D30C0201
(1779322086.640341) can0 18F812F3#4001014001010000
(1779322086.641369) can0 18F813F3#0101000000000000
(1779322086.642330) can0 18F814F3#3200EA1AA9015F00
(1779322086.643356) can0 18F815F3#0000000010030000
(1779322086.644260) can0 273#000000000D023200
(1779322086.645240) can0 1E1#020D271001FA01FA
(1779322086.646267) can0 1F5#0000000000000000
(1779322086.647344) can0 0800A6A9#0000000000000000
(1779322086.648310) can0 1000A6A9#0D028813324A4A4A
(1779322086.649365) can0 1C00A6A9#0000000000030000
(1779322086.650345) can0 02018100#1003020D00000000
(1779322086.651357) can0 02028100#0000003264000000
(1779322086.652333) can0 02038100#0CD601100CD30102
(1779322086.653337) can0 02048100#4A01014A01010000
(1779322086.654222) can0 1AD#8714000059321818
(1779322086.655235) can0 2AD#D60C800C87140016
(1779322086.656254) can0 3AD#0000000000008714
(1779322086.657279) can0 4AD#EB00000000000000
(1779322086.658261) can0 76A#7F00000000000000
(1779322086.716883) can0 0000E005#1702440003B60591
(1779322086.717484) can0 1806E5F4#13CC010003B6023A
(1779322086.718347) can0 0000E000#13CC13CC020D0000
(1779322086.719334) can0 0000E004#181803B603B601E1
(1779322086.720315) can0 0000E006#0CD50CD30CD30CD3
(1779322086.721311) can0 0000E007#0CD30CD50CD50CD3
(1779322086.722308) can0 0000E008#0CD50CD50CD30CD5
(1779322086.723309) can0 0000E009#0CD50CD50CD50CD6
(1779322086.724353) can0 0000E010#0000000000000000
(1779322086.725353) can0 0000E011#0000000000000000
(1779322086.726353) can0 0000E012#0CD4000200000000
(1779322086.727353) can0 0000F001#0000000000000000
(1779322086.728347) can0 18FF28F4#10320000020D0000
(1779322086.729313) can0 18FE28F4#0CD60CD340400000
(1779322086.730328) can0 18FD28F4#1702FA6F00000000
(1779322086.731245) can0 4D4#000032007D0D0203
(1779322086.732232) can0 4D5#D30CD60C40400000
(1779322086.733323) can0 18914010#0CD6100CD3020000
(1779322086.734340) can0 18904010#020D020D753001FA
(1779322086.735334) can0 18FA28F4#123EA12C10270000
(1779322086.736322) can0 18FB28F4#D60CD30C40400000
(1779322086.737354) can0 18FC28F4#383200000D020000
(1779322086.738315) can0 18F810F3#0D02E80332640100
(1779322086.739348) can0 18F815F3#0000000010030000
(1779322086.740245) can0 273#000000000D023200
(1779322086.741223) can0 1E1#020D271001FA01FA
(1779322086.742290) can0 1F5#0000000000000000
(1779322086.743342) can0 0800A6A9#0000000000000000
(1779322086.744312) can0 1000A6A9#0D028813324A4A4A
(1779322086.745335) can0 1C00A6A9#0000000000030000
(1779322086.746354) can0 02018100#1003020D00000000
(1779322086.747349) can0 02028100#0000003264000000
(1779322086.748329) can0 02038100#0CD601100CD30102
(1779322086.749329) can0 02048100#4A01014A01010000
(1779322086.750258) can0 1AD#8714000059321818
(1779322086.751227) can0 2AD#D60C800C87140016
(1779322086.752252) can0 3AD#0000000000008714
(1779322086.753246) can0 4AD#EB00000000000000
(1779322086.754246) can0 76A#7F00000000000000
(1779322086.816933) can0 0000E005#1702440003B60591
(1779322086.817489) can0 1806E5F4#13CC010003B6023A
(1779322086.818338) can0 0000E000#13CC13CC020D0000
(1779322086.819358) can0 0000E004#181803B603B601E1
(1779322086.820307) can0 0000E006#0CD50CD30CD30CD3
(1779322086.821300) can0 0000E007#0CD30CD50CD50CD3
(1779322086.822300) can0 0000E008#0CD50CD50CD30CD5
(1779322086.823301) can0 0000E009#0CD50CD50CD50CD6
(1779322086.824364) can0 0000E010#0000000000000000
(1779322086.825345) can0 0000E011#0000000000000000
(1779322086.826341) can0 0000E012#0CD4000200000000
(1779322086.827385) can0 0000F001#0000000000000000
(1779322086.828339) can0 18FF28F4#10320000020D0000
(1779322086.829320) can0 18FE28F4#0CD60CD340400000
(1779322086.830331) can0 18FD28F4#1702FA6F00000000
(1779322086.831237) can0 4D4#000032007D0D0203
(1779322086.832220) can0 4D5#D30CD60C40400000
(1779322086.833314) can0 18914010#0CD6100CD3020000
(1779322086.834313) can0 18904010#020D020D753001FA
(1779322086.835378) can0 18FA28F4#123EA12C10270000
(1779322086.836313) can0 18FB28F4#D60CD30C40400000
(1779322086.837339) can0 18FC28F4#383200000D020000
(1779322086.838303) can0 18F810F3#0D02E80332640100
(1779322086.839353) can0 18F815F3#0000000010030000
(1779322086.840238) can0 273#000000000D023200
(1779322086.841237) can0 1E1#020D271001FA01FA
(1779322086.842250) can0 1F5#0000000000000000
(1779322086.843347) can0 0800A6A9#0000000000000000
(1779322086.844295) can0 1000A6A9#0D028813324A4A4A
(1779322086.845327) can0 1C00A6A9#0000000000030000
(1779322086.846340) can0 02018100#1003020D00000000
(1779322086.847340) can0 02028100#0000003264000000
(1779322086.848321) can0 02038100#0CD601100CD30102
(1779322086.849334) can0 02048100#4A01014A01010000
(1779322086.850212) can0 1AD#8714000059321818
(1779322086.851219) can0 2AD#D60C800C87140016
(1779322086.852245) can0 3AD#0000000000008714
(1779322086.853257) can0 4AD#EB00000000000000
(1779322086.854248) can0 76A#7F00000000000000
(1779322086.916922) can0 0000E005#1702440003B60591
(1779322086.917493) can0 1806E5F4#13CC010003B6023A
(1779322086.918332) can0 0000E000#13CC13CC020D0000
(1779322086.919331) can0 0000E004#181803B603B601E1
(1779322086.920293) can0 0000E006#0CD50CD30CD30CD5
(1779322086.921311) can0 0000E007#0CD50CD50CD50CD5
(1779322086.922305) can0 0000E008#0CD50CD50CD50CD5
(1779322086.923300) can0 0000E009#0CD50CD50CD50CD6
(1779322086.924357) can0 0000E010#0000000000000000
(1779322086.925350) can0 0000E011#0000000000000000
(1779322086.926338) can0 0000E012#0CD4000200000000
(1779322086.927346) can0 0000F001#0000000000000000
(1779322086.928332) can0 18FF28F4#10320000020D0000
(1779322086.929314) can0 18FE28F4#0CD60CD340400000
(1779322086.930334) can0 18FD28F4#1702FA6F00000000
(1779322086.931249) can0 4D4#000032007D0D0203
(1779322086.932230) can0 4D5#D30CD60C40400000
(1779322086.933325) can0 18914010#0CD6100CD3020000
(1779322086.934326) can0 18904010#020D020D753001FA
(1779322086.935317) can0 18FA28F4#123EA12C10270000
(1779322086.936319) can0 18FB28F4#D60CD30C40400000
(1779322086.937331) can0 18FC28F4#383200000D020000
(1779322086.938319) can0 18F810F3#0D02E80332640100
(1779322086.939345) can0 18F815F3#0000000010030000
(1779322086.940249) can0 273#000000000D023200
(1779322086.941230) can0 1E1#020D271001FA01FA
(1779322086.942261) can0 1F5#0000000000000000
(1779322086.943339) can0 0800A6A9#0000000000000000
(1779322086.944307) can0 1000A6A9#0D028813324A4A4A
(1779322086.945338) can0 1C00A6A9#0000000000030000
(1779322086.946339) can0 02018100#1003020D00000000
(1779322086.947334) can0 02028100#0000003264000000
(1779322086.948333) can0 02038100#0CD601100CD30102
(1779322086.949332) can0 02048100#4A01014A01010000
(1779322086.950211) can0 1AD#8714000059321818
(1779322086.951226) can0 2AD#D60C800C87140016
(1779322086.952236) can0 3AD#0000000000008714
(1779322086.953250) can0 4AD#EB00000000000000
(1779322086.954249) can0 76A#7F00000000000000
(1779322087.016880) can0 0000E005#1702440003B60591
(1779322087.017423) can0 1806E5F4#13CC010003B6023A
(1779322087.018329) can0 0000E000#13CC13CC020D0000
(1779322087.019324) can0 0000E004#181803B603B601E1
(1779322087.020305) can0 0000E006#0CD50CD30CD30CD5
(1779322087.021304) can0 0000E007#0CD50CD50CD50CD5
(1779322087.022304) can0 0000E008#0CD50CD50CD50CD5
(1779322087.023304) can0 0000E009#0CD50CD50CD50CD6
(1779322087.024349) can0 0000E010#0000000000000000
(1779322087.025349) can0 0000E011#0000000000000000
(1779322087.026349) can0 0000E012#0CD4000200000000
(1779322087.027343) can0 0000F001#0000000000000000
(1779322087.028331) can0 18FF28F4#10320000020D0000
(1779322087.029311) can0 18FE28F4#0CD60CD340400000
(1779322087.030324) can0 18FD28F4#1702FA6F00000000
(1779322087.031241) can0 4D4#000032007D0D0203
(1779322087.032221) can0 4D5#D30CD60C40400000
(1779322087.033318) can0 18914010#0CD6100CD3020000
(1779322087.034338) can0 18904010#020D020D753001FA
(1779322087.035318) can0 18FA28F4#123EA12C10270000
(1779322087.036312) can0 18FB28F4#D60CD30C40400000
(1779322087.037331) can0 18FC28F4#383200000D020000
(1779322087.038312) can0 18F810F3#0D02E80332640100
(1779322087.039343) can0 18F815F3#0000000010030000
(1779322087.040241) can0 273#000000000D023200
(1779322087.041222) can0 1E1#020D271001FA01FA
(1779322087.042273) can0 1F5#0000000000000000
(1779322087.043338) can0 0800A6A9#0000000000000000
(1779322087.044298) can0 1000A6A9#0D028813324A4A4A
(1779322087.045331) can0 1C00A6A9#0000000000030000
(1779322087.046331) can0 02018100#1003020D00000000
(1779322087.047331) can0 02028100#0000003264000000
(1779322087.048319) can0 02038100#0CD601100CD30102
(1779322087.049325) can0 02048100#4A01014A01010000
(1779322087.050242) can0 1AD#8714000059321818
(1779322087.051222) can0 2AD#D60C800C87140016
(1779322087.052235) can0 3AD#0000000000008714
(1779322087.053248) can0 4AD#EB00000000000000
(1779322087.054242) can0 76A#7F00000000000000
(1779322087.133879) can0 0000E005#1702440003B60591
(1779322087.134428) can0 1806E5F4#13CC010003B6023A
(1779322087.135368) can0 0000E000#13CC13CC020D0000
(1779322087.136316) can0 0000E004#181803B603B601E1
(1779322087.137297) can0 0000E006#0CD50CD30CD30CD5
(1779322087.138289) can0 0000E007#0CD30CD30CD50CD5
(1779322087.139297) can0 0000E008#0CD50CD50CD50CD3
(1779322087.140291) can0 0000E009#0CD50CD50CD50CD6
(1779322087.141342) can0 0000E010#0000000000000000
(1779322087.142335) can0 0000E011#0000000000000000
(1779322087.143368) can0 0000E012#0CD4000200000000
(1779322087.144284) can0 0000E013#4542323630354C43
(1779322087.145316) can0 0000E014#3134323300000000
(1779322087.146326) can0 0000E015#0000000000000003
(1779322087.147349) can0 0000F000#0000000000000000
(1779322087.148342) can0 0000F001#0000000000000000
(1779322087.149332) can0 18FF28F4#10320000020D0000
(1779322087.150310) can0 18FE28F4#0CD60CD340400000
(1779322087.151324) can0 18FD28F4#1702FA6F00000000
(1779322087.152227) can0 4D4#000032007D0D0203
(1779322087.153208) can0 4D5#D30CD60C40400000
(1779322087.154317) can0 18914010#0CD6100CD3020000
(1779322087.155304) can0 18904010#020D020D753001FA
(1779322087.156330) can0 18924010#4001400100000000
(1779322087.157317) can0 18934010#0000005B0000BC19
(1779322087.158328) can0 18944010#1003000000000000
(1779322087.159343) can0 18954010#0000000000000000
(1779322087.160343) can0 18954010#0100000000000000
(1779322087.161343) can0 18954010#0200000000000000
(1779322087.162333) can0 18954010#0300000000000000
(1779322087.163337) can0 18954010#0400000000000000
(1779322087.164337) can0 18954010#0500000000000000
(1779322087.165337) can0 18964010#0040404000000000
(1779322087.166330) can0 18974010#0000000000000000
(1779322087.167330) can0 18984010#0000000000000000
(1779322087.168311) can0 18FA28F4#123EA12C10270000
(1779322087.169304) can0 18FB28F4#D60CD30C40400000
(1779322087.170335) can0 18FC28F4#383200000D020000
(1779322087.171298) can0 18F810F3#0D02E80332640100
(1779322087.172312) can0 18F811F3#D60C1001D30C0201
(1779322087.173312) can0 18F812F3#4001014001010000
(1779322087.174341) can0 18F813F3#0101000000000000
(1779322087.175306) can0 18F814F3#3200EA1AA9015F00
(1779322087.176338) can0 18F815F3#0000000010030000
(1779322087.177235) can0 273#000000000D023200
(1779322087.178216) can0 1E1#020D271001FA01FA
(1779322087.179248) can0 1F5#0000000000000000
(1779322087.180344) can0 0800A6A9#0000000000000000
(1779322087.181292) can0 1000A6A9#0D028813324A4A4A
(1779322087.182321) can0 1C00A6A9#0000000000030000
(1779322087.183338) can0 02018100#1003020D00000000
(1779322087.184338) can0 02028100#0000003264000000
(1779322087.185318) can0 02038100#0CD601100CD30102
(1779322087.186313) can0 02048100#4A01014A01010000
(1779322087.187204) can0 1AD#8714000059321818
(1779322087.188236) can0 2AD#D60C800C87140016
(1779322087.189229) can0 3AD#0000000000008714
(1779322087.190249) can0 4AD#EB00000000000000
(1779322087.191243) can0 76A#7F00000000000000
(1779322087.249858) can0 0000E005#1702440003B60591
(1779322087.250422) can0 1806E5F4#13CC010003B6023A
(1779322087.251310) can0 0000E000#13CC13CC020D0000
(1779322087.252309) can0 0000E004#181803B603B601E1
(1779322087.253296) can0 0000E006#0CD50CD30CD30CD5
(1779322087.254290) can0 0000E007#0CD30CD30CD50CD5
(1779322087.255284) can0 0000E008#0CD50CD50CD50CD3
(1779322087.256290) can0 0000E009#0CD50CD50CD50CD6
(1779322087.257354) can0 0000E010#0000000000000000
(1779322087.258335) can0 0000E011#0000000000000000
(1779322087.259316) can0 0000E012#0CD4000200000000
(1779322087.260348) can0 0000F001#0000000000000000
(1779322087.261328) can0 18FF28F4#10320000020D0000
(1779322087.262310) can0 18FE28F4#0CD60CD340400000
(1779322087.263310) can0 18FD28F4#1702FA6F00000000
(1779322087.264227) can0 4D4#000032007D0D0203
(1779322087.265227) can0 4D5#D30CD60C40400000
(1779322087.266303) can0 18914010#0CD6100CD3020000
(1779322087.267302) can0 18904010#020D020D753001FA
(1779322087.268304) can0 18FA28F4#123EA12C10270000
(1779322087.269303) can0 18FB28F4#D60CD30C40400000
(1779322087.270329) can0 18FC28F4#383200000D020000
(1779322087.271297) can0 18F810F3#0D02E80332640100
(1779322087.272329) can0 18F815F3#0000000010030000
(1779322087.273259) can0 273#000000000D023200
(1779322087.274214) can0 1E1#020D271001FA01FA
(1779322087.275240) can0 1F5#0000000000000000
(1779322087.276322) can0 0800A6A9#0000000000000000
(1779322087.277285) can0 1000A6A9#0D028813324A4A4A
(1779322087.278314) can0 1C00A6A9#0000000000030000
(1779322087.279330) can0 02018100#1003020D00000000
(1779322087.280329) can0 02028100#0000003264000000
(1779322087.281342) can0 02038100#0CD601100CD30102
(1779322087.282310) can0 02048100#4A01014A01010000
(1779322087.283208) can0 1AD#8714000059321818
(1779322087.284208) can0 2AD#D60C800C87140016
(1779322087.285234) can0 3AD#0000000000008714
(1779322087.286228) can0 4AD#EB00000000000000
(1779322087.287228) can0 76A#7F00000000000000
(1779322087.349914) can0 0000E005#1702440003B60591
(1779322087.350516) can0 1806E5F4#13CC010003B6023A
(1779322087.351310) can0 0000E000#13CC13CC020D0000
(1779322087.352301) can0 0000E004#181803B603B601E1
(1779322087.353282) can0 0000E006#0CD50CD30CD30CD5
(1779322087.354282) can0 0000E007#0CD30CD30CD50CD5
(1779322087.355296) can0 0000E008#0CD50CD50CD50CD3
(1779322087.356294) can0 0000E009#0CD50CD50CD50CD6
(1779322087.357340) can0 0000E010#0000000000000000
(1779322087.358371) can0 0000E011#0000000000000000
(1779322087.359314) can0 0000E012#0CD4000200000000
(1779322087.360334) can0 0000F001#0000000000000000
(1779322087.361321) can0 18FF28F4#10320000020D0000
(1779322087.362301) can0 18FE28F4#0CD60CD340400000
(1779322087.363313) can0 18FD28F4#1702FA6F00000000
(1779322087.364231) can0 4D4#000032007D0D0203
(1779322087.365212) can0 4D5#D30CD60C40400000
(1779322087.366340) can0 18914010#0CD6100CD3020000
(1779322087.367309) can0 18904010#020D020D753001FA
(1779322087.368308) can0 18FA28F4#123EA12C10270000
(1779322087.369308) can0 18FB28F4#D60CD30C40400000
(1779322087.370321) can0 18FC28F4#383200000D020000
(1779322087.371285) can0 18F810F3#0D02E80332640100
(1779322087.372334) can0 18F815F3#0000000010030000
(1779322087.373232) can0 273#000000000D023200
(1779322087.374219) can0 1E1#020D271001FA01FA
(1779322087.375246) can0 1F5#0000000000000000
(1779322087.376328) can0 0800A6A9#0000000000000000
(1779322087.377296) can0 1000A6A9#0D028813324A4A4A
(1779322087.378321) can0 1C00A6A9#0000000000030000
(1779322087.379322) can0 02018100#1003020D00000000
(1779322087.380321) can0 02028100#0000003264000000
(1779322087.381302) can0 02038100#0CD601100CD30102
(1779322087.382315) can0 02048100#4A01014A01010000
(1779322087.383195) can0 1AD#8714000059321818
(1779322087.384213) can0 2AD#D60C800C87140016
(1779322087.385226) can0 3AD#0000000000008714
(1779322087.386239) can0 4AD#EB00000000000000
(1779322087.387229) can0 76A#7F00000000000000
(1779322087.449858) can0 0000E005#1702440003B60591
(1779322087.450412) can0 1806E5F4#13CC010003B6023A
(1779322087.451319) can0 0000E000#13CC13CC020D0000
(1779322087.452300) can0 0000E004#181803B603B601E1
(1779322087.453280) can0 0000E006#0CD50CD50CD50CD5
(1779322087.454281) can0 0000E007#0CD50CD50CD30CD5
(1779322087.455293) can0 0000E008#0CD50CD50CD50CD3
(1779322087.456289) can0 0000E009#0CD50CD50CD50CD6
(1779322087.457340) can0 0000E010#0000000000000000
(1779322087.458339) can0 0000E011#0000000000000000
(1779322087.459319) can0 0000E012#0CD4000200000000
(1779322087.460338) can0 0000F001#0000000000000000
(1779322087.461320) can0 18FF28F4#10320000020D0000
(1779322087.462301) can0 18FE28F4#0CD60CD340400000
(1779322087.463313) can0 18FD28F4#1702FA6F00000000
(1779322087.464230) can0 4D4#000032007D0D0203
(1779322087.465210) can0 4D5#D30CD60C40400000
(1779322087.466293) can0 18914010#0CD6100CD3070000
(1779322087.467307) can0 18904010#020D020D753001FA
(1779322087.468304) can0 18FA28F4#123EA12C10270000
(1779322087.469300) can0 18FB28F4#D60CD30C40400000
(1779322087.470319) can0 18FC28F4#383200000D020000
(1779322087.471301) can0 18F810F3#0D02E80332640100
(1779322087.472326) can0 18F815F3#0000000010030000
(1779322087.473217) can0 273#000000000D023200
(1779322087.474212) can0 1E1#020D271001FA01FA
(1779322087.475230) can0 1F5#0000000000000000
(1779322087.476326) can0 0800A6A9#0000000000000000
(1779322087.477275) can0 1000A6A9#0D028813324A4A4A
(1779322087.478307) can0 1C00A6A9#0000000000030000
(1779322087.479320) can0 02018100#1003020D00000000
(1779322087.480330) can0 02028100#0000003264000000
(1779322087.481301) can0 02038100#0CD601100CD30107
(1779322087.482314) can0 02048100#4A01014A01010000
(1779322087.483193) can0 1AD#8714000059321818
(1779322087.484189) can0 2AD#D60C800C87140016
(1779322087.485217) can0 3AD#0000000000008714
(1779322087.486230) can0 4AD#EB00000000000000
(1779322087.487231) can0 76A#7F00000000000000
(1779322087.549845) can0 0000E005#1702440003B60591
(1779322087.550402) can0 1806E5F4#13CC010003B6023A
(1779322087.551305) can0 0000E000#13CC13CC020D0000
(1779322087.552304) can0 0000E004#181803B603B601E1
(1779322087.553278) can0 0000E006#0CD50CD50CD50CD5
(1779322087.554285) can0 0000E007#0CD50CD50CD30CD5
(1779322087.555279) can0 0000E008#0CD50CD50CD50CD3
(1779322087.556278) can0 0000E009#0CD50CD50CD50CD6
(1779322087.557337) can0 0000E010#0000000000000000
(1779322087.558324) can0 0000E011#0000000000000000
(1779322087.559305) can0 0000E012#0CD4000200000000
(1779322087.560324) can0 0000F001#0000000000000000
(1779322087.561324) can0 18FF28F4#10320000020D0000
(1779322087.562286) can0 18FE28F4#0CD60CD340400000
(1779322087.563299) can0 18FD28F4#1702FA6F00000000
(1779322087.564215) can0 4D4#000032007D0D0203
(1779322087.565210) can0 4D5#D30CD60C40400000
(1779322087.566292) can0 18914010#0CD6100CD3070000
(1779322087.567292) can0 18904010#020D020D753001FA
(1779322087.568305) can0 18FA28F4#123EA12C10270000
(1779322087.569286) can0 18FB28F4#D60CD30C40400000
(1779322087.570324) can0 18FC28F4#383200000D020000
(1779322087.571286) can0 18F810F3#0D02E80332640100
(1779322087.572318) can0 18F815F3#0000000010030000
(1779322087.573235) can0 273#000000000D023200
(1779322087.574203) can0 1E1#020D271001FA01FA
(1779322087.575230) can0 1F5#0000000000000000
(1779322087.576312) can0 0800A6A9#0000000000000000
(1779322087.577271) can0 1000A6A9#0D028813324A4A4A
(1779322087.578306) can0 1C00A6A9#0000000000030000
(1779322087.579325) can0 02018100#1003020D00000000
(1779322087.580318) can0 02028100#0000003264000000
(1779322087.581331) can0 02038100#0CD601100CD30107
(1779322087.582299) can0 02048100#4A01014A01010000
(1779322087.583198) can0 1AD#8714000059321818
(1779322087.584197) can0 2AD#D60C800C87140016
(1779322087.585210) can0 3AD#0000000000008714
(1779322087.586223) can0 4AD#EB00000000000000
(1779322087.587217) can0 76A#7F00000000000000
(1779322087.666854) can0 0000E005#1702440003B60591
(1779322087.667418) can0 1806E5F4#13CC010003B6023A
(1779322087.668304) can0 0000E000#13CC13CC020D0000
(1779322087.669285) can0 0000E004#181803B603B601E1
(1779322087.670285) can0 0000E006#0CD50CD30CD50CD5
(1779322087.671261) can0 0000E007#0CD30CD30CD50CD5
(1779322087.672285) can0 0000E008#0CD50CD50CD50CD5
(1779322087.673266) can0 0000E009#0CD50CD30CD50CD6
(1779322087.674380) can0 0000E010#0000000000000000
(1779322087.675329) can0 0000E011#0000000000000000
(1779322087.676310) can0 0000E012#0CD4000200000000
(1779322087.677273) can0 0000E013#4542323630354C43
(1779322087.678304) can0 0000E014#3134323300000000
(1779322087.679315) can0 0000E015#0000000000000003
(1779322087.680317) can0 0000F000#0000000000000000
(1779322087.681318) can0 0000F001#0000000000000000
(1779322087.682317) can0 18FF28F4#10320000020D0000
(1779322087.683276) can0 18FE28F4#0CD60CD340400000
(1779322087.684298) can0 18FD28F4#1702FA6F00000000
(1779322087.685215) can0 4D4#000032007D0D0203
(1779322087.686196) can0 4D5#D30CD60C40400000
(1779322087.687292) can0 18914010#0CD6100CD3020000
(1779322087.688292) can0 18904010#020D020D753001FA
(1779322087.689305) can0 18924010#4001400100000000
(1779322087.690304) can0 18934010#0000005C0000BC19
(1779322087.691300) can0 18944010#1003000000000000
(1779322087.692331) can0 18954010#0000000000000000
(1779322087.693331) can0 18954010#0100000000000000
(1779322087.694311) can0 18954010#0200000000000000
(1779322087.695307) can0 18954010#0300000000000000
(1779322087.696312) can0 18954010#0400000000000000
(1779322087.697312) can0 18954010#0500000000000000
(1779322087.698305) can0 18964010#0040404000000000
(1779322087.699318) can0 18974010#0000000000000000
(1779322087.700318) can0 18984010#0000000000000000
(1779322087.701279) can0 18FA28F4#123EA12C10270000
(1779322087.702280) can0 18FB28F4#D60CD30C40400000
(1779322087.703301) can0 18FC28F4#383200000D020000
(1779322087.704287) can0 18F810F3#0D02E80332640100
(1779322087.705286) can0 18F811F3#D60C1001D30C0201
(1779322087.706299) can0 18F812F3#4001014001010000
(1779322087.707305) can0 18F813F3#0101000000000000
(1779322087.708293) can0 18F814F3#3200EA1AA9015F00
(1779322087.709306) can0 18F815F3#0000000010030000
(1779322087.710210) can0 273#000000000D023200
(1779322087.711204) can0 1E1#020D271001FA01FA
(1779322087.712236) can0 1F5#0000000000000000
(1779322087.713313) can0 0800A6A9#0000000000000000
(1779322087.714280) can0 1000A6A9#0D028813324A4A4A
(1779322087.715302) can0 1C00A6A9#0000000000030000
(1779322087.716306) can0 02018100#1003020D00000000
(1779322087.717319) can0 02028100#0000003264000000
(1779322087.718306) can0 02038100#0CD601100CD30102
(1779322087.719318) can0 02048100#4A01014A01010000
(1779322087.720184) can0 1AD#8714000059321818
(1779322087.721185) can0 2AD#D60C800C87140016
(1779322087.722217) can0 3AD#0000000000008714
(1779322087.723217) can0 4AD#EB00000000000000
(1779322087.724211) can0 76A#7F00000000000000
(1779322087.782914) can0 0000E005#1702440003B60591
(1779322087.783447) can0 1806E5F4#13CC010003B6023A
(1779322087.784299) can0 0000E000#13CC13CC020D0000
(1779322087.785291) can0 0000E004#181803B603B601E1
(1779322087.786272) can0 0000E006#0CD50CD30CD50CD5
(1779322087.787272) can0 0000E007#0CD30CD30CD50CD5
(1779322087.788279) can0 0000E008#0CD50CD50CD50CD5
(1779322087.789265) can0 0000E009#0CD50CD30CD50CD6
(1779322087.790329) can0 0000E010#0000000000000000
(1779322087.791330) can0 0000E011#0000000000000000
(1779322087.792310) can0 0000E012#0CD4000200000000
(1779322087.793323) can0 0000F001#0000000000000000
(1779322087.794307) can0 18FF28F4#10320000020D0000
(1779322087.795295) can0 18FE28F4#0CD60CD340400000
(1779322087.796316) can0 18FD28F4#1702FA6F00000000
(1779322087.797211) can0 4D4#000032007D0D0203
(1779322087.798220) can0 4D5#D30CD60C40400000
(1779322087.799296) can0 18914010#0CD6100CD3020000
(1779322087.800283) can0 18904010#020D020D753001FA
(1779322087.801309) can0 18FA28F4#123EA12C10270000
(1779322087.802293) can0 18FB28F4#D60CD30C40400000
(1779322087.803314) can0 18FC28F4#383200000D020000
(1779322087.804325) can0 18F810F3#0D02E80332640100
(1779322087.805328) can0 18F815F3#0000000010030000
(1779322087.806210) can0 273#000000000D023200
(1779322087.807209) can0 1E1#020D271001FA01FA
(1779322087.808215) can0 1F5#0000000000000000
(1779322087.809318) can0 0800A6A9#0000000000000000
(1779322087.810266) can0 1000A6A9#0D028813324A4A4A
(1779322087.811299) can0 1C00A6A9#0000000000030000
(1779322087.812344) can0 02018100#1003020D00000000
(1779322087.813312) can0 02028100#0000003264000000
(1779322087.814293) can0 02038100#0CD601100CD30102
(1779322087.815288) can0 02048100#4A01014A01010000
(1779322087.816190) can0 1AD#8714000059321818
(1779322087.817184) can0 2AD#D60C800C87140016
(1779322087.818215) can0 3AD#0000000000008714
(1779322087.819216) can0 4AD#EB00000000000000
(1779322087.820255) can0 76A#7F00000000000000
(1779322087.882851) can0 0000E005#1702440003B60591
(1779322087.883400) can0 1806E5F4#13CC010003B6023A
(1779322087.884302) can0 0000E000#13CC13CC020D0000
(1779322087.885278) can0 0000E004#181803B603B601E1
(1779322087.886270) can0 0000E006#0CD50CD30CD50CD5
(1779322087.887263) can0 0000E007#0CD30CD30CD50CD5
(1779322087.888277) can0 0000E008#0CD50CD50CD50CD5
(1779322087.889295) can0 0000E009#0CD50CD30CD50CD6
(1779322087.890328) can0 0000E010#0000000000000000
(1779322087.891321) can0 0000E011#0000000000000000
(1779322087.892310) can0 0000E012#0CD4000200000000
(1779322087.893319) can0 0000F001#0000000000000000
(1779322087.894303) can0 18FF28F4#10320000020D0000
(1779322087.895284) can0 18FE28F4#0CD60CD340400000
(1779322087.896303) can0 18FD28F4#1702FA6F00000000
(1779322087.897247) can0 4D4#000032007D0D0203
(1779322087.898200) can0 4D5#D30CD60C40400000
(1779322087.899277) can0 18914010#0CD6100CD3020000
(1779322087.900278) can0 18904010#020D020D753001FA
(1779322087.901290) can0 18FA28F4#123EA12C10270000
(1779322087.902271) can0 18FB28F4#D60CD30C40400000
(1779322087.903303) can0 18FC28F4#383200000D020000
(1779322087.904272) can0 18F810F3#0D02E80332640100
(1779322087.905348) can0 18F815F3#0000000010030000
(1779322087.906200) can0 273#000000000D023200
(1779322087.907182) can0 1E1#020D271001FA01FA
(1779322087.908210) can0 1F5#0000000000000000
(1779322087.909310) can0 0800A6A9#0000000000000000
(1779322087.910258) can0 1000A6A9#0D028813324A4A4A
(1779322087.911291) can0 1C00A6A9#0000000000030000
(1779322087.912303) can0 02018100#1003020D00000000
(1779322087.913303) can0 02028100#0000003264000000
(1779322087.914284) can0 02038100#0CD601100CD30102
(1779322087.915284) can0 02048100#4A01014A01010000
(1779322087.916177) can0 1AD#8714000059321818
(1779322087.917182) can0 2AD#D60C800C87140016
(1779322087.918207) can0 3AD#0000000000008714
(1779322087.919208) can0 4AD#EB00000000000000
(1779322087.920217) can0 76A#7F00000000000000
(1779322087.982862) can0 0000E005#1702440003B60591
(1779322087.983405) can0 1806E5F4#13CC010003B6023A
(1779322087.984288) can0 0000E000#13CC13CC020D0000
(1779322087.985287) can0 0000E004#181803B603B601E1
(1779322087.986268) can0 0000E006#0CD30CD50CD30CD3
(1779322087.987262) can0 0000E007#0CD30CD50CD30CD5
(1779322087.988262) can0 0000E008#0CD50CD50CD50CD5
(1779322087.989253) can0 0000E009#0CD50CD50CD30CD6
(1779322087.990320) can0 0000E010#0000000000000000
(1779322087.991304) can0 0000E011#0000000000000000
(1779322087.992301) can0 0000E012#0CD4000200000000
(1779322087.993306) can0 0000F001#0000000000000000
(1779322087.994295) can0 18FF28F4#10320000020D0000
(1779322087.995276) can0 18FE28F4#0CD60CD340400000
(1779322087.996295) can0 18FD28F4#1702FA6F00000000
(1779322087.997193) can0 4D4#000032007D0D0203
(1779322087.998195) can0 4D5#D30CD60C40400000
(1779322087.999269) can0 18914010#0CD6100CD3010000
(1779322088.000270) can0 18904010#020D020D753001FA
(1779322088.001277) can0 18FA28F4#123EA12C10270000
(1779322088.002268) can0 18FB28F4#D60CD30C40400000
(1779322088.003302) can0 18FC28F4#383200000D020000
(1779322088.004263) can0 18F810F3#0D02E80332640100
(1779322088.005306) can0 18F815F3#0000000010030000
(1779322088.006202) can0 273#000000000D023200
(1779322088.007193) can0 1E1#020D271001FA01FA
(1779322088.008213) can0 1F5#0000000000000000
(1779322088.009308) can0 0800A6A9#0000000000000000
(1779322088.010257) can0 1000A6A9#0D028813324A4A4A
(1779322088.011302) can0 1C00A6A9#0000000000030000
(1779322088.012301) can0 02018100#1003020D00000000
(1779322088.013294) can0 02028100#0000003264000000
(1779322088.014283) can0 02038100#0CD601100CD30101
(1779322088.015277) can0 02048100#4A01014A01010000
(1779322088.016181) can0 1AD#8714000059321818
(1779322088.017170) can0 2AD#D60C800C87140016
(1779322088.018206) can0 3AD#0000000000008714
(1779322088.019219) can0 4AD#EB00000000000000
(1779322088.020220) can0 76A#7F00000000000000
(1779322088.082894) can0 0000E005#1702440003B60591
(1779322088.083441) can0 1806E5F4#13CC010003B6023A
(1779322088.084292) can0 0000E000#13CC13CC020D0000
(1779322088.085281) can0 0000E004#181803B603B601E1
(1779322088.086251) can0 0000E006#0CD30CD50CD30CD3
(1779322088.087255) can0 0000E007#0CD30CD50CD30CD5
(1779322088.088273) can0 0000E008#0CD50CD50CD50CD5
(1779322088.089254) can0 0000E009#0CD50CD50CD30CD6
(1779322088.090311) can0 0000E010#0000000000000000
(1779322088.091300) can0 0000E011#0000000000000000
(1779322088.092299) can0 0000E012#0CD4000200000000
(1779322088.093312) can0 0000F001#0000000000000000
(1779322088.094293) can0 18FF28F4#10320000020D0000
(1779322088.095281) can0 18FE28F4#0CD60CD340400000
(1779322088.096294) can0 18FD28F4#1702FA6F00000000
(1779322088.097191) can0 4D4#000032007D0D0203
(1779322088.098169) can0 4D5#D30CD60C40400000
(1779322088.099274) can0 18914010#0CD6100CD3010000
(1779322088.100267) can0 18904010#020D020D753001FA
(1779322088.101287) can0 18FA28F4#123EA12C10270000
(1779322088.102259) can0 18FB28F4#D60CD30C40400000
(1779322088.103300) can0 18FC28F4#383200000D020000
(1779322088.104281) can0 18F810F3#0D02E80332640100
(1779322088.105313) can0 18F815F3#0000000010030000
(1779322088.106198) can0 273#000000000D023200
(1779322088.107191) can0 1E1#020D271001FA01FA
(1779322088.108211) can0 1F5#0000000000000000
(1779322088.109306) can0 0800A6A9#0000000000000000
(1779322088.110254) can0 1000A6A9#0D028813324A4A4A
(1779322088.111288) can0 1C00A6A9#0000000000030000
(1779322088.112332) can0 02018100#1003020D00000000
(1779322088.113300) can0 02028100#0000003264000000
(1779322088.114274) can0 02038100#0CD601100CD30101
(1779322088.115275) can0 02048100#4A01014A01010000
(1779322088.116179) can0 1AD#8714000059321818
(1779322088.117173) can0 2AD#D60C800C87140016
(1779322088.118205) can0 3AD#0000000000008714
(1779322088.119198) can0 4AD#EB00000000000000
(1779322088.120243) can0 76A#7F00000000000000
(1779322088.199890) can0 0000E005#1702440003B60591
(1779322088.200436) can0 1806E5F4#13CC010003B6023A
(1779322088.201292) can0 0000E000#13CC13CC020D0000
(1779322088.202275) can0 0000E004#181803B603B601E1
(1779322088.203254) can0 0000E006#0CD50CD30CD50CD5
(1779322088.204249) can0 0000E007#0CD30CD50CD30CD3
(1779322088.205318) can0 0000E008#0CD50CD50CD50CD5
(1779322088.206267) can0 0000E009#0CD50CD50CD50CD6
(1779322088.207312) can0 0000E010#0000000000000000
(1779322088.208312) can0 0000E011#0000000000000000
(1779322088.209300) can0 0000E012#0CD4000200000000
(1779322088.210261) can0 0000E013#4542323630354C43
(1779322088.211287) can0 0000E014#3134323300000000
(1779322088.212296) can0 0000E015#0000000000000003
(1779322088.213300) can0 0000F000#0000000000000000
(1779322088.214304) can0 0000F001#0000000000000000
(1779322088.215300) can0 18FF28F4#10320000020D0000
(1779322088.216263) can0 18FE28F4#0CD60CD340400000
(1779322088.217280) can0 18FD28F4#1702FA6F00000000
(1779322088.218197) can0 4D4#000032007D0D0203
(1779322088.219178) can0 4D5#D30CD60C40400000
(1779322088.220275) can0 18914010#0CD6100CD3020000
(1779322088.221274) can0 18904010#020D020D753001FA
(1779322088.222286) can0 18924010#4001400100000000
(1779322088.223286) can0 18934010#0000005D0000BC19
(1779322088.224283) can0 18944010#1003000000000000
(1779322088.225313) can0 18954010#0000000000000000
(1779322088.226314) can0 18954010#0100000000000000
(1779322088.227294) can0 18954010#0200000000000000
(1779322088.228288) can0 18954010#0300000000000000
(1779322088.229293) can0 18954010#0400000000000000
(1779322088.230294) can0 18954010#0500000000000000
(1779322088.231287) can0 18964010#0040404000000000
(1779322088.232300) can0 18974010#0000000000000000
(1779322088.233301) can0 18984010#0000000000000000
(1779322088.234262) can0 18FA28F4#123EA12C10270000
(1779322088.235262) can0 18FB28F4#D60CD30C40400000
(1779322088.236283) can0 18FC28F4#383200000D020000
(1779322088.237274) can0 18F810F3#0D02E80332640100
(1779322088.238269) can0 18F811F3#D60C1001D30C0201
(1779322088.239282) can0 18F812F3#4001014001010000
(1779322088.240288) can0 18F813F3#0101000000000000
(1779322088.241275) can0 18F814F3#3200EA1AA9015F00
(1779322088.242306) can0 18F815F3#0000000010030000
(1779322088.243192) can0 273#000000000D023200
(1779322088.244185) can0 1E1#020D271001FA01FA
(1779322088.245217) can0 1F5#0000000000000000
(1779322088.246295) can0 0800A6A9#0000000000000000
(1779322088.247263) can0 1000A6A9#0D028813324A4A4A
(1779322088.248290) can0 1C00A6A9#0000000000030000
(1779322088.249289) can0 02018100#1003020D00000000
(1779322088.250307) can0 02028100#0000003264000000
(1779322088.251289) can0 02038100#0CD601100CD30102
(1779322088.252282) can0 02048100#4A01014A01010000
(1779322088.253173) can0 1AD#8714000059321818
(1779322088.254167) can0 2AD#D60C800C87140016
(1779322088.255199) can0 3AD#0000000000008714
(1779322088.256199) can0 4AD#EB00000000000000
(1779322088.257199) can0 76A#7F00000000000000
(1779322088.315840) can0 0000E005#1702440003B60591
(1779322088.316388) can0 1806E5F4#13CC010003B6023A
(1779322088.317287) can0 0000E000#13CC13CC020D0000
(1779322088.318272) can0 0000E004#181803B603B601E1
(1779322088.319267) can0 0000E006#0CD50CD30CD50CD5
(1779322088.320247) can0 0000E007#0CD30CD50CD30CD3
(1779322088.321261) can0 0000E008#0CD50CD50CD50CD5
(1779322088.322247) can0 0000E009#0CD50CD50CD50CD6
(1779322088.323312) can0 0000E010#0000000000000000
(1779322088.324311) can0 0000E011#0000000000000000
(1779322088.325292) can0 0000E012#0CD4000200000000
(1779322088.326304) can0 0000F001#0000000000000000
(1779322088.327305) can0 18FF28F4#10320000020D0000
(1779322088.328272) can0 18FE28F4#0CD60CD340400000
(1779322088.329279) can0 18FD28F4#1702FA6F00000000
(1779322088.330183) can0 4D4#000032007D0D0203
(1779322088.331183) can0 4D5#D30CD60C40400000
(1779322088.332262) can0 18914010#0CD6100CD3020000
(1779322088.333255) can0 18904010#020D020D753001FA
(1779322088.334279) can0 18FA28F4#123EA12C10270000
(1779322088.335292) can0 18FB28F4#D60CD30C40400000
(1779322088.336293) can0 18FC28F4#383200000D020000
(1779322088.337254) can0 18F810F3#0D02E80332640100
(1779322088.338287) can0 18F815F3#0000000010030000
(1779322088.339190) can0 273#000000000D023200
(1779322088.340171) can0 1E1#020D271001FA01FA
(1779322088.341196) can0 1F5#0000000000000000
(1779322088.342299) can0 0800A6A9#0000000000000000
(1779322088.343280) can0 1000A6A9#0D028813324A4A4A
(1779322088.344280) can0 1C00A6A9#0000000000030000
(1779322088.345284) can0 02018100#1003020D00000000
(1779322088.346293) can0 02028100#0000003264000000
(1779322088.347274) can0 02038100#0CD601100CD30102
(1779322088.348267) can0 02048100#4A01014A01010000
(1779322088.349171) can0 1AD#8714000059321818
(1779322088.350165) can0 2AD#D60C800C87140016
(1779322088.351229) can0 3AD#0000000000008714
(1779322088.352191) can0 4AD#EB00000000000000
(1779322088.353188) can0 76A#7F00000000000000
(1779322088.415825) can0 0000E005#1702440003B60591
(1779322088.416381) can0 1806E5F4#13CC010003B6023A
(1779322088.417271) can0 0000E000#13CC13CC020D0000
(1779322088.418265) can0 0000E004#181803B603B601E1
(1779322088.419252) can0 0000E006#0CD50CD30CD50CD5
(1779322088.420277) can0 0000E007#0CD30CD50CD30CD3
(1779322088.421245) can0 0000E008#0CD50CD50CD50CD5
(1779322088.422245) can0 0000E009#0CD50CD50CD50CD6
(1779322088.423291) can0 0000E010#0000000000000000
(1779322088.424290) can0 0000E011#0000000000000000
(1779322088.425272) can0 0000E012#0CD4000200000000
(1779322088.426298) can0 0000F001#0000000000000000
(1779322088.427284) can0 18FF28F4#10320000020D0000
(1779322088.428302) can0 18FE28F4#0CD60CD340400000
(1779322088.429285) can0 18FD28F4#1702FA6F00000000
(1779322088.430183) can0 4D4#000032007D0D0203
(1779322088.431163) can0 4D5#D30CD60C40400000
(1779322088.432259) can0 18914010#0CD6100CD3020000
(1779322088.433259) can0 18904010#020D020D753001FA
(1779322088.434272) can0 18FA28F4#123EA12C10270000
(1779322088.435259) can0 18FB28F4#D60CD30C40400000
(1779322088.436335) can0 18FC28F4#383200000D020000
(1779322088.437252) can0 18F810F3#0D02E80332640100
(1779322088.438277) can0 18F815F3#0000000010030000
(1779322088.439182) can0 273#000000000D023200
(1779322088.440170) can0 1E1#020D271001FA01FA
(1779322088.441195) can0 1F5#0000000000000000
(1779322088.442289) can0 0800A6A9#0000000000000000
(1779322088.443240) can0 1000A6A9#0D028813324A4A4A
(1779322088.444272) can0 1C00A6A9#0000000000030000
(1779322088.445292) can0 02018100#1003020D00000000
(1779322088.446284) can0 02028100#0000003264000000
(1779322088.447272) can0 02038100#0CD601100CD30102
(1779322088.448266) can0 02048100#4A01014A01010000
(1779322088.449169) can0 1AD#8714000059321818
(1779322088.450163) can0 2AD#D60C800C87140016
(1779322088.451196) can0 3AD#0000000000008714
(1779322088.452190) can0 4AD#EB00000000000000
(1779322088.453190) can0 76A#7F00000000000000
(1779322088.515865) can0 0000E005#1702440003B60591
(1779322088.516422) can0 1806E5F4#13CC010003B6023A
(1779322088.517276) can0 0000E000#13CC13CC020D0000
(1779322088.518256) can0 0000E004#181803B603B601E1
(1779322088.519244) can0 0000E006#0CD50CD50CD30CD5
(1779322088.520237) can0 0000E007#0CD30CD30CD50CD5
(1779322088.521257) can0 0000E008#0CD50CD50CD50CD3
(1779322088.522238) can0 0000E009#0CD50CD50CD50CD6
(1779322088.523295) can0 0000E010#0000000000000000
(1779322088.524301) can0 0000E011#0000000000000000
(1779322088.525282) can0 0000E012#0CD4000200000000
(1779322088.526295) can0 0000F001#0000000000000000
(1779322088.527271) can0 18FF28F4#10320000020D0000
(1779322088.528263) can0 18FE28F4#0CD60CD340400000
(1779322088.529276) can0 18FD28F4#1702FA6F00000000
(1779322088.530174) can0 4D4#000032007D0D0203
(1779322088.531174) can0 4D5#D30CD60C40400000
(1779322088.532257) can0 18914010#0CD6100CD3030000
(1779322088.533250) can0 18904010#020D020D753001FA
(1779322088.534264) can0 18FA28F4#123EA12C10270000
(1779322088.535243) can0 18FB28F4#D60CD30C40400000
(1779322088.536283) can0 18FC28F4#383200000D020000
(1779322088.537245) can0 18F810F3#0D02E80332640100
(1779322088.538296) can0 18F815F3#0000000010030000
(1779322088.539175) can0 273#000000000D023200
(1779322088.540175) can0 1E1#020D271001FA01FA
(1779322088.541206) can0 1F5#0000000000000000
(1779322088.542283) can0 0800A6A9#0000000000000000
(1779322088.543251) can0 1000A6A9#0D028813324A4A4A
(1779322088.544283) can0 1C00A6A9#0000000000030000
(1779322088.545283) can0 02018100#1003020D00000000
(1779322088.546275) can0 02028100#0000003264000000
(1779322088.547258) can0 02038100#0CD601100CD30103
(1779322088.548271) can0 02048100#4A01014A01010000
(1779322088.549155) can0 1AD#8714000059321818
(1779322088.550165) can0 2AD#D60C800C87140016
(1779322088.551182) can0 3AD#0000000000008714
(1779322088.552194) can0 4AD#EB00000000000000
(1779322088.553194) can0 76A#7F00000000000000
(1779322088.615821) can0 0000E005#1702440003B60591
(1779322088.616377) can0 1806E5F4#13CC010003B6023A
(1779322088.617262) can0 0000E000#13CC13CC020D0000
(1779322088.618261) can0 0000E004#181803B603B601E1
(1779322088.619242) can0 0000E006#0CD50CD50CD30CD5
(1779322088.620242) can0 0000E007#0CD30CD30CD50CD5
(1779322088.621242) can0 0000E008#0CD50CD50CD50CD3
(1779322088.622236) can0 0000E009#0CD50CD50CD50CD6
(1779322088.623282) can0 0000E010#0000000000000000
(1779322088.624287) can0 0000E011#0000000000000000
(1779322088.625268) can0 0000E012#0CD4000200000000
(1779322088.626300) can0 0000F001#0000000000000000
(1779322088.627281) can0 18FF28F4#10320000020D0000
(1779322088.628262) can0 18FE28F4#0CD60CD340400000
(1779322088.629275) can0 18FD28F4#1702FA6F00000000
(1779322088.630179) can0 4D4#000032007D0D0203
(1779322088.631157) can0 4D5#D30CD60C40400000
(1779322088.632255) can0 18914010#0CD6100CD3030000
(1779322088.633256) can0 18904010#020D020D753001FA
(1779322088.634256) can0 18FA28F4#123EA12C10270000
(1779322088.635262) can0 18FB28F4#D60CD30C40400000
(1779322088.636281) can0 18FC28F4#383200000D020000
(1779322088.637250) can0 18F810F3#0D02E80332640100
(1779322088.638282) can0 18F815F3#0000000010030000
(1779322088.639180) can0 273#000000000D023200
(1779322088.640176) can0 1E1#020D271001FA01FA
(1779322088.641192) can0 1F5#0000000000000000
(1779322088.642276) can0 0800A6A9#0000000000000000
(1779322088.643264) can0 1000A6A9#0D028813324A4A4A
(1779322088.644269) can0 1C00A6A9#0000000000030000
(1779322088.645288) can0 02018100#1003020D00000000
(1779322088.646282) can0 02028100#0000003264000000
(1779322088.647261) can0 02038100#0CD601100CD30103
(1779322088.648263) can0 02048100#4A01014A01010000
(1779322088.649161) can0 1AD#8714000059321818
(1779322088.650164) can0 2AD#D60C800C87140016
(1779322088.651219) can0 3AD#0000000000008714
(1779322088.652187) can0 4AD#EB00000000000000
(1779322088.653181) can0 76A#7F00000000000000
(1779322088.732846) can0 0000E005#1702440003B60591
(1779322088.733397) can0 1806E5F4#13CC010003B6023A
(1779322088.734274) can0 0000E000#13CC13CC020D0000
(1779322088.735254) can0 0000E004#181803B603B601E1
(1779322088.736287) can0 0000E006#0CD50CD30CD30CD5
(1779322088.737236) can0 0000E007#0CD30CD50CD50CD5
(1779322088.738236) can0 0000E008#0CD50CD50CD30CD3
(1779322088.739244) can0 0000E009#0CD30CD50CD50CD6
(1779322088.740299) can0 0000E010#0000000000000000
(1779322088.741280) can0 0000E011#0000000000000000
(1779322088.742280) can0 0000E012#0CD4000200000000
(1779322088.743243) can0 0000E013#4542323630354C43
(1779322088.744306) can0 0000E014#3134323300000000
(1779322088.745287) can0 0000E015#0000000000000003
(1779322088.746287) can0 0000F000#0000000000000000
(1779322088.747287) can0 0000F001#0000000000000000
(1779322088.748268) can0 18FF28F4#10320000020D0000
(1779322088.749244) can0 18FE28F4#0CD60CD340400000
(1779322088.750268) can0 18FD28F4#1702FA6F00000000
(1779322088.751185) can0 4D4#000032007D0D0203
(1779322088.752165) can0 4D5#D30CD60C40400000
(1779322088.753262) can0 18914010#0CD6100CD3020000
(1779322088.754255) can0 18904010#020D020D753001FA
(1779322088.755274) can0 18924010#4001400100000000
(1779322088.756275) can0 18934010#0000005E0000BC19
(1779322088.757269) can0 18944010#1003000000000000
(1779322088.758287) can0 18954010#0000000000000000
(1779322088.759284) can0 18954010#0100000000000000
(1779322088.760281) can0 18954010#0200000000000000
(1779322088.761276) can0 18954010#0300000000000000
(1779322088.762283) can0 18954010#0400000000000000
(1779322088.763275) can0 18954010#0500000000000000
(1779322088.764275) can0 18964010#0040404000000000
(1779322088.765289) can0 18974010#0000000000000000
(1779322088.766281) can0 18984010#0000000000000000
(1779322088.767250) can0 18FA28F4#123EA12C10270000
(1779322088.768243) can0 18FB28F4#D60CD30C40400000
(1779322088.769270) can0 18FC28F4#383200000D020000
(1779322088.770244) can0 18F810F3#0D02E80332640100
(1779322088.771257) can0 18F811F3#D60C1001D30C0201
(1779322088.772249) can0 18F812F3#4001014001010000
(1779322088.773276) can0 18F813F3#0101000000000000
(1779322088.774243) can0 18F814F3#3200EA1AA9015F00
(1779322088.775275) can0 18F815F3#0000000010030000
(1779322088.776174) can0 273#000000000D023200
(1779322088.777153) can0 1E1#020D271001FA01FA
(1779322088.778185) can0 1F5#0000000000000000
(1779322088.779282) can0 0800A6A9#0000000000000000
(1779322088.780232) can0 1000A6A9#0D028813324A4A4A
(1779322088.781271) can0 1C00A6A9#0000000000030000
(1779322088.782276) can0 02018100#1003020D00000000
(1779322088.783276) can0 02028100#0000003264000000
(1779322088.784256) can0 02038100#0CD601100CD30102
(1779322088.785254) can0 02048100#4A01014A01010000
(1779322088.786154) can0 1AD#8714000059321818
(1779322088.787155) can0 2AD#D60C800C87140016
(1779322088.788167) can0 3AD#0000000000008714
(1779322088.789199) can0 4AD#EB00000000000000
(1779322088.790180) can0 76A#7F00000000000000
(1779322088.848824) can0 0000E005#1702440003B60591
(1779322088.849371) can0 1806E5F4#13CC010003B6023A
(1779322088.850267) can0 0000E000#13CC13CC020D0000
(1779322088.851255) can0 0000E004#181803B603B601E1
(1779322088.852235) can0 0000E006#0CD50CD30CD30CD5
(1779322088.853234) can0 0000E007#0CD30CD50CD50CD5
(1779322088.854224) can0 0000E008#0CD50CD50CD30CD3
(1779322088.855228) can0 0000E009#0CD30CD50CD50CD6
(1779322088.856280) can0 0000E010#0000000000000000
(1779322088.857273) can0 0000E011#0000000000000000
(1779322088.858273) can0 0000E012#0CD4000200000000
(1779322088.859286) can0 0000F001#0000000000000000
(1779322088.860273) can0 18FF28F4#10320000020D0000
(1779322088.861254) can0 18FE28F4#0CD60CD340400000
(1779322088.862260) can0 18FD28F4#1702FA6F00000000
(1779322088.863194) can0 4D4#000032007D0D0203
(1779322088.864173) can0 4D5#D30CD60C40400000
(1779322088.865277) can0 18914010#0CD6100CD3020000
(1779322088.866292) can0 18904010#020D020D753001FA
(1779322088.867279) can0 18FA28F4#123EA12C10270000
(1779322088.868262) can0 18FB28F4#D60CD30C40400000
(1779322088.869293) can0 18FC28F4#383200000D020000
(1779322088.870258) can0 18F810F3#0D02E80332640100
(1779322088.871279) can0 18F815F3#0000000010030000
(1779322088.872176) can0 273#000000000D023200
(1779322088.873156) can0 1E1#020D271001FA01FA
(1779322088.874223) can0 1F5#0000000000000000
(1779322088.875287) can0 0800A6A9#0000000000000000
(1779322088.876234) can0 1000A6A9#0D028813324A4A4A
(1779322088.877264) can0 1C00A6A9#0000000000030000
(1779322088.878273) can0 02018100#1003020D00000000
(1779322088.879278) can0 02028100#0000003264000000
(1779322088.880257) can0 02038100#0CD601100CD30102
(1779322088.881253) can0 02048100#4A01014A01010000
(1779322088.882190) can0 1AD#8714000059321818
(1779322088.883151) can0 2AD#D60C800C87140016
(1779322088.884183) can0 3AD#0000000000008714
(1779322088.885185) can0 4AD#EB00000000000000
(1779322088.886183) can0 76A#7F00000000000000
(1779322088.948866) can0 0000E005#1702440003B60591
(1779322088.949407) can0 1806E5F4#13CC010003B6023A
(1779322088.950259) can0 0000E000#13CC13CC020D0000
(1779322088.951273) can0 0000E004#181803B603B601E1
(1779322088.952224) can0 0000E006#0CD50CD30CD30CD5
(1779322088.953241) can0 0000E007#0CD30CD50CD50CD5
(1779322088.954235) can0 0000E008#0CD50CD50CD30CD3
(1779322088.955221) can0 0000E009#0CD30CD50CD50CD6
(1779322088.956286) can0 0000E010#0000000000000000
(1779322088.957278) can0 0000E011#0000000000000000
(1779322088.958263) can0 0000E012#0CD4000200000000
(1779322088.959304) can0 0000F001#0000000000000000
(1779322088.960260) can0 18FF28F4#10320000020D0000
(1779322088.961242) can0 18FE28F4#0CD60CD340400000
(1779322088.962261) can0 18FD28F4#1702FA6F00000000
(1779322088.963170) can0 4D4#000032007D0D0203
(1779322088.964157) can0 4D5#D30CD60C40400000
(1779322088.965253) can0 18914010#0CD6100CD3020000
(1779322088.966247) can0 18904010#020D020D753001FA
(1779322088.967305) can0 18FA28F4#123EA12C10270000
(1779322088.968252) can0 18FB28F4#D60CD30C40400000
(1779322088.969260) can0 18FC28F4#383200000D020000
(1779322088.970247) can0 18F810F3#0D02E80332640100
(1779322088.971273) can0 18F815F3#0000000010030000
(1779322088.972184) can0 273#000000000D023200
(1779322088.973159) can0 1E1#020D271001FA01FA
(1779322088.974193) can0 1F5#0000000000000000
(1779322088.975318) can0 0800A6A9#0000000000000000
(1779322088.976235) can0 1000A6A9#0D028813324A4A4A
(1779322088.977267) can0 1C00A6A9#0000000000030000
(1779322088.978267) can0 02018100#1003020D00000000
(1779322088.979260) can0 02028100#0000003264000000
(1779322088.980260) can0 02038100#0CD601100CD30102
(1779322088.981253) can0 02048100#4A01014A01010000
(1779322088.982139) can0 1AD#8714000059321818
(1779322088.983152) can0 2AD#D60C800C87140016
(1779322088.984166) can0 3AD#0000000000008714
(1779322088.985179) can0 4AD#EB00000000000000
(1779322088.986178) can0 76A#7F00000000000000
(1779322089.048856) can0 0000E005#1702440003B60591
(1779322089.049402) can0 1806E5F4#13CC010003B6023A
(1779322089.050257) can0 0000E000#13CC13CC020D0000
(1779322089.051240) can0 0000E004#181803B603B601E1
(1779322089.052219) can0 0000E006#0CD50CD50CD50CD5
(1779322089.053219) can0 0000E007#0CD50CD30CD50CD5
(1779322089.054232) can0 0000E008#0CD50CD50CD50CD3
(1779322089.055231) can0 0000E009#0CD50CD50CD50CD6
(1779322089.056276) can0 0000E010#0000000000000000
(1779322089.057277) can0 0000E011#0000000000000000
(1779322089.058257) can0 0000E012#0CD4000200000000
(1779322089.059277) can0 0000F001#0000000000000000
(1779322089.060254) can0 18FF28F4#10320000020D0000
(1779322089.061238) can0 18FE28F4#0CD60CD340400000
(1779322089.062261) can0 18FD28F4#1702FA6F00000000
(1779322089.063181) can0 4D4#000032007D0D0203
(1779322089.064165) can0 4D5#D30CD60C40400000
(1779322089.065233) can0 18914010#0CD6100CD3060000
(1779322089.066252) can0 18904010#020D020D753001FA
(1779322089.067245) can0 18FA28F4#123EA12C10270000
(1779322089.068223) can0 18FB28F4#D60CD30C40400000
(1779322089.069258) can0 18FC28F4#383200000D020000
(1779322089.070226) can0 18F810F3#0D02E80332640100
(1779322089.071280) can0 18F815F3#0000000010030000
(1779322089.072152) can0 273#000000000D023200
(1779322089.073156) can0 1E1#020D271001FA01FA
(1779322089.074187) can0 1F5#0000000000000000
(1779322089.075272) can0 0800A6A9#0000000000000000
(1779322089.076220) can0 1000A6A9#0D028813324A4A4A
(1779322089.077268) can0 1C00A6A9#0000000000030000
(1779322089.078266) can0 02018100#1003020D00000000
(1779322089.079266) can0 02028100#0000003264000000
(1779322089.080240) can0 02038100#0CD601100CD30106
(1779322089.081259) can0 02048100#4A01014A01010000
(1779322089.082144) can0 1AD#8714000059321818
(1779322089.083137) can0 2AD#D60C800C87140016
(1779322089.084160) can0 3AD#0000000000008714
(1779322089.085182) can0 4AD#EB00000000000000
(1779322089.086176) can0 76A#7F00000000000000
(1779322089.148797) can0 0000E005#1702440003B60591
(1779322089.149352) can0 1806E5F4#13CC010003B6023A
(1779322089.150259) can0 0000E000#13CC13CC020D0000
(1779322089.151237) can0 0000E004#181803B603B601E1
(1779322089.152218) can0 0000E006#0CD50CD50CD50CD5
(1779322089.153213) can0 0000E007#0CD50CD30CD50CD5
(1779322089.154231) can0 0000E008#0CD50CD50CD50CD3
(1779322089.155231) can0 0000E009#0CD50CD50CD50CD6
(1779322089.156275) can0 0000E010#0000000000000000
(1779322089.157271) can0 0000E011#0000000000000000
(1779322089.158256) can0 0000E012#0CD4000200000000
(1779322089.159269) can0 0000F001#0000000000000000
(1779322089.160256) can0 18FF28F4#10320000020D0000
(1779322089.161237) can0 18FE28F4#0CD60CD340400000
(1779322089.162250) can0 18FD28F4#1702FA6F00000000
(1779322089.163167) can0 4D4#000032007D0D0203
(1779322089.164148) can0 4D5#D30CD60C40400000
(1779322089.165229) can0 18914010#0CD6100CD3060000
(1779322089.166243) can0 18904010#020D020D753001FA
(1779322089.167243) can0 18FA28F4#123EA12C10270000
(1779322089.168243) can0 18FB28F4#D60CD30C40400000
(1779322089.169251) can0 18FC28F4#383200000D020000
(1779322089.170237) can0 18F810F3#0D02E80332640100
(1779322089.171270) can0 18F815F3#0000000010030000
(1779322089.172167) can0 273#000000000D023200
(1779322089.173155) can0 1E1#020D271001FA01FA
(1779322089.174199) can0 1F5#0000000000000000
(1779322089.175263) can0 0800A6A9#0000000000000000
(1779322089.176231) can0 1000A6A9#0D028813324A4A4A
(1779322089.177257) can0 1C00A6A9#0000000000030000
(1779322089.178256) can0 02018100#1003020D00000000
(1779322089.179256) can0 02028100#0000003264000000
(1779322089.180233) can0 02038100#0CD601100CD30106
(1779322089.181251) can0 02048100#4A01014A01010000
(1779322089.182167) can0 1AD#8714000059321818
(1779322089.183148) can0 2AD#D60C800C87140016
(1779322089.184161) can0 3AD#0000000000008714
(1779322089.185175) can0 4AD#EB00000000000000
(1779322089.186174) can0 76A#7F00000000000000
(1779322089.265796) can0 0000E005#1702440003B60591
(1779322089.266347) can0 1806E5F4#13CC010003B6023A
(1779322089.267287) can0 0000E000#13CC13CC020D0000
(1779322089.268241) can0 0000E004#181803B603B601E1
(1779322089.269223) can0 0000E006#0CD50CD30CD30CD3
(1779322089.270216) can0 0000E007#0CD50CD50CD50CD5
(1779322089.271217) can0 0000E008#0CD50CD50CD50CD3
(1779322089.272217) can0 0000E009#0CD50CD50CD50CD6
(1779322089.273262) can0 0000E010#0000000000000000
(1779322089.274262) can0 0000E011#0000000000000000
(1779322089.275294) can0 0000E012#0CD4000200000000
(1779322089.276211) can0 0000E013#4542323630354C43
(1779322089.277242) can0 0000E014#3134323300000000
(1779322089.278250) can0 0000E015#0000000000000003
(1779322089.279269) can0 0000F000#0000000000000000
(1779322089.280268) can0 0000F001#0000000000000000
(1779322089.281249) can0 18FF28F4#10320000020D0000
(1779322089.282230) can0 18FE28F4#0CD60CD340400000
(1779322089.283249) can0 18FD28F4#1702FA6F00000000
(1779322089.284147) can0 4D4#000032007D0D0203
(1779322089.285146) can0 4D5#D30CD60C40400000
(1779322089.286242) can0 18914010#0CD6100CD3020000
(1779322089.287224) can0 18904010#020D020D753001FA
(1779322089.288256) can0 18924010#4001400100000000
(1779322089.289236) can0 18934010#0000005F0000BC19
(1779322089.290250) can0 18944010#1003000000000000
(1779322089.291269) can0 18954010#0000000000000000
(1779322089.292262) can0 18954010#0100000000000000
(1779322089.293262) can0 18954010#0200000000000000
(1779322089.294255) can0 18954010#0300000000000000
(1779322089.295262) can0 18954010#0400000000000000
(1779322089.296256) can0 18954010#0500000000000000
(1779322089.297256) can0 18964010#0040404000000000
(1779322089.298251) can0 18974010#0000000000000000
(1779322089.299249) can0 18984010#0000000000000000
(1779322089.300230) can0 18FA28F4#123EA12C10270000
(1779322089.301231) can0 18FB28F4#D60CD30C40400000
(1779322089.302250) can0 18FC28F4#383200000D020000
(1779322089.303224) can0 18F810F3#0D02E80332640100
(1779322089.304237) can0 18F811F3#D60C1001D30C0201
(1779322089.305231) can0 18F812F3#4001014001010000
(1779322089.306260) can0 18F813F3#0101000000000000
(1779322089.307225) can0 18F814F3#3200EA1AA9015F00
(1779322089.308257) can0 18F815F3#0000000010030000
(1779322089.309155) can0 273#000000000D023200
(1779322089.310136) can0 1E1#020D271001FA01FA
(1779322089.311167) can0 1F5#0000000000000000
(1779322089.312264) can0 0800A6A9#0000000000000000
(1779322089.313212) can0 1000A6A9#0D028813324A4A4A
(1779322089.314237) can0 1C00A6A9#0000000000030000
(1779322089.315258) can0 02018100#1003020D00000000
(1779322089.316258) can0 02028100#0000003264000000
(1779322089.317238) can0 02038100#0CD601100CD30102
(1779322089.318234) can0 02048100#4A01014A01010000
(1779322089.319136) can0 1AD#8714000059321818
(1779322089.320148) can0 2AD#D60C800C87140016
(1779322089.321149) can0 3AD#0000000000008714
(1779322089.322161) can0 4AD#EB00000000000000
(1779322089.323162) can0 76A#7F00000000000000
(1779322089.381795) can0 0000E005#1702440003B60591
(1779322089.382352) can0 1806E5F4#13CC010003B6023A
(1779322089.383232) can0 0000E000#13CC13CC020D0000
(1779322089.384235) can0 0000E004#181803B603B601E1
(1779322089.385215) can0 0000E006#0CD50CD30CD30CD3
(1779322089.386209) can0 0000E007#0CD50CD50CD50CD5
(1779322089.387205) can0 0000E008#0CD50CD50CD50CD3
(1779322089.388210) can0 0000E009#0CD50CD50CD50CD6
(1779322089.389273) can0 0000E010#0000000000000000
(1779322089.390254) can0 0000E011#0000000000000000
(1779322089.391254) can0 0000E012#0CD4000200000000
(1779322089.392268) can0 0000F001#0000000000000000
(1779322089.393248) can0 18FF28F4#10320000020D0000
(1779322089.394229) can0 18FE28F4#0CD60CD340400000
(1779322089.395241) can0 18FD28F4#1702FA6F00000000
(1779322089.396146) can0 4D4#000032007D0D0203
(1779322089.397146) can0 4D5#D30CD60C40400000
(1779322089.398223) can0 18914010#0CD6100CD3020000
(1779322089.399223) can0 18904010#020D020D753001FA
(1779322089.400236) can0 18FA28F4#123EA12C10270000
(1779322089.401223) can0 18FB28F4#D60CD30C40400000
(1779322089.402249) can0 18FC28F4#383200000D020000
(1779322089.403217) can0 18F810F3#0D02E80332640100
(1779322089.404261) can0 18F815F3#0000000010030000
(1779322089.405179) can0 273#000000000D023200
(1779322089.406146) can0 1E1#020D271001FA01FA
(1779322089.407156) can0 1F5#0000000000000000
(1779322089.408255) can0 0800A6A9#0000000000000000
(1779322089.409204) can0 1000A6A9#0D028813324A4A4A
(1779322089.410255) can0 1C00A6A9#0000000000030000
(1779322089.411246) can0 02018100#1003020D00000000
(1779322089.412250) can0 02028100#0000003264000000
(1779322089.413262) can0 02038100#0CD601100CD30102
(1779322089.414243) can0 02048100#4A01014A01010000
(1779322089.415127) can0 1AD#8714000059321818
(1779322089.416121) can0 2AD#D60C800C87140016
(1779322089.417153) can0 3AD#0000000000008714
(1779322089.418167) can0 4AD#EB00000000000000
(1779322089.419157) can0 76A#7F00000000000000
(1779322089.481850) can0 0000E005#1702440003B60591
(1779322089.482395) can0 1806E5F4#13CC010003B6023A
(1779322089.483234) can0 0000E000#13CC13CC020D0000
(1779322089.484227) can0 0000E004#181803B603B601E1
(1779322089.485214) can0 0000E006#0CD50CD30CD30CD3
(1779322089.486208) can0 0000E007#0CD50CD50CD50CD5
(1779322089.487209) can0 0000E008#0CD50CD50CD50CD3
(1779322089.488207) can0 0000E009#0CD50CD50CD50CD6
(1779322089.489254) can0 0000E010#0000000000000000
(1779322089.490285) can0 0000E011#0000000000000000
(1779322089.491234) can0 0000E012#0CD4000200000000
(1779322089.492259) can0 0000F001#0000000000000000
(1779322089.493247) can0 18FF28F4#10320000020D0000
(1779322089.494231) can0 18FE28F4#0CD60CD340400000
(1779322089.495249) can0 18FD28F4#1702FA6F00000000
(1779322089.496142) can0 4D4#000032007D0D0203
(1779322089.497125) can0 4D5#D30CD60C40400000
(1779322089.498273) can0 18914010#0CD6100CD3020000
(1779322089.499222) can0 18904010#020D020D753001FA
(1779322089.500234) can0 18FA28F4#123EA12C10270000
(1779322089.501221) can0 18FB28F4#D60CD30C40400000
(1779322089.502247) can0 18FC28F4#383200000D020000
(1779322089.503215) can0 18F810F3#0D02E80332640100
(1779322089.504262) can0 18F815F3#0000000010030000
(1779322089.505148) can0 273#000000000D023200
(1779322089.506177) can0 1E1#020D271001FA01FA
(1779322089.507158) can0 1F5#0000000000000000
(1779322089.508250) can0 0800A6A9#0000000000000000
(1779322089.509203) can0 1000A6A9#0D028813324A4A4A
(1779322089.510235) can0 1C00A6A9#0000000000030000
(1779322089.511247) can0 02018100#1003020D00000000
(1779322089.512247) can0 02028100#0000003264000000
(1779322089.513228) can0 02038100#0CD601100CD30102
(1779322089.514228) can0 02048100#4A01014A01010000
(1779322089.515127) can0 1AD#8714000059321818
(1779322089.516117) can0 2AD#D60C800C87140016
(1779322089.517152) can0 3AD#0000000000008714
(1779322089.518152) can0 4AD#EB00000000000000
(1779322089.519165) can0 76A#7F00000000000000
(1779322089.581796) can0 0000E005#1702440003B60591
(1779322089.582340) can0 1806E5F4#13CC010003B6023A
(1779322089.583290) can0 0000E000#13CC13CC020D0000
(1779322089.584219) can0 0000E004#181803B603B601E1
(1779322089.585201) can0 0000E006#0CD50CD30CD30CD3
(1779322089.586200) can0 0000E007#0CD30CD30CD50CD5
(1779322089.587213) can0 0000E008#0CD50CD50CD50CD3
(1779322089.588214) can0 0000E009#0CD50CD50CD50CD6
(1779322089.589257) can0 0000E010#0000000000000000
(1779322089.590259) can0 0000E011#0000000000000000
(1779322089.591245) can0 0000E012#0CD4000200000000
(1779322089.592258) can0 0000F001#0000000000000000
(1779322089.593232) can0 18FF28F4#10320000020D0000
(1779322089.594220) can0 18FE28F4#0CD60CD340400000
(1779322089.595240) can0 18FD28F4#1702FA6F00000000
(1779322089.596156) can0 4D4#000032007D0D0203
(1779322089.597137) can0 4D5#D30CD60C40400000
(1779322089.598233) can0 18914010#0CD6100CD3020000
(1779322089.599234) can0 18904010#020D020D753001FA
(1779322089.600227) can0 18FA28F4#123EA12C10270000
(1779322089.601221) can0 18FB28F4#D60CD30C40400000
(1779322089.602239) can0 18FC28F4#383200000D020000
(1779322089.603208) can0 18F810F3#0D02E80332640100
(1779322089.604252) can0 18F815F3#0000000010030000
(1779322089.605139) can0 273#000000000D023200
(1779322089.606138) can0 1E1#020D271001FA01FA
(1779322089.607170) can0 1F5#0000000000000000
(1779322089.608247) can0 0800A6A9#0000000000000000
(1779322089.609214) can0 1000A6A9#0D028813324A4A4A
(1779322089.610247) can0 1C00A6A9#0000000000030000
(1779322089.611247) can0 02018100#1003020D00000000
(1779322089.612265) can0 02028100#0000003264000000
(1779322089.613237) can0 02038100#0CD601100CD30102
(1779322089.614234) can0 02048100#4A01014A01010000
(1779322089.615123) can0 1AD#8714000059321818
(1779322089.616131) can0 2AD#D60C800C87140016
(1779322089.617150) can0 3AD#0000000000008714
(1779322089.618176) can0 4AD#EB00000000000000
(1779322089.619160) can0 76A#7F00000000000000
(1779322089.681803) can0 0000E005#1702440003B60591
(1779322089.682336) can0 1806E5F4#13CC010003B6023A
(1779322089.683237) can0 0000E000#13CC13CC020D0000
(1779322089.684218) can0 0000E004#181803B603B601E1
(1779322089.685198) can0 0000E006#0CD50CD30CD30CD3
(1779322089.686195) can0 0000E007#0CD30CD30CD50CD5
(1779322089.687213) can0 0000E008#0CD50CD50CD50CD3
(1779322089.688193) can0 0000E009#0CD50CD50CD50CD6
(1779322089.689256) can0 0000E010#0000000000000000
(1779322089.690251) can0 0000E011#0000000000000000
(1779322089.691238) can0 0000E012#0CD4000200000000
(1779322089.692250) can0 0000F001#0000000000000000
(1779322089.693237) can0 18FF28F4#10320000020D0000
(1779322089.694218) can0 18FE28F4#0CD60CD340400000
(1779322089.695233) can0 18FD28F4#1702FA6F00000000
(1779322089.696149) can0 4D4#000032007D0D0203
(1779322089.697129) can0 4D5#D30CD60C40400000
(1779322089.698225) can0 18914010#0CD6100CD3020000
(1779322089.699225) can0 18904010#020D020D753001FA
(1779322089.700225) can0 18FA28F4#123EA12C10270000
(1779322089.701219) can0 18FB28F4#D60CD30C40400000
(1779322089.702231) can0 18FC28F4#383200000D020000
(1779322089.703200) can0 18F810F3#0D02E80332640100
(1779322089.704251) can0 18F815F3#0000000010030000
(1779322089.705172) can0 273#000000000D023200
(1779322089.706131) can0 1E1#020D271001FA01FA
(1779322089.707162) can0 1F5#0000000000000000
(1779322089.708238) can0 0800A6A9#0000000000000000
(1779322089.709206) can0 1000A6A9#0D028813324A4A4A
(1779322089.710232) can0 1C00A6A9#0000000000030000
(1779322089.711239) can0 02018100#1003020D00000000
