(1779049196.495823) can0 0000E005#1702450003B60591
(1779049196.496411) can0 1806E5F4#13E6010003B6023A
(1779049196.497308) can0 0000E000#13E613E6020E0000
(1779049196.498257) can0 0000E004#181703B603B601E3
(1779049196.499256) can0 0000E006#0CDC0CDC0CDC0CDC
(1779049196.500258) can0 0000E007#0CDC0CDC0CDC0CDC
(1779049196.501250) can0 0000E008#0CDC0CDC0CDC0CDC
(1779049196.502251) can0 0000E009#0CDC0CDC0CDC0CDC
(1779049196.503291) can0 0000E010#0000000000000000
(1779049196.504295) can0 0000E011#0000000000000000
(1779049196.505309) can0 0000E012#0CDC000000000000
(1779049196.506292) can0 0000F001#0000000000000000
(1779049196.507270) can0 18FF28F4#10320000020E0000
(1779049196.508270) can0 18FE28F4#0CDC0CDC403F0000
(1779049196.509270) can0 18FD28F4#1702FA6F00000000
(1779049196.510184) can0 4D4#000032007D0E0203
(1779049196.511159) can0 4D5#DC0CDC0C3F400000
(1779049196.512257) can0 18914010#0CDC100CDC010000
(1779049196.513309) can0 18904010#020E020E753001FD
(1779049196.514258) can0 18FA28F4#123EA12C10270000
(1779049196.515253) can0 18FB28F4#DC0CDC0C403F0000
(1779049196.516270) can0 18FC28F4#383200000E020000
(1779049196.517251) can0 18F810F3#0E02E80332640100
(1779049196.518277) can0 18F815F3#0000000010030000
(1779049196.519181) can0 273#000000000E023200
(1779049196.520176) can0 1E1#020E271001FD01FD
(1779049196.521194) can0 1F5#0000000000000000
(1779049196.522292) can0 0800A6A9#0000000000000000
(1779049196.523237) can0 1000A6A9#0E028813324A4949
(1779049196.524265) can0 1C00A6A9#0000000000030000
(1779049196.525277) can0 02018100#1003020E00000000
(1779049196.526277) can0 02028100#0000003264000000
(1779049196.527269) can0 02038100#0CDC01100CDC0101
(1779049196.528271) can0 02048100#4A01034901010000
(1779049196.529156) can0 1AD#9314000059321818
(1779049196.530169) can0 2AD#DC0C800C93140016
(1779049196.531181) can0 3AD#0000000000009314
(1779049196.532193) can0 4AD#EB00000000000000
(1779049196.533189) can0 76A#7F00000000000000
(1779049196.595857) can0 0000E005#1702450003B60591
(1779049196.596435) can0 1806E5F4#13E6010003B6023A
(1779049196.597271) can0 0000E000#13E613E6020E0000
(1779049196.598253) can0 0000E004#181703B603B601E3
(1779049196.599252) can0 0000E006#0CDC0CDC0CDC0CDC
(1779049196.600245) can0 0000E007#0CDC0CDC0CDC0CDC
(1779049196.601247) can0 0000E008#0CDC0CDC0CDC0CDC
(1779049196.602248) can0 0000E009#0CDC0CDC0CDC0CDC
(1779049196.603291) can0 0000E010#0000000000000000
(1779049196.604290) can0 0000E011#0000000000000000
(1779049196.605272) can0 0000E012#0CDC000000000000
(1779049196.606284) can0 0000F001#0000000000000000
(1779049196.607265) can0 18FF28F4#10320000020E0000
(1779049196.608244) can0 18FE28F4#0CDC0CDC403F0000
(1779049196.609266) can0 18FD28F4#1702FA6F00000000
(1779049196.610183) can0 4D4#000032007D0E0203
(1779049196.611164) can0 4D5#DC0CDC0C3F400000
(1779049196.612255) can0 18914010#0CDC100CDC010000
(1779049196.613253) can0 18904010#020E020E753001FD
(1779049196.614253) can0 18FA28F4#123EA12C10270000
(1779049196.615252) can0 18FB28F4#DC0CDC0C403F0000
(1779049196.616266) can0 18FC28F4#383200000E020000
(1779049196.617246) can0 18F810F3#0E02E80332640100
(1779049196.618273) can0 18F815F3#0000000010030000
(1779049196.619177) can0 273#000000000E023200
(1779049196.620167) can0 1E1#020E271001FD01FD
(1779049196.621189) can0 1F5#0000000000000000
(1779049196.622284) can0 0800A6A9#0000000000000000
(1779049196.623234) can0 1000A6A9#0E028813324A4949
(1779049196.624260) can0 1C00A6A9#0000000000030000
(1779049196.625279) can0 02018100#1003020E00000000
(1779049196.626273) can0 02028100#0000003264000000
(1779049196.627272) can0 02038100#0CDC01100CDC0101
(1779049196.628253) can0 02048100#4A01034901010000
(1779049196.629151) can0 1AD#9314000059321818
(1779049196.630146) can0 2AD#DC0C800C93140016
(1779049196.631176) can0 3AD#0000000000009314
(1779049196.632189) can0 4AD#EB00000000000000
(1779049196.633184) can0 76A#7F00000000000000
(1779049196.712793) can0 0000E005#1702450003B60591
(1779049196.713377) can0 1806E5F4#13E6010003B6023A
(1779049196.714249) can0 0000E000#13E613E6020E0000
(1779049196.715248) can0 0000E004#181703B603B601E3
(1779049196.716248) can0 0000E006#0CDC0CDC0CDC0CDC
(1779049196.717248) can0 0000E007#0CDC0CDC0CDC0CDC
(1779049196.718244) can0 0000E008#0CDC0CDC0CDC0CDC
(1779049196.719244) can0 0000E009#0CDC0CDC0CDC0CDC
(1779049196.720300) can0 0000E010#0000000000000000
(1779049196.721260) can0 0000E011#0000000000000000
(1779049196.722270) can0 0000E012#0CDC000000000000
(1779049196.723232) can0 0000E013#4542323630354C43
(1779049196.724243) can0 0000E014#3134323300000000
(1779049196.725271) can0 0000E015#0000000000000003
(1779049196.726276) can0 0000F000#0000000000000000
(1779049196.727268) can0 0000F001#0000000000000000
(1779049196.728287) can0 18FF28F4#10320000020E0000
(1779049196.729251) can0 18FE28F4#0CDC0CDC403F0000
(1779049196.730250) can0 18FD28F4#1702FA6F00000000
(1779049196.731167) can0 4D4#000032007D0E0203
(1779049196.732160) can0 4D5#DC0CDC0C3F400000
(1779049196.733238) can0 18914010#0CDC100CDC010000
(1779049196.734236) can0 18904010#020E020E753001FD
(1779049196.735256) can0 18924010#40033F0100000000
(1779049196.736281) can0 18934010#000000A80000BD0E
(1779049196.737258) can0 18944010#1003000000000000
(1779049196.738281) can0 18954010#0000000000000000
(1779049196.739275) can0 18954010#0100000000000000
(1779049196.740275) can0 18954010#0200000000000000
(1779049196.741275) can0 18954010#0300000000000000
(1779049196.742268) can0 18954010#0400000000000000
(1779049196.743268) can0 18954010#0500000000000000
(1779049196.744312) can0 18964010#003F3F4000000000
(1779049196.745253) can0 18974010#0000000000000000
(1779049196.746256) can0 18984010#0000000000000000
(1779049196.747237) can0 18FA28F4#123EA12C10270000
(1779049196.748250) can0 18FB28F4#DC0CDC0C403F0000
(1779049196.749241) can0 18FC28F4#383200000E020000
(1779049196.750244) can0 18F810F3#0E02E80332640100
(1779049196.751236) can0 18F811F3#DC0C1001DC0C0101
(1779049196.752249) can0 18F812F3#4003013F01010000
(1779049196.753262) can0 18F813F3#0101000000000000
(1779049196.754244) can0 18F814F3#3200EA1AA9015F00
(1779049196.755256) can0 18F815F3#0000000010030000
(1779049196.756174) can0 273#000000000E023200
(1779049196.757148) can0 1E1#020E271001FD01FD
(1779049196.758179) can0 1F5#0000000000000000
(1779049196.759256) can0 0800A6A9#0000000000000000
(1779049196.760224) can0 1000A6A9#0E028813324A4949
(1779049196.761251) can0 1C00A6A9#0000000000030000
(1779049196.762269) can0 02018100#1003020E00000000
(1779049196.763269) can0 02028100#0000003264000000
(1779049196.764250) can0 02038100#0CDC01100CDC0101
(1779049196.765244) can0 02048100#4A01034901010000
(1779049196.766148) can0 1AD#9314000059321818
(1779049196.767146) can0 2AD#DC0C800C93140016
(1779049196.768155) can0 3AD#0000000000009314
(1779049196.769170) can0 4AD#EB00000000000000
(1779049196.770168) can0 76A#7F00000000000000
(1779049196.828827) can0 0000E005#1702450003B60591
(1779049196.829412) can0 1806E5F4#13E6010003B6023A
(1779049196.830245) can0 0000E000#13E613E6020E0000
(1779049196.831232) can0 0000E004#181703B603B601E3
(1779049196.832227) can0 0000E006#0CDC0CDC0CDC0CDC
(1779049196.833226) can0 0000E007#0CDC0CDC0CDC0CDC
(1779049196.834245) can0 0000E008#0CDC0CDC0CDC0CDC
(1779049196.835226) can0 0000E009#0CDC0CDC0CDC0CDC
(1779049196.836270) can0 0000E010#0000000000000000
(1779049196.837265) can0 0000E011#0000000000000000
(1779049196.838242) can0 0000E012#0CDC000000000000
(1779049196.839264) can0 0000F001#0000000000000000
(1779049196.840258) can0 18FF28F4#10320000020E0000
(1779049196.841246) can0 18FE28F4#0CDC0CDC403F0000
(1779049196.842239) can0 18FD28F4#1702FA6F00000000
(1779049196.843157) can0 4D4#000032007D0E0203
(1779049196.844157) can0 4D5#DC0CDC0C3F400000
(1779049196.845233) can0 18914010#0CDC100CDC010000
(1779049196.846233) can0 18904010#020E020E753001FD
(1779049196.847245) can0 18FA28F4#123EA12C10270000
(1779049196.848245) can0 18FB28F4#DC0CDC0C403F0000
(1779049196.849239) can0 18FC28F4#383200000E020000
(1779049196.850233) can0 18F810F3#0E02E80332640100
(1779049196.851271) can0 18F815F3#0000000010030000
(1779049196.852156) can0 273#000000000E023200
(1779049196.853150) can0 1E1#020E271001FD01FD
(1779049196.854177) can0 1F5#0000000000000000
(1779049196.855258) can0 0800A6A9#0000000000000000
(1779049196.856230) can0 1000A6A9#0E028813324A4949
(1779049196.857259) can0 1C00A6A9#0000000000030000
(1779049196.858272) can0 02018100#1003020E00000000
(1779049196.859252) can0 02028100#0000003264000000
(1779049196.860246) can0 02038100#0CDC01100CDC0101
(1779049196.861246) can0 02048100#4A01034901010000
(1779049196.862128) can0 1AD#9314000059321818
(1779049196.863144) can0 2AD#DC0C800C93140016
(1779049196.864151) can0 3AD#0000000000009314
(1779049196.865169) can0 4AD#EB00000000000000
(1779049196.866178) can0 76A#7F00000000000000
(1779049196.928781) can0 0000E005#1702450003B60591
(1779049196.929363) can0 1806E5F4#13E6010003B6023A
(1779049196.930247) can0 0000E000#13E613E6020E0000
(1779049196.931228) can0 0000E004#181703B603B601E3
(1779049196.932228) can0 0000E006#0CDC0CDC0CDC0CDC
(1779049196.933228) can0 0000E007#0CDC0CDC0CDC0CDC
(1779049196.934222) can0 0000E008#0CDC0CDC0CDC0CDC
(1779049196.935219) can0 0000E009#0CDC0CDC0CDC0CDC
(1779049196.936266) can0 0000E010#0000000000000000
(1779049196.937266) can0 0000E011#0000000000000000
(1779049196.938248) can0 0000E012#0CDC000000000000
(1779049196.939254) can0 0000F001#0000000000000000
(1779049196.940241) can0 18FF28F4#10320000020E0000
(1779049196.941241) can0 18FE28F4#0CDC0CDC403F0000
(1779049196.942235) can0 18FD28F4#1702FA6F00000000
(1779049196.943171) can0 4D4#000032007D0E0203
(1779049196.944152) can0 4D5#DC0CDC0C3F400000
(1779049196.945228) can0 18914010#0CDC100CDC010000
(1779049196.946228) can0 18904010#020E020E753001FD
(1779049196.947220) can0 18FA28F4#123EA12C10270000
(1779049196.948241) can0 18FB28F4#DC0CDC0C403F0000
(1779049196.949234) can0 18FC28F4#383200000E020000
(1779049196.950223) can0 18F810F3#0E02E80332640100
(1779049196.951278) can0 18F815F3#0000000010030000
(1779049196.952152) can0 273#000000000E023200
(1779049196.953146) can0 1E1#020E271001FD01FD
(1779049196.954159) can0 1F5#0000000000000000
(1779049196.955254) can0 0800A6A9#0000000000000000
(1779049196.956203) can0 1000A6A9#0E028813324A4949
(1779049196.957249) can0 1C00A6A9#0000000000030000
(1779049196.958248) can0 02018100#1003020E00000000
(1779049196.959275) can0 02028100#0000003264000000
(1779049196.960242) can0 02038100#0CDC01100CDC0101
(1779049196.961241) can0 02048100#4A01034901010000
(1779049196.962127) can0 1AD#9314000059321818
(1779049196.963131) can0 2AD#DC0C800C93140016
(1779049196.964146) can0 3AD#0000000000009314
(1779049196.965159) can0 4AD#EB00000000000000
(1779049196.966159) can0 76A#7F00000000000000
(1779049197.028798) can0 0000E005#1702450003B60591
(1779049197.029374) can0 1806E5F4#13E6010003B6023A
(1779049197.030244) can0 0000E000#13E613E6020E0000
(1779049197.031224) can0 0000E004#181703B603B601E3
(1779049197.032215) can0 0000E006#0CDC0CDC0CDC0CDC
(1779049197.033219) can0 0000E007#0CDC0CDC0CDC0CDC
(1779049197.034218) can0 0000E008#0CDC0CDC0CDC0CDC
(1779049197.035212) can0 0000E009#0CDC0CDC0CDC0CDC
(1779049197.036288) can0 0000E010#0000000000000000
(1779049197.037256) can0 0000E011#0000000000000000
(1779049197.038238) can0 0000E012#0CDC000000000000
(1779049197.039256) can0 0000F001#0000000000000000
(1779049197.040250) can0 18FF28F4#10320000020E0000
(1779049197.041231) can0 18FE28F4#0CDC0CDC403F0000
(1779049197.042231) can0 18FD28F4#1702FA6F00000000
(1779049197.043148) can0 4D4#000032007D0E0203
(1779049197.044177) can0 4D5#DC0CDC0C3F400000
(1779049197.045224) can0 18914010#0CDC100CDC010000
(1779049197.046219) can0 18904010#020E020E753001FD
(1779049197.047218) can0 18FA28F4#123EA12C10270000
(1779049197.048227) can0 18FB28F4#DC0CDC0C403F0000
(1779049197.049231) can0 18FC28F4#383200000E020000
(1779049197.050212) can0 18F810F3#0E02E80332640100
(1779049197.051243) can0 18F815F3#0000000010030000
(1779049197.052192) can0 273#000000000E023200
(1779049197.053142) can0 1E1#020E271001FD01FD
(1779049197.054159) can0 1F5#0000000000000000
(1779049197.055251) can0 0800A6A9#0000000000000000
(1779049197.056193) can0 1000A6A9#0E028813324A4949
(1779049197.057243) can0 1C00A6A9#0000000000030000
(1779049197.058244) can0 02018100#1003020E00000000
(1779049197.059238) can0 02028100#0000003264000000
(1779049197.060242) can0 02038100#0CDC01100CDC0101
(1779049197.061233) can0 02048100#4A01034901010000
(1779049197.062117) can0 1AD#9314000059321818
(1779049197.063129) can0 2AD#DC0C800C93140016
(1779049197.064146) can0 3AD#0000000000009314
(1779049197.065155) can0 4AD#EB00000000000000
(1779049197.066148) can0 76A#7F00000000000000
(1779049197.128819) can0 0000E005#1702450003B60591
(1779049197.129396) can0 1806E5F4#13E6010003B6023A
(1779049197.130233) can0 0000E000#13E613E6020E0000
(1779049197.131213) can0 0000E004#181703B603B601E3
(1779049197.132214) can0 0000E006#0CDC0CDC0CDC0CDC
(1779049197.133206) can0 0000E007#0CDC0CDC0CDC0CDC
(1779049197.134227) can0 0000E008#0CDC0CDC0CDC0CDC
(1779049197.135207) can0 0000E009#0CDC0CDC0CDC0CDC
(1779049197.136251) can0 0000E010#0000000000000000
(1779049197.137251) can0 0000E011#0000000000000000
(1779049197.138234) can0 0000E012#0CDC000000000000
(1779049197.139245) can0 0000F001#0000000000000000
(1779049197.140226) can0 18FF28F4#10320000020E0000
(1779049197.141217) can0 18FE28F4#0CDC0CDC403F0000
(1779049197.142227) can0 18FD28F4#1702FA6F00000000
(1779049197.143139) can0 4D4#000032007D0E0203
(1779049197.144138) can0 4D5#DC0CDC0C3F400000
(1779049197.145214) can0 18914010#0CDC100CDC010000
(1779049197.146214) can0 18904010#020E020E753001FD
(1779049197.147226) can0 18FA28F4#123EA12C10270000
(1779049197.148227) can0 18FB28F4#DC0CDC0C403F0000
(1779049197.149220) can0 18FC28F4#383200000E020000
(1779049197.150203) can0 18F810F3#0E02E80332640100
(1779049197.151234) can0 18F815F3#0000000010030000
(1779049197.152140) can0 273#000000000E023200
(1779049197.153127) can0 1E1#020E271001FD01FD
(1779049197.154144) can0 1F5#0000000000000000
(1779049197.155240) can0 0800A6A9#0000000000000000
(1779049197.156188) can0 1000A6A9#0E028813324A4949
(1779049197.157219) can0 1C00A6A9#0000000000030000
(1779049197.158253) can0 02018100#1003020E00000000
(1779049197.159233) can0 02028100#0000003264000000
(1779049197.160230) can0 02038100#0CDC01100CDC0101
(1779049197.161227) can0 02048100#4A01034901010000
(1779049197.162107) can0 1AD#9314000059321818
(1779049197.163125) can0 2AD#DC0C800C93140016
(1779049197.164131) can0 3AD#0000000000009314
(1779049197.165141) can0 4AD#EB00000000000000
(1779049197.166158) can0 76A#7F00000000000000
(1779049197.245814) can0 0000E005#1702450003B60591
(1779049197.246396) can0 1806E5F4#13E6010003B6023A
(1779049197.247216) can0 0000E000#13E613E6020E0000
(1779049197.248217) can0 0000E004#181703B603B601E3
(1779049197.249216) can0 0000E006#0CDC0CDC0CDC0CDC
(1779049197.250211) can0 0000E007#0CDC0CDC0CDC0CDC
(1779049197.251228) can0 0000E008#0CDC0CDC0CDC0CDC
(1779049197.252210) can0 0000E009#0CDC0CDC0CDC0CDC
(1779049197.253236) can0 0000E010#0000000000000000
(1779049197.254237) can0 0000E011#0000000000000000
(1779049197.255226) can0 0000E012#0CDC000000000000
(1779049197.256197) can0 0000E013#4542323630354C43
(1779049197.257210) can0 0000E014#3134323300000000
(1779049197.258230) can0 0000E015#0000000000000003
(1779049197.259270) can0 0000F000#0000000000000000
(1779049197.260241) can0 0000F001#0000000000000000
(1779049197.261223) can0 18FF28F4#10320000020E0000
(1779049197.262217) can0 18FE28F4#0CDC0CDC403F0000
(1779049197.263217) can0 18FD28F4#1702FA6F00000000
(1779049197.264134) can0 4D4#000032007D0E0203
(1779049197.265133) can0 4D5#DC0CDC0C3F400000
(1779049197.266211) can0 18914010#0CDC100CDC010000
(1779049197.267235) can0 18904010#020E020E753001FD
(1779049197.268223) can0 18924010#40033F0100000000
(1779049197.269203) can0 18934010#000000A90000BD0E
(1779049197.270235) can0 18944010#1003000000000000
(1779049197.271239) can0 18954010#0000000000000000
(1779049197.272242) can0 18954010#0100000000000000
(1779049197.273241) can0 18954010#0200000000000000
(1779049197.274242) can0 18954010#0300000000000000
(1779049197.275267) can0 18954010#0400000000000000
(1779049197.276235) can0 18954010#0500000000000000
(1779049197.277229) can0 18964010#003F3F4000000000
(1779049197.278230) can0 18974010#0000000000000000
(1779049197.279219) can0 18984010#0000000000000000
(1779049197.280203) can0 18FA28F4#123EA12C10270000
(1779049197.281210) can0 18FB28F4#DC0CDC0C403F0000
(1779049197.282219) can0 18FC28F4#383200000E020000
(1779049197.283197) can0 18F810F3#0E02E80332640100
(1779049197.284210) can0 18F811F3#DC0C1001DC0C0101
(1779049197.285224) can0 18F812F3#4003013F01010000
(1779049197.286237) can0 18F813F3#0101000000000000
(1779049197.287198) can0 18F814F3#3200EA1AA9015F00
(1779049197.288223) can0 18F815F3#0000000010030000
(1779049197.289128) can0 273#000000000E023200
(1779049197.290121) can0 1E1#020E271001FD01FD
(1779049197.291153) can0 1F5#0000000000000000
(1779049197.292230) can0 0800A6A9#0000000000000000
(1779049197.293191) can0 1000A6A9#0E028813324A4949
(1779049197.294217) can0 1C00A6A9#0000000000030000
(1779049197.295236) can0 02018100#1003020E00000000
(1779049197.296236) can0 02028100#0000003264000000
(1779049197.297217) can0 02038100#0CDC01100CDC0101
(1779049197.298217) can0 02048100#4A01034901010000
(1779049197.299096) can0 1AD#9314000059321818
(1779049197.300115) can0 2AD#DC0C800C93140016
(1779049197.301128) can0 3AD#0000000000009314
(1779049197.302138) can0 4AD#EB00000000000000
(1779049197.303141) can0 76A#7F00000000000000
(1779049197.361753) can0 0000E005#1702450003B60591
(1779049197.362341) can0 1806E5F4#13E6010003B6023A
(1779049197.363217) can0 0000E000#13E613E6020E0000
(1779049197.364205) can0 0000E004#181703B603B601E3
(1779049197.365205) can0 0000E006#0CDC0CDC0CDC0CDC
(1779049197.366200) can0 0000E007#0CDC0CDC0CDC0CDC
(1779049197.367199) can0 0000E008#0CDC0CDC0CDC0CDC
(1779049197.368199) can0 0000E009#0CDC0CDC0CDC0CDC
(1779049197.369244) can0 0000E010#0000000000000000
(1779049197.370238) can0 0000E011#0000000000000000
(1779049197.371222) can0 0000E012#0CDC000000000000
(1779049197.372237) can0 0000F001#0000000000000000
(1779049197.373218) can0 18FF28F4#10320000020E0000
(1779049197.374200) can0 18FE28F4#0CDC0CDC403F0000
(1779049197.375211) can0 18FD28F4#1702FA6F00000000
(1779049197.376129) can0 4D4#000032007D0E0203
(1779049197.377110) can0 4D5#DC0CDC0C3F400000
(1779049197.378206) can0 18914010#0CDC100CDC010000
(1779049197.379206) can0 18904010#020E020E753001FD
(1779049197.380200) can0 18FA28F4#123EA12C10270000
(1779049197.381199) can0 18FB28F4#DC0CDC0C403F0000
(1779049197.382213) can0 18FC28F4#383200000E020000
(1779049197.383191) can0 18F810F3#0E02E80332640100
(1779049197.384226) can0 18F815F3#0000000010030000
(1779049197.385123) can0 273#000000000E023200
(1779049197.386124) can0 1E1#020E271001FD01FD
(1779049197.387134) can0 1F5#0000000000000000
(1779049197.388232) can0 0800A6A9#0000000000000000
(1779049197.389200) can0 1000A6A9#0E028813324A4949
(1779049197.390213) can0 1C00A6A9#0000000000030000
(1779049197.391225) can0 02018100#1003020E00000000
(1779049197.392225) can0 02028100#0000003264000000
(1779049197.393206) can0 02038100#0CDC01100CDC0101
(1779049197.394200) can0 02048100#4A01034901010000
(1779049197.395094) can0 1AD#9314000059321818
(1779049197.396098) can0 2AD#DC0C800C93140016
(1779049197.397143) can0 3AD#0000000000009314
(1779049197.398136) can0 4AD#EB00000000000000
(1779049197.399127) can0 76A#7F00000000000000
(1779049197.461771) can0 0000E005#1702450003B60591
(1779049197.462349) can0 1806E5F4#13E6010003B6023A
(1779049197.463205) can0 0000E000#13E613E6020E0000
(1779049197.464203) can0 0000E004#181703B603B601E3
(1779049197.465203) can0 0000E006#0CDC0CDC0CDC0CDC
(1779049197.466197) can0 0000E007#0CDC0CDC0CDC0CDC
(1779049197.467196) can0 0000E008#0CDC0CDC0CDC0CDC
(1779049197.468186) can0 0000E009#0CDC0CDC0CDC0CDC
(1779049197.469239) can0 0000E010#0000000000000000
(1779049197.470220) can0 0000E011#0000000000000000
(1779049197.471219) can0 0000E012#0CDC000000000000
(1779049197.472228) can0 0000F001#0000000000000000
(1779049197.473214) can0 18FF28F4#10320000020E0000
(1779049197.474215) can0 18FE28F4#0CDC0CDC403F0000
(1779049197.475209) can0 18FD28F4#1702FA6F00000000
(1779049197.476113) can0 4D4#000032007D0E0203
(1779049197.477107) can0 4D5#DC0CDC0C3F400000
(1779049197.478203) can0 18914010#0CDC100CDC010000
(1779049197.479202) can0 18904010#020E020E753001FD
(1779049197.480194) can0 18FA28F4#123EA12C10270000
(1779049197.481203) can0 18FB28F4#DC0CDC0C403F0000
(1779049197.482230) can0 18FC28F4#383200000E020000
(1779049197.483196) can0 18F810F3#0E02E80332640100
(1779049197.484221) can0 18F815F3#0000000010030000
(1779049197.485126) can0 273#000000000E023200
(1779049197.486108) can0 1E1#020E271001FD01FD
(1779049197.487139) can0 1F5#0000000000000000
(1779049197.488216) can0 0800A6A9#0000000000000000
(1779049197.489184) can0 1000A6A9#0E028813324A4949
(1779049197.490247) can0 1C00A6A9#0000000000030000
(1779049197.491228) can0 02018100#1003020E00000000
(1779049197.492217) can0 02028100#0000003264000000
(1779049197.493202) can0 02038100#0CDC01100CDC0101
(1779049197.494202) can0 02048100#4A01034901010000
(1779049197.495101) can0 1AD#9314000059321818
(1779049197.496090) can0 2AD#DC0C800C93140016
(1779049197.497106) can0 3AD#0000000000009314
(1779049197.498157) can0 4AD#EB00000000000000
(1779049197.499121) can0 76A#7F00000000000000
(1779049197.561783) can0 0000E005#1702450003B60591
(1779049197.562370) can0 1806E5F4#13E6010003B6023A
(1779049197.563203) can0 0000E000#13E613E6020E0000
(1779049197.564204) can0 0000E004#181703B603B601E3
(1779049197.565181) can0 0000E006#0CDC0CDC0CDC0CDC
(1779049197.566198) can0 0000E007#0CDC0CDC0CDC0CDC
(1779049197.567210) can0 0000E008#0CDC0CDC0CDC0CDC
(1779049197.568179) can0 0000E009#0CDC0CDC0CDC0CDC
(1779049197.569216) can0 0000E010#0000000000000000
(1779049197.570223) can0 0000E011#0000000000000000
(1779049197.571203) can0 0000E012#0CDC000000000000
(1779049197.572216) can0 0000F001#0000000000000000
(1779049197.573197) can0 18FF28F4#10320000020E0000
(1779049197.574197) can0 18FE28F4#0CDC0CDC403F0000
(1779049197.575242) can0 18FD28F4#1702FA6F00000000
(1779049197.576108) can0 4D4#000032007D0E0203
(1779049197.577105) can0 4D5#DC0CDC0C3F400000
(1779049197.578184) can0 18914010#0CDC100CDC010000
(1779049197.579185) can0 18904010#020E020E753001FD
(1779049197.580197) can0 18FA28F4#123EA12C10270000
(1779049197.581190) can0 18FB28F4#DC0CDC0C403F0000
(1779049197.582192) can0 18FC28F4#383200000E020000
(1779049197.583223) can0 18F810F3#0E02E80332640100
(1779049197.584204) can0 18F815F3#0000000010030000
(1779049197.585102) can0 273#000000000E023200
(1779049197.586102) can0 1E1#020E271001FD01FD
(1779049197.587114) can0 1F5#0000000000000000
(1779049197.588210) can0 0800A6A9#0000000000000000
(1779049197.589158) can0 1000A6A9#0E028813324A4949
(1779049197.590210) can0 1C00A6A9#0000000000030000
(1779049197.591204) can0 02018100#1003020E00000000
(1779049197.592203) can0 02028100#0000003264000000
(1779049197.593193) can0 02038100#0CDC01100CDC0101
(1779049197.594203) can0 02048100#4A01034901010000
(1779049197.595077) can0 1AD#9314000059321818
(1779049197.596090) can0 2AD#DC0C800C93140016
(1779049197.597102) can0 3AD#0000000000009314
(1779049197.598117) can0 4AD#EB00000000000000
(1779049197.599115) can0 76A#7F00000000000000
(1779049197.661752) can0 0000E005#1702450003B60591
(1779049197.662319) can0 1806E5F4#13E6010003B6023A
(1779049197.663193) can0 0000E000#13E613E6020E0000
(1779049197.664193) can0 0000E004#181703B603B601E3
(1779049197.665174) can0 0000E006#0CDC0CDC0CDC0CDC
(1779049197.666186) can0 0000E007#0CDC0CDC0CDC0CDC
(1779049197.667186) can0 0000E008#0CDC0CDC0CDC0CDC
(1779049197.668168) can0 0000E009#0CDC0CDC0CDC0CDC
(1779049197.669213) can0 0000E010#0000000000000000
(1779049197.670212) can0 0000E011#0000000000000000
(1779049197.671206) can0 0000E012#0CDC000000000000
(1779049197.672219) can0 0000F001#0000000000000000
(1779049197.673200) can0 18FF28F4#10320000020E0000
(1779049197.674183) can0 18FE28F4#0CDC0CDC403F0000
(1779049197.675200) can0 18FD28F4#1702FA6F00000000
(1779049197.676098) can0 4D4#000032007D0E0203
(1779049197.677098) can0 4D5#DC0CDC0C3F400000
(1779049197.678187) can0 18914010#0CDC100CDC010000
(1779049197.679174) can0 18904010#020E020E753001FD
(1779049197.680187) can0 18FA28F4#123EA12C10270000
(1779049197.681181) can0 18FB28F4#DC0CDC0C403F0000
(1779049197.682200) can0 18FC28F4#383200000E020000
(1779049197.683181) can0 18F810F3#0E02E80332640100
(1779049197.684206) can0 18F815F3#0000000010030000
(1779049197.685117) can0 273#000000000E023200
(1779049197.686086) can0 1E1#020E271001FD01FD
(1779049197.687124) can0 1F5#0000000000000000
(1779049197.688200) can0 0800A6A9#0000000000000000
(1779049197.689162) can0 1000A6A9#0E028813324A4949
(1779049197.690195) can0 1C00A6A9#0000000000030000
(1779049197.691206) can0 02018100#1003020E00000000
(1779049197.692206) can0 02028100#0000003264000000
(1779049197.693187) can0 02038100#0CDC01100CDC0101
(1779049197.694182) can0 02048100#4A01034901010000
(1779049197.695086) can0 1AD#9314000059321818
(1779049197.696079) can0 2AD#DC0C800C93140016
(1779049197.697111) can0 3AD#0000000000009314
(1779049197.698099) can0 4AD#EB00000000000000
(1779049197.699117) can0 76A#7F00000000000000
(1779049197.778731) can0 0000E005#1702450003B60591
(1779049197.779311) can0 1806E5F4#13E6010003B6023A
(1779049197.780182) can0 0000E000#13E613E6020E0000
(1779049197.781178) can0 0000E004#181703B603B601E3
(1779049197.782196) can0 0000E006#0CDC0CDC0CDC0CDC
(1779049197.783176) can0 0000E007#0CDC0CDC0CDC0CDC
(1779049197.784170) can0 0000E008#0CDC0CDC0CDC0CDC
(1779049197.785170) can0 0000E009#0CDC0CDC0CDC0CDC
(1779049197.786215) can0 0000E010#0000000000000000
(1779049197.787195) can0 0000E011#0000000000000000
(1779049197.788193) can0 0000E012#0CDC000000000000
(1779049197.789164) can0 0000E013#4542323630354C43
(1779049197.790210) can0 0000E014#3134323300000000
(1779049197.791208) can0 0000E015#0000000000000003
(1779049197.792195) can0 0000F000#0000000000000000
(1779049197.793212) can0 0000F001#0000000000000000
(1779049197.794199) can0 18FF28F4#10320000020E0000
(1779049197.795178) can0 18FE28F4#0CDC0CDC403F0000
(1779049197.796177) can0 18FD28F4#1702FA6F00000000
(1779049197.797094) can0 4D4#000032007D0E0203
(1779049197.798126) can0 4D5#DC0CDC0C3F400000
(1779049197.799170) can0 18914010#0CDC100CDC010000
(1779049197.800163) can0 18904010#020E020E753001FD
(1779049197.801183) can0 18924010#40033F0100000000
(1779049197.802178) can0 18934010#000000AA0000BD0E
(1779049197.803195) can0 18944010#1003000000000000
(1779049197.804205) can0 18954010#0000000000000000
(1779049197.805202) can0 18954010#0100000000000000
(1779049197.806235) can0 18954010#0200000000000000
(1779049197.807202) can0 18954010#0300000000000000
(1779049197.808196) can0 18954010#0400000000000000
(1779049197.809196) can0 18954010#0500000000000000
(1779049197.810191) can0 18964010#003F3F4000000000
(1779049197.811203) can0 18974010#0000000000000000
(1779049197.812193) can0 18984010#0000000000000000
(1779049197.813164) can0 18FA28F4#123EA12C10270000
(1779049197.814229) can0 18FB28F4#DC0CDC0C403F0000
(1779049197.815190) can0 18FC28F4#383200000E020000
(1779049197.816167) can0 18F810F3#0E02E80332640100
(1779049197.817184) can0 18F811F3#DC0C1001DC0C0101
(1779049197.818178) can0 18F812F3#4003013F01010000
(1779049197.819190) can0 18F813F3#0101000000000000
(1779049197.820170) can0 18F814F3#3200EA1AA9015F00
(1779049197.821203) can0 18F815F3#0000000010030000
(1779049197.822101) can0 273#000000000E023200
(1779049197.823082) can0 1E1#020E271001FD01FD
(1779049197.824103) can0 1F5#0000000000000000
(1779049197.825190) can0 0800A6A9#0000000000000000
(1779049197.826154) can0 1000A6A9#0E028813324A4949
(1779049197.827185) can0 1C00A6A9#0000000000030000
(1779049197.828190) can0 02018100#1003020E00000000
(1779049197.829197) can0 02028100#0000003264000000
(1779049197.830178) can0 02038100#0CDC01100CDC0101
(1779049197.831177) can0 02048100#4A01034901010000
(1779049197.832076) can0 1AD#9314000059321818
(1779049197.833075) can0 2AD#DC0C800C93140016
(1779049197.834088) can0 3AD#0000000000009314
(1779049197.835101) can0 4AD#EB00000000000000
(1779049197.836095) can0 76A#7F00000000000000
(1779049197.894725) can0 0000E005#1702450003B60591
(1779049197.895314) can0 1806E5F4#13E6010003B6023A
(1779049197.896179) can0 0000E000#13E613E6020E0000
(1779049197.897175) can0 0000E004#181703B603B601E3
(1779049197.898174) can0 0000E006#0CDC0CDC0CDC0CDC
(1779049197.899172) can0 0000E007#0CDC0CDC0CDC0CDC
(1779049197.900173) can0 0000E008#0CDC0CDC0CDC0CDC
(1779049197.901154) can0 0000E009#0CDC0CDC0CDC0CDC
(1779049197.902203) can0 0000E010#0000000000000000
(1779049197.903203) can0 0000E011#0000000000000000
(1779049197.904192) can0 0000E012#0CDC000000000000
(1779049197.905204) can0 0000F001#0000000000000000
(1779049197.906192) can0 18FF28F4#10320000020E0000
(1779049197.907173) can0 18FE28F4#0CDC0CDC403F0000
(1779049197.908186) can0 18FD28F4#1702FA6F00000000
(1779049197.909082) can0 4D4#000032007D0E0203
(1779049197.910085) can0 4D5#DC0CDC0C3F400000
(1779049197.911180) can0 18914010#0CDC100CDC010000
(1779049197.912160) can0 18904010#020E020E753001FD
(1779049197.913174) can0 18FA28F4#123EA12C10270000
(1779049197.914174) can0 18FB28F4#DC0CDC0C403F0000
(1779049197.915187) can0 18FC28F4#383200000E020000
(1779049197.916167) can0 18F810F3#0E02E80332640100
(1779049197.917198) can0 18F815F3#0000000010030000
(1779049197.918097) can0 273#000000000E023200
(1779049197.919078) can0 1E1#020E271001FD01FD
(1779049197.920110) can0 1F5#0000000000000000
(1779049197.921187) can0 0800A6A9#0000000000000000
(1779049197.922155) can0 1000A6A9#0E028813324A4949
(1779049197.923181) can0 1C00A6A9#0000000000030000
(1779049197.924199) can0 02018100#1003020E00000000
(1779049197.925193) can0 02028100#0000003264000000
(1779049197.926174) can0 02038100#0CDC01100CDC0101
(1779049197.927173) can0 02048100#4A01034901010000
(1779049197.928068) can0 1AD#9314000059321818
(1779049197.929066) can0 2AD#DC0C800C93140016
(1779049197.930098) can0 3AD#0000000000009314
(1779049197.931091) can0 4AD#EB00000000000000
(1779049197.932085) can0 76A#7F00000000000000
(1779049197.994767) can0 0000E005#1702450003B60591
(1779049197.995354) can0 1806E5F4#13E6010003B6023A
(1779049197.996168) can0 0000E000#13E613E6020E0000
(1779049197.997168) can0 0000E004#181703B603B601E3
(1779049197.998150) can0 0000E006#0CDC0CDC0CDC0CDC
(1779049197.999162) can0 0000E007#0CDC0CDC0CDC0CDC
(1779049198.000162) can0 0000E008#0CDC0CDC0CDC0CDC
(1779049198.001152) can0 0000E009#0CDC0CDC0CDC0CDC
(1779049198.002187) can0 0000E010#0000000000000000
(1779049198.003188) can0 0000E011#0000000000000000
(1779049198.004192) can0 0000E012#0CDC000000000000
(1779049198.005192) can0 0000F001#0000000000000000
(1779049198.006181) can0 18FF28F4#10320000020E0000
(1779049198.007162) can0 18FE28F4#0CDC0CDC403F0000
(1779049198.008175) can0 18FD28F4#1702FA6F00000000
(1779049198.009073) can0 4D4#000032007D0E0203
(1779049198.010074) can0 4D5#DC0CDC0C3F400000
(1779049198.011169) can0 18914010#0CDC100CDC010000
(1779049198.012149) can0 18904010#020E020E753001FD
(1779049198.013175) can0 18FA28F4#123EA12C10270000
(1779049198.014163) can0 18FB28F4#DC0CDC0C403F0000
(1779049198.015176) can0 18FC28F4#383200000E020000
(1779049198.016157) can0 18F810F3#0E02E80332640100
(1779049198.017186) can0 18F815F3#0000000010030000
(1779049198.018087) can0 273#000000000E023200
(1779049198.019073) can0 1E1#020E271001FD01FD
(1779049198.020104) can0 1F5#0000000000000000
(1779049198.021214) can0 0800A6A9#0000000000000000
(1779049198.022149) can0 1000A6A9#0E028813324A4949
(1779049198.023175) can0 1C00A6A9#0000000000030000
(1779049198.024188) can0 02018100#1003020E00000000
(1779049198.025183) can0 02028100#0000003264000000
(1779049198.026169) can0 02038100#0CDC01100CDC0101
(1779049198.027165) can0 02048100#4A01034901010000
(1779049198.028049) can0 1AD#9314000059321818
(1779049198.029087) can0 2AD#DC0C800C93140016
(1779049198.030074) can0 3AD#0000000000009314
(1779049198.031087) can0 4AD#EB00000000000000
(1779049198.032080) can0 76A#7F00000000000000
(1779049198.094734) can0 0000E005#1702450003B60591
(1779049198.095319) can0 1806E5F4#13E6010003B6023A
(1779049198.096171) can0 0000E000#13E613E6020E0000
(1779049198.097152) can0 0000E004#181703B603B601E3
(1779049198.098177) can0 0000E006#0CDC0CDC0CDC0CDC
(1779049198.099146) can0 0000E007#0CDC0CDC0CDC0CDC
(1779049198.100158) can0 0000E008#0CDC0CDC0CDC0CDC
(1779049198.101139) can0 0000E009#0CDC0CDC0CDC0CDC
(1779049198.102181) can0 0000E010#0000000000000000
(1779049198.103183) can0 0000E011#0000000000000000
(1779049198.104164) can0 0000E012#0CDC000000000000
(1779049198.105184) can0 0000F001#0000000000000000
(1779049198.106209) can0 18FF28F4#10320000020E0000
(1779049198.107164) can0 18FE28F4#0CDC0CDC403F0000
(1779049198.108159) can0 18FD28F4#1702FA6F00000000
(1779049198.109076) can0 4D4#000032007D0E0203
(1779049198.110070) can0 4D5#DC0CDC0C3F400000
(1779049198.111152) can0 18914010#0CDC100CDC010000
(1779049198.112152) can0 18904010#020E020E753001FD
(1779049198.113165) can0 18FA28F4#123EA12C10270000
(1779049198.114203) can0 18FB28F4#DC0CDC0C403F0000
(1779049198.115158) can0 18FC28F4#383200000E020000
(1779049198.116140) can0 18F810F3#0E02E80332640100
(1779049198.117172) can0 18F815F3#0000000010030000
(1779049198.118070) can0 273#000000000E023200
(1779049198.119070) can0 1E1#020E271001FD01FD
(1779049198.120082) can0 1F5#0000000000000000
(1779049198.121178) can0 0800A6A9#0000000000000000
(1779049198.122125) can0 1000A6A9#0E028813324A4949
(1779049198.123171) can0 1C00A6A9#0000000000030000
(1779049198.124171) can0 02018100#1003020E00000000
(1779049198.125171) can0 02028100#0000003264000000
(1779049198.126158) can0 02038100#0CDC01100CDC0101
(1779049198.127165) can0 02048100#4A01034901010000
(1779049198.128045) can0 1AD#9314000059321818
(1779049198.129058) can0 2AD#DC0C800C93140016
(1779049198.130071) can0 3AD#0000000000009314
(1779049198.131082) can0 4AD#EB00000000000000
(1779049198.132076) can0 76A#7F00000000000000
(1779049198.194705) can0 0000E005#1702450003B60591
(1779049198.195292) can0 1806E5F4#13E6010003B6023A
(1779049198.196160) can0 0000E000#13E613E6020E0000
(1779049198.197141) can0 0000E004#181703B603B601E3
(1779049198.198141) can0 0000E006#0CDC0CDC0CDC0CDC
(1779049198.199137) can0 0000E007#0CDC0CDC0CDC0CDC
(1779049198.200155) can0 0000E008#0CDC0CDC0CDC0CDC
(1779049198.201135) can0 0000E009#0CDC0CDC0CDC0CDC
(1779049198.202180) can0 0000E010#0000000000000000
(1779049198.203180) can0 0000E011#0000000000000000
(1779049198.204160) can0 0000E012#0CDC000000000000
(1779049198.205174) can0 0000F001#0000000000000000
(1779049198.206173) can0 18FF28F4#10320000020E0000
(1779049198.207150) can0 18FE28F4#0CDC0CDC403F0000
(1779049198.208154) can0 18FD28F4#1702FA6F00000000
(1779049198.209071) can0 4D4#000032007D0E0203
(1779049198.210065) can0 4D5#DC0CDC0C3F400000
(1779049198.211137) can0 18914010#0CDC100CDC010000
(1779049198.212141) can0 18904010#020E020E753001FD
(1779049198.213154) can0 18FA28F4#123EA12C10270000
(1779049198.214154) can0 18FB28F4#DC0CDC0C403F0000
(1779049198.215155) can0 18FC28F4#383200000E020000
(1779049198.216148) can0 18F810F3#0E02E80332640100
(1779049198.217180) can0 18F815F3#0000000010030000
(1779049198.218078) can0 273#000000000E023200
(1779049198.219058) can0 1E1#020E271001FD01FD
(1779049198.220091) can0 1F5#0000000000000000
(1779049198.221167) can0 0800A6A9#0000000000000000
(1779049198.222136) can0 1000A6A9#0E028813324A4949
(1779049198.223160) can0 1C00A6A9#0000000000030000
(1779049198.224178) can0 02018100#1003020E00000000
(1779049198.225161) can0 02028100#0000003264000000
(1779049198.226161) can0 02038100#0CDC01100CDC0101
(1779049198.227155) can0 02048100#4A01034901010000
(1779049198.228054) can0 1AD#9314000059321818
(1779049198.229053) can0 2AD#DC0C800C93140016
(1779049198.230066) can0 3AD#0000000000009314
(1779049198.231073) can0 4AD#EB00000000000000
(1779049198.232072) can0 76A#7F00000000000000
(1779049198.311704) can0 0000E005#1702450003B60591
(1779049198.312285) can0 1806E5F4#13E6010003B6023A
(1779049198.313162) can0 0000E000#13E613E6020E0000
(1779049198.314151) can0 0000E004#181703B603B601E3
(1779049198.315132) can0 0000E006#0CDC0CDC0CDC0CDC
(1779049198.316150) can0 0000E007#0CDC0CDC0CDC0CDC
(1779049198.317144) can0 0000E008#0CDC0CDC0CDC0CDC
(1779049198.318125) can0 0000E009#0CDC0CDC0CDC0CDC
(1779049198.319176) can0 0000E010#0000000000000000
(1779049198.320170) can0 0000E011#0000000000000000
(1779049198.321167) can0 0000E012#0CDC000000000000
(1779049198.322119) can0 0000E013#4542323630354C43
(1779049198.323150) can0 0000E014#3134323300000000
(1779049198.324163) can0 0000E015#0000000000000003
(1779049198.325170) can0 0000F000#0000000000000000
(1779049198.326176) can0 0000F001#0000000000000000
(1779049198.327157) can0 18FF28F4#10320000020E0000
(1779049198.328141) can0 18FE28F4#0CDC0CDC403F0000
(1779049198.329183) can0 18FD28F4#1702FA6F00000000
(1779049198.330068) can0 4D4#000032007D0E0203
(1779049198.331049) can0 4D5#DC0CDC0C3F400000
(1779049198.332144) can0 18914010#0CDC100CDC010000
(1779049198.333136) can0 18904010#020E020E753001FD
(1779049198.334157) can0 18924010#40033F0100000000
(1779049198.335138) can0 18934010#000000AB0000BD0E
(1779049198.336150) can0 18944010#1003000000000000
(1779049198.337209) can0 18954010#0000000000000000
(1779049198.338177) can0 18954010#0100000000000000
(1779049198.339157) can0 18954010#0200000000000000
(1779049198.340176) can0 18954010#0300000000000000
(1779049198.341170) can0 18954010#0400000000000000
(1779049198.342170) can0 18954010#0500000000000000
(1779049198.343163) can0 18964010#003F3F4000000000
(1779049198.344163) can0 18974010#0000000000000000
(1779049198.345205) can0 18984010#0000000000000000
(1779049198.346139) can0 18FA28F4#123EA12C10270000
(1779049198.347138) can0 18FB28F4#DC0CDC0C403F0000
(1779049198.348151) can0 18FC28F4#383200000E020000
(1779049198.349125) can0 18F810F3#0E02E80332640100
(1779049198.350145) can0 18F811F3#DC0C1001DC0C0101
(1779049198.351139) can0 18F812F3#4003013F01010000
(1779049198.352164) can0 18F813F3#0101000000000000
(1779049198.353132) can0 18F814F3#3200EA1AA9015F00
(1779049198.354157) can0 18F815F3#0000000010030000
(1779049198.355062) can0 273#000000000E023200
(1779049198.356056) can0 1E1#020E271001FD01FD
(1779049198.357083) can0 1F5#0000000000000000
(1779049198.358165) can0 0800A6A9#0000000000000000
(1779049198.359126) can0 1000A6A9#0E028813324A4949
(1779049198.360157) can0 1C00A6A9#0000000000030000
(1779049198.361171) can0 02018100#1003020E00000000
(1779049198.362171) can0 02028100#0000003264000000
(1779049198.363151) can0 02038100#0CDC01100CDC0101
(1779049198.364151) can0 02048100#4A01034901010000
(1779049198.365030) can0 1AD#9314000059321818
(1779049198.366050) can0 2AD#DC0C800C93140016
(1779049198.367062) can0 3AD#0000000000009314
(1779049198.368075) can0 4AD#EB00000000000000
(1779049198.369069) can0 76A#7F00000000000000
(1779049198.429751) can0 0000E005#1702450003B60591
(1779049198.430314) can0 1806E5F4#13E6010003B6023A
(1779049198.431153) can0 0000E000#13E613E6020E0000
(1779049198.432127) can0 0000E004#181703B603B601E3
(1779049198.433127) can0 0000E006#0CDC0CDC0CDC0CDC
(1779049198.434128) can0 0000E007#0CDC0CDC0CDC0CDC
(1779049198.435127) can0 0000E008#0CDC0CDC0CDC0CDC
(1779049198.436121) can0 0000E009#0CDC0CDC0CDC0CDC
(1779049198.437172) can0 0000E010#0000000000000000
(1779049198.438166) can0 0000E011#0000000000000000
(1779049198.439147) can0 0000E012#0CDC000000000000
(1779049198.440162) can0 0000F001#0000000000000000
(1779049198.441146) can0 18FF28F4#10320000020E0000
(1779049198.442128) can0 18FE28F4#0CDC0CDC403F0000
(1779049198.443140) can0 18FD28F4#1702FA6F00000000
(1779049198.444051) can0 4D4#000032007D0E0203
(1779049198.445038) can0 4D5#DC0CDC0C3F400000
(1779049198.446134) can0 18914010#0CDC100CDC010000
(1779049198.447128) can0 18904010#020E020E753001FD
(1779049198.448141) can0 18FA28F4#123EA12C10270000
(1779049198.449128) can0 18FB28F4#DC0CDC0C403F0000
(1779049198.450141) can0 18FC28F4#383200000E020000
(1779049198.451122) can0 18F810F3#0E02E80332640100
(1779049198.452147) can0 18F815F3#0000000010030000
(1779049198.453052) can0 273#000000000E023200
(1779049198.454052) can0 1E1#020E271001FD01FD
(1779049198.455064) can0 1F5#0000000000000000
(1779049198.456156) can0 0800A6A9#0000000000000000
(1779049198.457109) can0 1000A6A9#0E028813324A4949
(1779049198.458142) can0 1C00A6A9#0000000000030000
(1779049198.459166) can0 02018100#1003020E00000000
(1779049198.460147) can0 02028100#0000003264000000
(1779049198.461147) can0 02038100#0CDC01100CDC0101
(1779049198.462141) can0 02048100#4A01034901010000
(1779049198.463026) can0 1AD#9314000059321818
(1779049198.464033) can0 2AD#DC0C800C93140016
(1779049198.465053) can0 3AD#0000000000009314
(1779049198.466066) can0 4AD#EB00000000000000
(1779049198.467079) can0 76A#7F00000000000000
(1779049198.529703) can0 0000E005#1702450003B60591
(1779049198.530276) can0 1806E5F4#13E6010003B6023A
(1779049198.531142) can0 0000E000#13E613E6020E0000
(1779049198.532123) can0 0000E004#181703B603B601E3
(1779049198.533117) can0 0000E006#0CDC0CDC0CDC0CDC
(1779049198.534117) can0 0000E007#0CDC0CDC0CDC0CDC
(1779049198.535130) can0 0000E008#0CDC0CDC0CDC0CDC
(1779049198.536129) can0 0000E009#0CDC0CDC0CDC0CDC
(1779049198.537156) can0 0000E010#0000000000000000
(1779049198.538156) can0 0000E011#0000000000000000
(1779049198.539136) can0 0000E012#0CDC000000000000
(1779049198.540149) can0 0000F001#0000000000000000
(1779049198.541144) can0 18FF28F4#10320000020E0000
(1779049198.542130) can0 18FE28F4#0CDC0CDC403F0000
(1779049198.543130) can0 18FD28F4#1702FA6F00000000
(1779049198.544059) can0 4D4#000032007D0E0203
(1779049198.545040) can0 4D5#DC0CDC0C3F400000
(1779049198.546137) can0 18914010#0CDC100CDC010000
(1779049198.547117) can0 18904010#020E020E753001FD
(1779049198.548135) can0 18FA28F4#123EA12C10270000
(1779049198.549129) can0 18FB28F4#DC0CDC0C403F0000
(1779049198.550130) can0 18FC28F4#383200000E020000
(1779049198.551123) can0 18F810F3#0E02E80332640100
(1779049198.552167) can0 18F815F3#0000000010030000
(1779049198.553060) can0 273#000000000E023200
(1779049198.554041) can0 1E1#020E271001FD01FD
(1779049198.555066) can0 1F5#0000000000000000
(1779049198.556153) can0 0800A6A9#0000000000000000
(1779049198.557111) can0 1000A6A9#0E028813324A4949
(1779049198.558143) can0 1C00A6A9#0000000000030000
(1779049198.559155) can0 02018100#1003020E00000000
(1779049198.560164) can0 02028100#0000003264000000
(1779049198.561136) can0 02038100#0CDC01100CDC0101
(1779049198.562130) can0 02048100#4A01034901010000
(1779049198.563015) can0 1AD#9314000059321818
(1779049198.564021) can0 2AD#DC0C800C93140016
(1779049198.565041) can0 3AD#0000000000009314
(1779049198.566054) can0 4AD#EB00000000000000
(1779049198.567047) can0 76A#7F00000000000000
(1779049198.629696) can0 0000E005#1702450003B60591
(1779049198.630261) can0 1806E5F4#13E6010003B6023A
(1779049198.631144) can0 0000E000#13E613E6020E0000
(1779049198.632125) can0 0000E004#181703B603B601E3
(1779049198.633120) can0 0000E006#0CDC0CDC0CDC0CDC
(1779049198.634119) can0 0000E007#0CDC0CDC0CDC0CDC
(1779049198.635120) can0 0000E008#0CDC0CDC0CDC0CDC
(1779049198.636113) can0 0000E009#0CDC0CDC0CDC0CDC
(1779049198.637192) can0 0000E010#0000000000000000
(1779049198.638145) can0 0000E011#0000000000000000
(1779049198.639138) can0 0000E012#0CDC000000000000
(1779049198.640151) can0 0000F001#0000000000000000
(1779049198.641132) can0 18FF28F4#10320000020E0000
(1779049198.642121) can0 18FE28F4#0CDC0CDC403F0000
(1779049198.643132) can0 18FD28F4#1702FA6F00000000
(1779049198.644049) can0 4D4#000032007D0E0203
(1779049198.645075) can0 4D5#DC0CDC0C3F400000
(1779049198.646126) can0 18914010#0CDC100CDC010000
(1779049198.647119) can0 18904010#020E020E753001FD
(1779049198.648119) can0 18FA28F4#123EA12C10270000
(1779049198.649115) can0 18FB28F4#DC0CDC0C403F0000
(1779049198.650133) can0 18FC28F4#383200000E020000
(1779049198.651113) can0 18F810F3#0E02E80332640100
(1779049198.652144) can0 18F815F3#0000000010030000
(1779049198.653094) can0 273#000000000E023200
(1779049198.654025) can0 1E1#020E271001FD01FD
(1779049198.655056) can0 1F5#0000000000000000
(1779049198.656134) can0 0800A6A9#0000000000000000
(1779049198.657098) can0 1000A6A9#0E028813324A4949
(1779049198.658133) can0 1C00A6A9#0000000000030000
(1779049198.659145) can0 02018100#1003020E00000000
(1779049198.660138) can0 02028100#0000003264000000
(1779049198.661132) can0 02038100#0CDC01100CDC0101
(1779049198.662119) can0 02048100#4A01034901010000
(1779049198.663018) can0 1AD#9314000059321818
(1779049198.664011) can0 2AD#DC0C800C93140016
(1779049198.665043) can0 3AD#0000000000009314
(1779049198.666057) can0 4AD#EB00000000000000
(1779049198.667049) can0 76A#7F00000000000000
(1779049198.729734) can0 0000E005#1702450003B60591
(1779049198.730309) can0 1806E5F4#13E6010003B6023A
(1779049198.731134) can0 0000E000#13E613E6020E0000
(1779049198.732115) can0 0000E004#181703B603B601E3
(1779049198.733115) can0 0000E006#0CDC0CDC0CDC0CDC
(1779049198.734103) can0 0000E007#0CDC0CDC0CDC0CDC
(1779049198.735113) can0 0000E008#0CDC0CDC0CDC0CDC
(1779049198.736109) can0 0000E009#0CDC0CDC0CDC0CDC
(1779049198.737153) can0 0000E010#0000000000000000
(1779049198.738147) can0 0000E011#0000000000000000
(1779049198.739128) can0 0000E012#0CDC000000000000
(1779049198.740146) can0 0000F001#0000000000000000
(1779049198.741128) can0 18FF28F4#10320000020E0000
(1779049198.742109) can0 18FE28F4#0CDC0CDC403F0000
(1779049198.743122) can0 18FD28F4#1702FA6F00000000
(1779049198.744038) can0 4D4#000032007D0E0203
(1779049198.745019) can0 4D5#DC0CDC0C3F400000
(1779049198.746111) can0 18914010#0CDC100CDC010000
(1779049198.747116) can0 18904010#020E020E753001FD
(1779049198.748109) can0 18FA28F4#123EA12C10270000
(1779049198.749109) can0 18FB28F4#DC0CDC0C403F0000
(1779049198.750122) can0 18FC28F4#383200000E020000
(1779049198.751102) can0 18F810F3#0E02E80332640100
(1779049198.752134) can0 18F815F3#0000000010030000
(1779049198.753032) can0 273#000000000E023200
(1779049198.754032) can0 1E1#020E271001FD01FD
(1779049198.755046) can0 1F5#0000000000000000
(1779049198.756141) can0 0800A6A9#0000000000000000
(1779049198.757090) can0 1000A6A9#0E028813324A4949
(1779049198.758120) can0 1C00A6A9#0000000000030000
(1779049198.759134) can0 02018100#1003020E00000000
(1779049198.760135) can0 02028100#0000003264000000
(1779049198.761128) can0 02038100#0CDC01100CDC0101
(1779049198.762129) can0 02048100#4A01034901010000
(1779049198.763007) can0 1AD#9314000059321818
(1779049198.764020) can0 2AD#DC0C800C93140016
(1779049198.765033) can0 3AD#0000000000009314
(1779049198.766040) can0 4AD#EB00000000000000
(1779049198.767046) can0 76A#7F00000000000000
(1779049198.839893) can0 00000E00#00354C4331343233
(1779049198.847693) can0 0000E005#1702450003B60591
(1779049198.848247) can0 1806E5F4#13E6010003B6023A
(1779049198.849117) can0 0000E000#13E613E6020E0000
(1779049198.850111) can0 0000E004#181703B603B601E3
(1779049198.851110) can0 0000E006#0CDC0CDC0CDC0CDC
(1779049198.852123) can0 0000E007#0CDC0CDC0CDC0CDC
(1779049198.853104) can0 0000E008#0CDC0CDC0CDC0CDC
(1779049198.854104) can0 0000E009#0CDC0CDC0CDC0CDC
(1779049198.855136) can0 0000E010#0000000000000000
(1779049198.856125) can0 0000E011#0000000000000000
(1779049198.857130) can0 0000E012#0CDC000000000000
(1779049198.858092) can0 0000E013#4542323630354C43
(1779049198.859111) can0 0000E014#3134323300000000
(1779049198.860153) can0 0000E015#0000000000000003
(1779049198.861136) can0 0000F000#0000000000000000
(1779049198.862139) can0 0000F001#0000000000000000
(1779049198.863130) can0 18FF28F4#10320000020E0000
(1779049198.864117) can0 18FE28F4#0CDC0CDC403F0000
(1779049198.865111) can0 18FD28F4#1702FA6F00000000
(1779049198.866029) can0 4D4#000032007D0E0203
(1779049198.867009) can0 4D5#DC0CDC0C3F400000
(1779049198.868133) can0 18914010#0CDC100CDC010000
(1779049198.869105) can0 18904010#020E020E753001FD
(1779049198.870119) can0 18924010#40023F0100000000
(1779049198.871099) can0 18934010#000000AC0000BD0E
(1779049198.872121) can0 18944010#1003000000000000
(1779049198.873137) can0 18954010#0000000000000000
(1779049198.874136) can0 18954010#0100000000000000
(1779049198.875131) can0 18954010#0200000000000000
(1779049198.876191) can0 18954010#0300000000000000
(1779049198.877137) can0 18954010#0400000000000000
(1779049198.878125) can0 18954010#0500000000000000
(1779049198.879119) can0 18964010#003F404000000000
(1779049198.880126) can0 18974010#0000000000000000
(1779049198.881131) can0 18984010#0000000000000000
(1779049198.882094) can0 18FA28F4#123EA12C10270000
(1779049198.883106) can0 18FB28F4#DC0CDC0C403F0000
(1779049198.884113) can0 18FC28F4#383200000E020000
(1779049198.885099) can0 18F810F3#0E02E80332640100
(1779049198.886112) can0 18F811F3#DC0C1001DC0C0101
(1779049198.887106) can0 18F812F3#4002013F01010000
(1779049198.888125) can0 18F813F3#0101000000000000
(1779049198.889107) can0 18F814F3#3200EA1AA9015F00
(1779049198.890119) can0 18F815F3#0000000010030000
(1779049198.891035) can0 273#000000000E023200
(1779049198.892012) can0 1E1#020E271001FD01FD
(1779049198.893049) can0 1F5#0000000000000000
(1779049198.894131) can0 0800A6A9#0000000000000000
(1779049198.895093) can0 1000A6A9#0E028813324A4949
(1779049198.896114) can0 1C00A6A9#0000000000030000
(1779049198.897119) can0 02018100#1003020E00000000
(1779049198.898119) can0 02028100#0000003264000000
(1779049198.899113) can0 02038100#0CDC01100CDC0101
(1779049198.900112) can0 02048100#4A01024901010000
(1779049198.900998) can0 1AD#9314000059321818
(1779049198.901998) can0 2AD#DC0C800C93140016
(1779049198.903023) can0 3AD#0000000000009314
(1779049198.904020) can0 4AD#EB00000000000000
(1779049198.905036) can0 76A#7F00000000000000
(1779049198.963699) can0 0000E005#1702450003B60591
(1779049198.964293) can0 1806E5F4#13E6010003B6023A
(1779049198.965106) can0 0000E000#13E613E6020E0000
(1779049198.966108) can0 0000E004#181703B603B601E3
