(1779323041.531730) can0 4D5#D20CD20C40400000
(1779323041.532800) can0 18914010#0CD20E0CD2010000
(1779323041.533801) can0 18904010#020D020D753001F8
(1779323041.534816) can0 18FA28F4#123EA12C10270000
(1779323041.535805) can0 18FB28F4#D20CD20C40400000
(1779323041.536818) can0 18FC28F4#383200000D020000
(1779323041.537791) can0 18F810F3#0D02E80332640100
(1779323041.538835) can0 18F815F3#0000000010030000
(1779323041.539723) can0 273#000000000D023200
(1779323041.540718) can0 1E1#020D271001F801F8
(1779323041.541742) can0 1F5#0000000000000000
(1779323041.542813) can0 0800A6A9#0000000000000000
(1779323041.543787) can0 1000A6A9#0D028813324A4A4A
(1779323041.544830) can0 1C00A6A9#0000000000030000
(1779323041.545819) can0 02018100#1003020D00000000
(1779323041.546826) can0 02028100#0000003264000000
(1779323041.547804) can0 02038100#0CD2010E0CD20101
(1779323041.548814) can0 02048100#4A01014A01010000
(1779323041.549711) can0 1AD#8314000059321818
(1779323041.550715) can0 2AD#D20C800C83140016
(1779323041.551725) can0 3AD#0000000000008314
(1779323041.552737) can0 4AD#EB00000000000000
(1779323041.553732) can0 76A#7F00000000000000
(1779323041.616068) can0 0000E005#1702440003B60591
(1779323041.616804) can0 1806E5F4#13B3010003B6023A
(1779323041.617820) can0 0000E000#13B313B3020D0000
(1779323041.618851) can0 0000E004#181803B603B601DF
(1779323041.619815) can0 0000E006#0CD20CD20CD20CD2
(1779323041.620812) can0 0000E007#0CD20CD20CD20CD2
(1779323041.621809) can0 0000E008#0CD20CD20CD20CD2
(1779323041.622806) can0 0000E009#0CD20CD20CD20CD2
(1779323041.623835) can0 0000E010#0000000000000000
(1779323041.624828) can0 0000E011#0000000000000000
(1779323041.625829) can0 0000E012#0CD2000000000000
(1779323041.626838) can0 0000F001#0000000000000000
(1779323041.627818) can0 18FF28F4#10320000020D0000
(1779323041.628806) can0 18FE28F4#0CD20CD240400000
(1779323041.629820) can0 18FD28F4#1702FA6F00000000
(1779323041.630730) can0 4D4#000032007D0D0203
(1779323041.631719) can0 4D5#D20CD20C40400000
(1779323041.632800) can0 18914010#0CD20E0CD2010000
(1779323041.633796) can0 18904010#020D020D753001F8
(1779323041.634820) can0 18FA28F4#123EA12C10270000
(1779323041.635797) can0 18FB28F4#D20CD20C40400000
(1779323041.636832) can0 18FC28F4#383200000D020000
(1779323041.637796) can0 18F810F3#0D02E80332640100
(1779323041.638827) can0 18F815F3#0000000010030000
(1779323041.639729) can0 273#000000000D023200
(1779323041.640717) can0 1E1#020D271001F801F8
(1779323041.641743) can0 1F5#0000000000000000
(1779323041.642844) can0 0800A6A9#0000000000000000
(1779323041.643792) can0 1000A6A9#0D028813324A4A4A
(1779323041.644815) can0 1C00A6A9#0000000000030000
(1779323041.645835) can0 02018100#1003020D00000000
(1779323041.646829) can0 02028100#0000003264000000
(1779323041.647814) can0 02038100#0CD2010E0CD20101
(1779323041.648806) can0 02048100#4A01014A01010000
(1779323041.649713) can0 1AD#8314000059321818
(1779323041.650727) can0 2AD#D20C800C83140016
(1779323041.651731) can0 3AD#0000000000008314
(1779323041.652721) can0 4AD#EB00000000000000
(1779323041.653748) can0 76A#7F00000000000000
(1779323041.732071) can0 0000E005#1702440003B60591
(1779323041.732799) can0 1806E5F4#13B3010003B6023A
(1779323041.733814) can0 0000E000#13B313B3020D0000
(1779323041.734813) can0 0000E004#181803B603B601DF
(1779323041.735800) can0 0000E006#0CD20CD20CD20CD2
(1779323041.736804) can0 0000E007#0CD20CD20CD20CD2
(1779323041.737789) can0 0000E008#0CD20CD20CD20CD2
(1779323041.738789) can0 0000E009#0CD20CD20CD20CD3
(1779323041.739833) can0 0000E010#0000000000000000
(1779323041.740828) can0 0000E011#0000000000000000
(1779323041.741812) can0 0000E012#0CD2000100000000
(1779323041.742781) can0 0000E013#4542323630354C43
(1779323041.743805) can0 0000E014#3134323300000000
(1779323041.744824) can0 0000E015#0000000000000003
(1779323041.745839) can0 0000F000#0000000000000000
(1779323041.746822) can0 0000F001#0000000000000000
(1779323041.747848) can0 18FF28F4#10320000020D0000
(1779323041.748790) can0 18FE28F4#0CD30CD240400000
(1779323041.749805) can0 18FD28F4#1702FA6F00000000
(1779323041.750716) can0 4D4#000032007D0D0203
(1779323041.751701) can0 4D5#D20CD30C40400000
(1779323041.752801) can0 18914010#0CD3100CD2010000
(1779323041.753800) can0 18904010#020D020D753001F8
(1779323041.754813) can0 18924010#4001400100000000
(1779323041.755812) can0 18934010#000000290000BB2C
(1779323041.756825) can0 18944010#1003000000000000
(1779323041.757838) can0 18954010#0000000000000000
(1779323041.758832) can0 18954010#0100000000000000
(1779323041.759831) can0 18954010#0200000000000000
(1779323041.760822) can0 18954010#0300000000000000
(1779323041.761826) can0 18954010#0400000000000000
(1779323041.762813) can0 18954010#0500000000000000
(1779323041.763826) can0 18964010#0040404000000000
(1779323041.764818) can0 18974010#0000000000000000
(1779323041.765818) can0 18984010#0000000000000000
(1779323041.766797) can0 18FA28F4#123EA12C10270000
(1779323041.767791) can0 18FB28F4#D30CD20C40400000
(1779323041.768804) can0 18FC28F4#383200000D020000
(1779323041.769786) can0 18F810F3#0D02E80332640100
(1779323041.770798) can0 18F811F3#D30C1001D20C0101
(1779323041.771790) can0 18F812F3#4001014001010000
(1779323041.772804) can0 18F813F3#0101000000000000
(1779323041.773784) can0 18F814F3#3200EA1AA9015F00
(1779323041.774816) can0 18F815F3#0000000010030000
(1779323041.775693) can0 273#000000000D023200
(1779323041.776696) can0 1E1#020D271001F801F8
(1779323041.777726) can0 1F5#0000000000000000
(1779323041.778804) can0 0800A6A9#0000000000000000
(1779323041.779772) can0 1000A6A9#0D028813324A4A4A
(1779323041.780797) can0 1C00A6A9#0000000000030000
(1779323041.781797) can0 02018100#1003020D00000000
(1779323041.782816) can0 02028100#0000003264000000
(1779323041.783802) can0 02038100#0CD301100CD20101
(1779323041.784798) can0 02048100#4A01014A01010000
(1779323041.785702) can0 1AD#8314000059321818
(1779323041.786702) can0 2AD#D30C800C83140016
(1779323041.787706) can0 3AD#0000000000008314
(1779323041.788715) can0 4AD#EB00000000000000
(1779323041.789727) can0 76A#7F00000000000000
(1779323041.848080) can0 0000E005#1702440003B60591
(1779323041.848781) can0 1806E5F4#13B3010003B6023A
(1779323041.849801) can0 0000E000#13B313B3020D0000
(1779323041.850811) can0 0000E004#181803B603B601DF
(1779323041.851777) can0 0000E006#0CD20CD20CD20CD2
(1779323041.852790) can0 0000E007#0CD20CD20CD20CD2
(1779323041.853789) can0 0000E008#0CD20CD20CD20CD2
(1779323041.854769) can0 0000E009#0CD20CD20CD20CD3
(1779323041.855830) can0 0000E010#0000000000000000
(1779323041.856819) can0 0000E011#0000000000000000
(1779323041.857800) can0 0000E012#0CD2000100000000
(1779323041.858829) can0 0000F001#0000000000000000
(1779323041.859814) can0 18FF28F4#10320000020D0000
(1779323041.860776) can0 18FE28F4#0CD30CD240400000
(1779323041.861790) can0 18FD28F4#1702FA6F00000000
(1779323041.862713) can0 4D4#000032007D0D0203
(1779323041.863693) can0 4D5#D20CD30C40400000
(1779323041.864783) can0 18914010#0CD3100CD2010000
(1779323041.865790) can0 18904010#020D020D753001F8
(1779323041.866815) can0 18FA28F4#123EA12C10270000
(1779323041.867783) can0 18FB28F4#D30CD20C40400000
(1779323041.868808) can0 18FC28F4#383200000D020000
(1779323041.869781) can0 18F810F3#0D02E80332640100
(1779323041.870815) can0 18F815F3#0000000010030000
(1779323041.871715) can0 273#000000000D023200
(1779323041.872715) can0 1E1#020D271001F801F8
(1779323041.873727) can0 1F5#0000000000000000
(1779323041.874806) can0 0800A6A9#0000000000000000
(1779323041.875772) can0 1000A6A9#0D028813324A4A4A
(1779323041.876799) can0 1C00A6A9#0000000000030000
(1779323041.877816) can0 02018100#1003020D00000000
(1779323041.878814) can0 02028100#0000003264000000
(1779323041.879797) can0 02038100#0CD301100CD20101
(1779323041.880792) can0 02048100#4A01014A01010000
(1779323041.881701) can0 1AD#8314000059321818
(1779323041.882699) can0 2AD#D30C800C83140016
(1779323041.883734) can0 3AD#0000000000008314
(1779323041.884724) can0 4AD#EB00000000000000
(1779323041.885724) can0 76A#7F00000000000000
(1779323041.948014) can0 0000E005#1702440003B60591
(1779323041.948769) can0 1806E5F4#13B3010003B6023A
(1779323041.949780) can0 0000E000#13B313B3020D0000
(1779323041.950799) can0 0000E004#181803B603B601DF
(1779323041.951780) can0 0000E006#0CD20CD20CD20CD2
(1779323041.952781) can0 0000E007#0CD20CD20CD20CD2
(1779323041.953771) can0 0000E008#0CD20CD20CD20CD2
(1779323041.954774) can0 0000E009#0CD20CD20CD20CD3
(1779323041.955806) can0 0000E010#0000000000000000
(1779323041.956807) can0 0000E011#0000000000000000
(1779323041.957787) can0 0000E012#0CD2000100000000
(1779323041.958819) can0 0000F001#0000000000000000
(1779323041.959800) can0 18FF28F4#10320000020D0000
(1779323041.960769) can0 18FE28F4#0CD30CD240400000
(1779323041.961774) can0 18FD28F4#1702FA6F00000000
(1779323041.962698) can0 4D4#000032007D0D0203
(1779323041.963678) can0 4D5#D20CD30C40400000
(1779323041.964775) can0 18914010#0CD3100CD2010000
(1779323041.965771) can0 18904010#020D020D753001F8
(1779323041.966774) can0 18FA28F4#123EA12C10270000
(1779323041.967769) can0 18FB28F4#D30CD20C40400000
(1779323041.968800) can0 18FC28F4#383200000D020000
(1779323041.969769) can0 18F810F3#0D02E80332640100
(1779323041.970801) can0 18F815F3#0000000010030000
(1779323041.971704) can0 273#000000000D023200
(1779323041.972699) can0 1E1#020D271001F801F8
(1779323041.973707) can0 1F5#0000000000000000
(1779323041.974795) can0 0800A6A9#0000000000000000
(1779323041.975756) can0 1000A6A9#0D028813324A4A4A
(1779323041.976788) can0 1C00A6A9#0000000000030000
(1779323041.977803) can0 02018100#1003020D00000000
(1779323041.978801) can0 02028100#0000003264000000
(1779323041.979781) can0 02038100#0CD301100CD20101
(1779323041.980782) can0 02048100#4A01014A01010000
(1779323041.981679) can0 1AD#8314000059321818
(1779323041.982680) can0 2AD#D30C800C83140016
(1779323041.983711) can0 3AD#0000000000008314
(1779323041.984706) can0 4AD#EB00000000000000
(1779323041.985699) can0 76A#7F00000000000000
(1779323042.047994) can0 0000E005#1702440003B60591
(1779323042.048767) can0 1806E5F4#13B3010003B6023A
(1779323042.049792) can0 0000E000#13B313B3020D0000
(1779323042.050790) can0 0000E004#181803B603B601DF
(1779323042.051773) can0 0000E006#0CD20CD20CD20CD2
(1779323042.052780) can0 0000E007#0CD20CD20CD20CD2
(1779323042.053774) can0 0000E008#0CD20CD20CD20CD2
(1779323042.054773) can0 0000E009#0CD20CD20CD20CD2
(1779323042.055817) can0 0000E010#0000000000000000
(1779323042.056799) can0 0000E011#0000000000000000
(1779323042.057798) can0 0000E012#0CD2000000000000
(1779323042.058809) can0 0000F001#0000000000000000
(1779323042.059792) can0 18FF28F4#10320000020D0000
(1779323042.060779) can0 18FE28F4#0CD20CD240400000
(1779323042.061792) can0 18FD28F4#1702FA6F00000000
(1779323042.062691) can0 4D4#000032007D0D0203
(1779323042.063689) can0 4D5#D20CD20C40400000
(1779323042.064773) can0 18914010#0CD2090CD2010000
(1779323042.065767) can0 18904010#020D020D753001F8
(1779323042.066786) can0 18FA28F4#123EA12C10270000
(1779323042.067779) can0 18FB28F4#D20CD20C40400000
(1779323042.068793) can0 18FC28F4#383200000D020000
(1779323042.069761) can0 18F810F3#0D02E80332640100
(1779323042.070803) can0 18F815F3#0000000010030000
(1779323042.071690) can0 273#000000000D023200
(1779323042.072691) can0 1E1#020D271001F801F8
(1779323042.073723) can0 1F5#0000000000000000
(1779323042.074794) can0 0800A6A9#0000000000000000
(1779323042.075748) can0 1000A6A9#0D028813324A4A4A
(1779323042.076799) can0 1C00A6A9#0000000000030000
(1779323042.077793) can0 02018100#1003020D00000000
(1779323042.078793) can0 02028100#0000003264000000
(1779323042.079774) can0 02038100#0CD201090CD20101
(1779323042.080787) can0 02048100#4A01014A01010000
(1779323042.081685) can0 1AD#8314000059321818
(1779323042.082683) can0 2AD#D20C800C83140016
(1779323042.083710) can0 3AD#0000000000008314
(1779323042.084710) can0 4AD#EB00000000000000
(1779323042.085711) can0 76A#7F00000000000000
(1779323042.147994) can0 0000E005#1702440003B60591
(1779323042.148759) can0 1806E5F4#13B3010003B6023A
(1779323042.149791) can0 0000E000#13B313B3020D0000
(1779323042.150790) can0 0000E004#181803B603B601DF
(1779323042.151771) can0 0000E006#0CD20CD20CD20CD2
(1779323042.152771) can0 0000E007#0CD20CD20CD20CD2
(1779323042.153771) can0 0000E008#0CD20CD20CD20CD2
(1779323042.154765) can0 0000E009#0CD20CD20CD20CD2
(1779323042.155807) can0 0000E010#0000000000000000
(1779323042.156810) can0 0000E011#0000000000000000
(1779323042.157796) can0 0000E012#0CD2000000000000
(1779323042.158810) can0 0000F001#0000000000000000
(1779323042.159789) can0 18FF28F4#10320000020D0000
(1779323042.160772) can0 18FE28F4#0CD20CD240400000
(1779323042.161785) can0 18FD28F4#1702FA6F00000000
(1779323042.162701) can0 4D4#000032007D0D0203
(1779323042.163688) can0 4D5#D20CD20C40400000
(1779323042.164765) can0 18914010#0CD2090CD2010000
(1779323042.165778) can0 18904010#020D020D753001F8
(1779323042.166778) can0 18FA28F4#123EA12C10270000
(1779323042.167771) can0 18FB28F4#D20CD20C40400000
(1779323042.168791) can0 18FC28F4#383200000D020000
(1779323042.169753) can0 18F810F3#0D02E80332640100
(1779323042.170805) can0 18F815F3#0000000010030000
(1779323042.171683) can0 273#000000000D023200
(1779323042.172690) can0 1E1#020D271001F801F8
(1779323042.173701) can0 1F5#0000000000000000
(1779323042.174798) can0 0800A6A9#0000000000000000
(1779323042.175759) can0 1000A6A9#0D028813324A4A4A
(1779323042.176779) can0 1C00A6A9#0000000000030000
(1779323042.177792) can0 02018100#1003020D00000000
(1779323042.178785) can0 02028100#0000003264000000
(1779323042.179762) can0 02038100#0CD201090CD20101
(1779323042.180779) can0 02048100#4A01014A01010000
(1779323042.181683) can0 1AD#8314000059321818
(1779323042.182677) can0 2AD#D20C800C83140016
(1779323042.183690) can0 3AD#0000000000008314
(1779323042.184703) can0 4AD#EB00000000000000
(1779323042.185703) can0 76A#7F00000000000000
(1779323042.263991) can0 0000E005#1702440003B60591
(1779323042.264765) can0 1806E5F4#13B3010003B6023A
(1779323042.265783) can0 0000E000#13B313B3020D0000
(1779323042.266778) can0 0000E004#181803B603B601DF
(1779323042.267765) can0 0000E006#0CD20CD20CD20CD2
(1779323042.268760) can0 0000E007#0CD20CD20CD20CD2
(1779323042.269758) can0 0000E008#0CD20CD20CD20CD2
(1779323042.270758) can0 0000E009#0CD20CD20CD20CD2
(1779323042.271803) can0 0000E010#0000000000000000
(1779323042.272796) can0 0000E011#0000000000000000
(1779323042.273783) can0 0000E012#0CD2000000000000
(1779323042.274752) can0 0000E013#4542323630354C43
(1779323042.275784) can0 0000E014#3134323300000000
(1779323042.276797) can0 0000E015#0000000000000003
(1779323042.277796) can0 0000F000#0000000000000000
(1779323042.278790) can0 0000F001#0000000000000000
(1779323042.279791) can0 18FF28F4#10320000020D0000
(1779323042.280767) can0 18FE28F4#0CD20CD240400000
(1779323042.281772) can0 18FD28F4#1702FA6F00000000
(1779323042.282688) can0 4D4#000032007D0D0203
(1779323042.283669) can0 4D5#D20CD20C40400000
(1779323042.284763) can0 18914010#0CD20E0CD2010000
(1779323042.285765) can0 18904010#020D020D753001F8
(1779323042.286778) can0 18924010#4001400100000000
(1779323042.287778) can0 18934010#0000002A0000BB2C
(1779323042.288791) can0 18944010#1003000000000000
(1779323042.289810) can0 18954010#0000000000000000
(1779323042.290804) can0 18954010#0100000000000000
(1779323042.291803) can0 18954010#0200000000000000
(1779323042.292799) can0 18954010#0300000000000000
(1779323042.293798) can0 18954010#0400000000000000
(1779323042.294785) can0 18954010#0500000000000000
(1779323042.295798) can0 18964010#0040404000000000
(1779323042.296788) can0 18974010#0000000000000000
(1779323042.297792) can0 18984010#0000000000000000
(1779323042.298772) can0 18FA28F4#123EA12C10270000
(1779323042.299767) can0 18FB28F4#D20CD20C40400000
(1779323042.300798) can0 18FC28F4#383200000D020000
(1779323042.301759) can0 18F810F3#0D02E80332640100
(1779323042.302759) can0 18F811F3#D20C0E01D20C0101
(1779323042.303772) can0 18F812F3#4001014001010000
(1779323042.304785) can0 18F813F3#0101000000000000
(1779323042.305766) can0 18F814F3#3200EA1AA9015F00
(1779323042.306799) can0 18F815F3#0000000010030000
(1779323042.307696) can0 273#000000000D023200
(1779323042.308673) can0 1E1#020D271001F801F8
(1779323042.309709) can0 1F5#0000000000000000
(1779323042.310785) can0 0800A6A9#0000000000000000
(1779323042.311754) can0 1000A6A9#0D028813324A4A4A
(1779323042.312785) can0 1C00A6A9#0000000000030000
(1779323042.313779) can0 02018100#1003020D00000000
(1779323042.314799) can0 02028100#0000003264000000
(1779323042.315760) can0 02038100#0CD2010E0CD20101
(1779323042.316776) can0 02048100#4A01014A01010000
(1779323042.317677) can0 1AD#8314000059321818
(1779323042.318677) can0 2AD#D20C800C83140016
(1779323042.319690) can0 3AD#0000000000008314
(1779323042.320683) can0 4AD#EB00000000000000
(1779323042.321703) can0 76A#7F00000000000000
(1779323042.379984) can0 0000E005#1702440003B60591
(1779323042.380758) can0 1806E5F4#13B3010003B6023A
(1779323042.381769) can0 0000E000#13B313B3020D0000
(1779323042.382783) can0 0000E004#181803B603B601DF
(1779323042.383751) can0 0000E006#0CD20CD20CD20CD2
(1779323042.384764) can0 0000E007#0CD20CD20CD20CD2
(1779323042.385765) can0 0000E008#0CD20CD20CD20CD2
(1779323042.386744) can0 0000E009#0CD20CD20CD20CD2
(1779323042.387795) can0 0000E010#0000000000000000
(1779323042.388790) can0 0000E011#0000000000000000
(1779323042.389788) can0 0000E012#0CD2000000000000
(1779323042.390802) can0 0000F001#0000000000000000
(1779323042.391789) can0 18FF28F4#10320000020D0000
(1779323042.392771) can0 18FE28F4#0CD20CD240400000
(1779323042.393771) can0 18FD28F4#1702FA6F00000000
(1779323042.394687) can0 4D4#000032007D0D0203
(1779323042.395668) can0 4D5#D20CD20C40400000
(1779323042.396764) can0 18914010#0CD20E0CD2010000
(1779323042.397765) can0 18904010#020D020D753001F8
(1779323042.398758) can0 18FA28F4#123EA12C10270000
(1779323042.399758) can0 18FB28F4#D20CD20C40400000
(1779323042.400785) can0 18FC28F4#383200000D020000
(1779323042.401758) can0 18F810F3#0D02E80332640100
(1779323042.402784) can0 18F815F3#0000000010030000
(1779323042.403688) can0 273#000000000D023200
(1779323042.404688) can0 1E1#020D271001F801F8
(1779323042.405700) can0 1F5#0000000000000000
(1779323042.406777) can0 0800A6A9#0000000000000000
(1779323042.407746) can0 1000A6A9#0D028813324A4A4A
(1779323042.408775) can0 1C00A6A9#0000000000030000
(1779323042.409790) can0 02018100#1003020D00000000
(1779323042.410790) can0 02028100#0000003264000000
(1779323042.411772) can0 02038100#0CD2010E0CD20101
(1779323042.412765) can0 02048100#4A01014A01010000
(1779323042.413663) can0 1AD#8314000059321818
(1779323042.414682) can0 2AD#D20C800C83140016
(1779323042.415694) can0 3AD#0000000000008314
(1779323042.416689) can0 4AD#EB00000000000000
(1779323042.417688) can0 76A#7F00000000000000
(1779323042.479982) can0 0000E005#1702440003B60591
(1779323042.480756) can0 1806E5F4#13B3010003B6023A
(1779323042.481769) can0 0000E000#13B313B3020D0000
(1779323042.482769) can0 0000E004#181803B603B601DF
(1779323042.483756) can0 0000E006#0CD20CD20CD20CD2
(1779323042.484769) can0 0000E007#0CD20CD20CD20CD2
(1779323042.485744) can0 0000E008#0CD20CD20CD20CD2
(1779323042.486749) can0 0000E009#0CD20CD20CD20CD2
(1779323042.487794) can0 0000E010#0000000000000000
(1779323042.488794) can0 0000E011#0000000000000000
(1779323042.489775) can0 0000E012#0CD2000000000000
(1779323042.490788) can0 0000F001#0000000000000000
(1779323042.491788) can0 18FF28F4#10320000020D0000
(1779323042.492769) can0 18FE28F4#0CD20CD240400000
(1779323042.493762) can0 18FD28F4#1702FA6F00000000
(1779323042.494686) can0 4D4#000032007D0D0203
(1779323042.495667) can0 4D5#D20CD20C40400000
(1779323042.496763) can0 18914010#0CD20E0CD2010000
(1779323042.497755) can0 18904010#020D020D753001F8
(1779323042.498763) can0 18FA28F4#123EA12C10270000
(1779323042.499756) can0 18FB28F4#D20CD20C40400000
(1779323042.500789) can0 18FC28F4#383200000D020000
(1779323042.501757) can0 18F810F3#0D02E80332640100
(1779323042.502788) can0 18F815F3#0000000010030000
(1779323042.503686) can0 273#000000000D023200
(1779323042.504667) can0 1E1#020D271001F801F8
(1779323042.505694) can0 1F5#0000000000000000
(1779323042.506776) can0 0800A6A9#0000000000000000
(1779323042.507744) can0 1000A6A9#0D028813324A4A4A
(1779323042.508776) can0 1C00A6A9#0000000000030000
(1779323042.509783) can0 02018100#1003020D00000000
(1779323042.510789) can0 02028100#0000003264000000
(1779323042.511770) can0 02038100#0CD2010E0CD20101
(1779323042.512764) can0 02048100#4A01014A01010000
(1779323042.513667) can0 1AD#8314000059321818
(1779323042.514681) can0 2AD#D20C800C83140016
(1779323042.515693) can0 3AD#0000000000008314
(1779323042.516687) can0 4AD#EB00000000000000
(1779323042.517687) can0 76A#7F00000000000000
(1779323042.579988) can0 0000E005#1702440003B60591
(1779323042.580756) can0 1806E5F4#13B3010003B6023A
(1779323042.581774) can0 0000E000#13B313B3020D0000
(1779323042.582763) can0 0000E004#181803B603B601DF
(1779323042.583755) can0 0000E006#0CD20CD20CD20CD2
(1779323042.584748) can0 0000E007#0CD20CD20CD20CD2
(1779323042.585748) can0 0000E008#0CD20CD20CD20CD2
(1779323042.586749) can0 0000E009#0CD20CD20CD20CD2
(1779323042.587793) can0 0000E010#0000000000000000
(1779323042.588793) can0 0000E011#0000000000000000
(1779323042.589774) can0 0000E012#0CD2000000000000
(1779323042.590784) can0 0000F001#0000000000000000
(1779323042.591768) can0 18FF28F4#10320000020D0000
(1779323042.592768) can0 18FE28F4#0CD20CD240400000
(1779323042.593768) can0 18FD28F4#1702FA6F00000000
(1779323042.594679) can0 4D4#000032007D0D0203
(1779323042.595666) can0 4D5#D20CD20C40400000
(1779323042.596762) can0 18914010#0CD2070CD2010000
(1779323042.597762) can0 18904010#020D020D753001F8
(1779323042.598755) can0 18FA28F4#123EA12C10270000
(1779323042.599755) can0 18FB28F4#D20CD20C40400000
(1779323042.600787) can0 18FC28F4#383200000D020000
(1779323042.601756) can0 18F810F3#0D02E80332640100
(1779323042.602776) can0 18F815F3#0000000010030000
(1779323042.603685) can0 273#000000000D023200
(1779323042.604666) can0 1E1#020D271001F801F8
(1779323042.605698) can0 1F5#0000000000000000
(1779323042.606774) can0 0800A6A9#0000000000000000
(1779323042.607743) can0 1000A6A9#0D028813324A4A4A
(1779323042.608775) can0 1C00A6A9#0000000000030000
(1779323042.609769) can0 02018100#1003020D00000000
(1779323042.610782) can0 02028100#0000003264000000
(1779323042.611762) can0 02038100#0CD201070CD20101
(1779323042.612763) can0 02048100#4A01014A01010000
(1779323042.613660) can0 1AD#8314000059321818
(1779323042.614670) can0 2AD#D20C800C83140016
(1779323042.615686) can0 3AD#0000000000008314
(1779323042.616687) can0 4AD#EB00000000000000
(1779323042.617679) can0 76A#7F00000000000000
(1779323042.679977) can0 0000E005#1702440003B60591
(1779323042.680754) can0 1806E5F4#13B3010003B6023A
(1779323042.681765) can0 0000E000#13B313B3020D0000
(1779323042.682766) can0 0000E004#181803B603B601DF
(1779323042.683747) can0 0000E006#0CD20CD20CD20CD2
(1779323042.684747) can0 0000E007#0CD20CD20CD20CD2
(1779323042.685746) can0 0000E008#0CD20CD20CD20CD2
(1779323042.686741) can0 0000E009#0CD20CD20CD20CD2
(1779323042.687789) can0 0000E010#0000000000000000
(1779323042.688786) can0 0000E011#0000000000000000
(1779323042.689772) can0 0000E012#0CD2000000000000
(1779323042.690785) can0 0000F001#0000000000000000
(1779323042.691762) can0 18FF28F4#10320000020D0000
(1779323042.692748) can0 18FE28F4#0CD20CD240400000
(1779323042.693767) can0 18FD28F4#1702FA6F00000000
(1779323042.694683) can0 4D4#000032007D0D0203
(1779323042.695664) can0 4D5#D20CD20C40400000
(1779323042.696760) can0 18914010#0CD2070CD2010000
(1779323042.697754) can0 18904010#020D020D753001F8
(1779323042.698754) can0 18FA28F4#123EA12C10270000
(1779323042.699750) can0 18FB28F4#D20CD20C40400000
(1779323042.700786) can0 18FC28F4#383200000D020000
(1779323042.701747) can0 18F810F3#0D02E80332640100
(1779323042.702780) can0 18F815F3#0000000010030000
(1779323042.703677) can0 273#000000000D023200
(1779323042.704666) can0 1E1#020D271001F801F8
(1779323042.705690) can0 1F5#0000000000000000
(1779323042.706773) can0 0800A6A9#0000000000000000
(1779323042.707742) can0 1000A6A9#0D028813324A4A4A
(1779323042.708768) can0 1C00A6A9#0000000000030000
(1779323042.709767) can0 02018100#1003020D00000000
(1779323042.710780) can0 02028100#0000003264000000
(1779323042.711759) can0 02038100#0CD201070CD20101
(1779323042.712761) can0 02048100#4A01014A01010000
(1779323042.713659) can0 1AD#8314000059321818
(1779323042.714671) can0 2AD#D20C800C83140016
(1779323042.715681) can0 3AD#0000000000008314
(1779323042.716685) can0 4AD#EB00000000000000
(1779323042.717678) can0 76A#7F00000000000000
(1779323042.795984) can0 0000E005#1702440003B60591
(1779323042.796753) can0 1806E5F4#13B3010003B6023A
(1779323042.797765) can0 0000E000#13B313B3020D0000
(1779323042.798765) can0 0000E004#181803B603B601DF
(1779323042.799746) can0 0000E006#0CD20CD20CD20CD2
(1779323042.800740) can0 0000E007#0CD20CD20CD20CD2
(1779323042.801747) can0 0000E008#0CD20CD20CD20CD2
(1779323042.802740) can0 0000E009#0CD20CD20CD20CD3
(1779323042.803791) can0 0000E010#0000000000000000
