(1779048011.045177) can0 0000E005#16D2430003B60591
(1779048011.045748) can0 1806E5F4#13EC010003B6023A
(1779048011.046584) can0 0000E000#13EC13EC020F0000
(1779048011.047564) can0 0000E004#171703B603B601E4
(1779048011.048581) can0 0000E006#0CDF0CDF0CDF0CDF
(1779048011.049575) can0 0000E007#0CDF0CDF0CDF0CDF
(1779048011.050575) can0 0000E008#0CDF0CDF0CDF0CDF
(1779048011.051557) can0 0000E009#0CDF0CDF0CDD0CE0
(1779048011.052601) can0 0000E010#0000000000000000
(1779048011.053587) can0 0000E011#0000000000000000
(1779048011.054582) can0 0000E012#0CDE000200000000
(1779048011.055594) can0 0000F001#0000000000000000
(1779048011.056575) can0 18FF28F4#10330000020F0000
(1779048011.057563) can0 18FE28F4#0CE00CDD3F3F0000
(1779048011.058576) can0 18FD28F4#16D2FA6F00000000
(1779048011.059473) can0 4D4#000033007D0F0203
(1779048011.060474) can0 4D5#DD0CE00C3F3F0000
(1779048011.061550) can0 18914010#0CE0100CDD0F0000
(1779048011.062563) can0 18904010#020F020F753001FE
(1779048011.063559) can0 18FA28F4#E23DA12C10270000
(1779048011.064564) can0 18FB28F4#E00CDD0C3F3F0000
(1779048011.065577) can0 18FC28F4#383300000F020000
(1779048011.066570) can0 18F810F3#0F02E80333640100
(1779048011.067583) can0 18F815F3#0000000010030000
(1779048011.068487) can0 273#000000000F023300
(1779048011.069481) can0 1E1#020F271001FE01FE
(1779048011.070500) can0 1F5#0000000000000000
(1779048011.071588) can0 0800A6A9#0000000000000000
(1779048011.072557) can0 1000A6A9#0F02881333494949
(1779048011.073570) can0 1C00A6A9#0000000000030000
(1779048011.074615) can0 02018100#1003020F00000000
(1779048011.075582) can0 02028100#0000003364000000
(1779048011.076564) can0 02038100#0CE001100CDD010F
(1779048011.077576) can0 02048100#4901014901010000
(1779048011.078456) can0 1AD#9714000059331717
(1779048011.079468) can0 2AD#E00C800C97140016
(1779048011.080481) can0 3AD#0000000000009714
(1779048011.081495) can0 4AD#EB00000000000000
(1779048011.082526) can0 76A#7F00000000000000
(1779048011.145101) can0 0000E005#16D2430003B60591
(1779048011.145690) can0 1806E5F4#13EC010003B6023A
(1779048011.146589) can0 0000E000#13EC13EC020F0000
(1779048011.147556) can0 0000E004#171703B603B601E4
(1779048011.148564) can0 0000E006#0CDF0CDF0CDF0CDF
(1779048011.149582) can0 0000E007#0CDF0CDF0CDF0CDF
(1779048011.150582) can0 0000E008#0CDF0CDF0CDF0CDF
(1779048011.151595) can0 0000E009#0CDF0CDF0CDF0CE0
(1779048011.152595) can0 0000E010#0000000000000000
(1779048011.153589) can0 0000E011#0000000000000000
(1779048011.154589) can0 0000E012#0CDF000000000000
(1779048011.155601) can0 0000F001#0000000000000000
(1779048011.156579) can0 18FF28F4#10330000020F0000
(1779048011.157564) can0 18FE28F4#0CE00CDF3F3F0000
(1779048011.158564) can0 18FD28F4#16D2FA6F00000000
(1779048011.159513) can0 4D4#000033007D0F0203
(1779048011.160473) can0 4D5#DF0CE00C3F3F0000
(1779048011.161569) can0 18914010#0CE0100CDF010000
(1779048011.162571) can0 18904010#020F020F753001FE
(1779048011.163570) can0 18FA28F4#E23DA12C10270000
(1779048011.164564) can0 18FB28F4#E00CDF0C3F3F0000
(1779048011.165577) can0 18FC28F4#383300000F020000
(1779048011.166546) can0 18F810F3#0F02E80333640100
(1779048011.167622) can0 18F815F3#0000000010030000
(1779048011.168488) can0 273#000000000F023300
(1779048011.169477) can0 1E1#020F271001FE01FE
(1779048011.170501) can0 1F5#0000000000000000
(1779048011.171584) can0 0800A6A9#0000000000000000
(1779048011.172551) can0 1000A6A9#0F02881333494949
(1779048011.173579) can0 1C00A6A9#0000000000030000
(1779048011.174590) can0 02018100#1003020F00000000
(1779048011.175623) can0 02028100#0000003364000000
(1779048011.176572) can0 02038100#0CE001100CDF0101
(1779048011.177565) can0 02048100#4901014901010000
(1779048011.178464) can0 1AD#9814000059331717
(1779048011.179476) can0 2AD#E00C800C98140016
(1779048011.180489) can0 3AD#0000000000009814
(1779048011.181489) can0 4AD#EB00000000000000
(1779048011.182483) can0 76A#7F00000000000000
(1779048011.245119) can0 0000E005#16D2430003B60591
(1779048011.245695) can0 1806E5F4#13EC010003B6023A
(1779048011.246584) can0 0000E000#13EC13EC020F0000
(1779048011.247571) can0 0000E004#171703B603B601E4
(1779048011.248582) can0 0000E006#0CDF0CDF0CDF0CDF
(1779048011.249574) can0 0000E007#0CDF0CDF0CDF0CDF
(1779048011.250572) can0 0000E008#0CDF0CDF0CDF0CDF
(1779048011.251571) can0 0000E009#0CDF0CDF0CDF0CE0
(1779048011.252648) can0 0000E010#0000000000000000
(1779048011.253594) can0 0000E011#0000000000000000
(1779048011.254578) can0 0000E012#0CDF000000000000
(1779048011.255591) can0 0000F001#0000000000000000
(1779048011.256590) can0 18FF28F4#10330000020F0000
(1779048011.257549) can0 18FE28F4#0CE00CDF3F3F0000
(1779048011.258572) can0 18FD28F4#16D2FA6F00000000
(1779048011.259489) can0 4D4#000033007D0F0203
(1779048011.260483) can0 4D5#DF0CE00C3F3F0000
(1779048011.261566) can0 18914010#0CE0100CDF010000
(1779048011.262559) can0 18904010#020F020F753001FE
(1779048011.263559) can0 18FA28F4#E23DA12C10270000
(1779048011.264559) can0 18FB28F4#E00CDF0C3F3F0000
(1779048011.265564) can0 18FC28F4#383300000F020000
(1779048011.266553) can0 18F810F3#0F02E80333640100
(1779048011.267586) can0 18F815F3#0000000010030000
(1779048011.268483) can0 273#000000000F023300
(1779048011.269481) can0 1E1#020F271001FE01FE
(1779048011.270496) can0 1F5#0000000000000000
(1779048011.271595) can0 0800A6A9#0000000000000000
(1779048011.272540) can0 1000A6A9#0F02881333494949
(1779048011.273572) can0 1C00A6A9#0000000000030000
(1779048011.274585) can0 02018100#1003020F00000000
(1779048011.275585) can0 02028100#0000003364000000
(1779048011.276579) can0 02038100#0CE001100CDF0101
(1779048011.277573) can0 02048100#4901014901010000
(1779048011.278458) can0 1AD#9814000059331717
(1779048011.279471) can0 2AD#E00C800C98140016
(1779048011.280484) can0 3AD#0000000000009814
(1779048011.281490) can0 4AD#EB00000000000000
(1779048011.282491) can0 76A#7F00000000000000
(1779048011.362119) can0 0000E005#16D2430003B60591
(1779048011.362706) can0 1806E5F4#13EC010003B6023A
(1779048011.363572) can0 0000E000#13EC13EC020F0000
(1779048011.364554) can0 0000E004#171703B603B601E4
(1779048011.365553) can0 0000E006#0CDF0CDD0CDF0CDF
(1779048011.366586) can0 0000E007#0CDF0CDF0CDF0CDF
(1779048011.367564) can0 0000E008#0CDF0CDF0CDF0CDF
(1779048011.368563) can0 0000E009#0CDF0CDF0CDF0CE0
(1779048011.369592) can0 0000E010#0000000000000000
(1779048011.370593) can0 0000E011#0000000000000000
(1779048011.371581) can0 0000E012#0CDE000200000000
(1779048011.372535) can0 0000E013#4542323630354C43
(1779048011.373567) can0 0000E014#3134323300000000
(1779048011.374600) can0 0000E015#0000000000000003
(1779048011.375593) can0 0000F000#0000000000000000
(1779048011.376594) can0 0000F001#0000000000000000
(1779048011.377574) can0 18FF28F4#10330000020F0000
(1779048011.378556) can0 18FE28F4#0CE00CDD3F3F0000
(1779048011.379550) can0 18FD28F4#16D2FA6F00000000
(1779048011.380472) can0 4D4#000033007D0F0203
(1779048011.381466) can0 4D5#DD0CE00C3F3F0000
(1779048011.382580) can0 18914010#0CE0100CDD020000
(1779048011.383559) can0 18904010#020F020F753001FE
(1779048011.384574) can0 18924010#3F013F0100000000
(1779048011.385568) can0 18934010#000000120000BD42
(1779048011.386577) can0 18944010#1003000000000000
(1779048011.387600) can0 18954010#0000000000000000
(1779048011.388597) can0 18954010#0100000000000000
(1779048011.389593) can0 18954010#0200000000000000
(1779048011.390626) can0 18954010#0300000000000000
(1779048011.391581) can0 18954010#0400000000000000
(1779048011.392587) can0 18954010#0500000000000000
(1779048011.393581) can0 18964010#003F3F3F00000000
(1779048011.394581) can0 18974010#0000000000000000
(1779048011.395574) can0 18984010#0000000000000000
(1779048011.396555) can0 18FA28F4#E23DA12C10270000
(1779048011.397556) can0 18FB28F4#E00CDD0C3F3F0000
(1779048011.398620) can0 18FC28F4#383300000F020000
(1779048011.399555) can0 18F810F3#0F02E80333640100
(1779048011.400567) can0 18F811F3#E00C1001DD0C0201
(1779048011.401570) can0 18F812F3#3F01013F01010000
(1779048011.402583) can0 18F813F3#0101000000000000
(1779048011.403559) can0 18F814F3#3200BA1AA9015F00
(1779048011.404576) can0 18F815F3#0000000010030000
(1779048011.405484) can0 273#000000000F023300
(1779048011.406524) can0 1E1#020F271001FE01FE
(1779048011.407499) can0 1F5#0000000000000000
(1779048011.408575) can0 0800A6A9#0000000000000000
(1779048011.409544) can0 1000A6A9#0F02881333494949
(1779048011.410580) can0 1C00A6A9#0000000000030000
(1779048011.411592) can0 02018100#1003020F00000000
(1779048011.412570) can0 02028100#0000003364000000
(1779048011.413570) can0 02038100#0CE001100CDD0102
(1779048011.414565) can0 02048100#4901014901010000
(1779048011.415468) can0 1AD#9714000059331717
(1779048011.416462) can0 2AD#E00C800C97140016
(1779048011.417475) can0 3AD#0000000000009714
(1779048011.418484) can0 4AD#EB00000000000000
(1779048011.419488) can0 76A#7F00000000000000
(1779048011.478163) can0 0000E005#16D2430003B60591
(1779048011.478754) can0 1806E5F4#13EC010003B6023A
(1779048011.479568) can0 0000E000#13EC13EC020F0000
(1779048011.480555) can0 0000E004#171703B603B601E4
(1779048011.481568) can0 0000E006#0CDF0CDD0CDF0CDF
(1779048011.482563) can0 0000E007#0CDF0CDF0CDF0CDF
(1779048011.483610) can0 0000E008#0CDF0CDF0CDF0CDF
(1779048011.484562) can0 0000E009#0CDF0CDF0CDF0CE0
(1779048011.485588) can0 0000E010#0000000000000000
(1779048011.486588) can0 0000E011#0000000000000000
(1779048011.487582) can0 0000E012#0CDE000200000000
(1779048011.488600) can0 0000F001#0000000000000000
(1779048011.489582) can0 18FF28F4#10330000020F0000
(1779048011.490563) can0 18FE28F4#0CE00CDD3F3F0000
(1779048011.491563) can0 18FD28F4#16D2FA6F00000000
(1779048011.492474) can0 4D4#000033007D0F0203
(1779048011.493474) can0 4D5#DD0CE00C3F3F0000
(1779048011.494550) can0 18914010#0CE0100CDD020000
(1779048011.495565) can0 18904010#020F020F753001FE
(1779048011.496563) can0 18FA28F4#E23DA12C10270000
(1779048011.497563) can0 18FB28F4#E00CDD0C3F3F0000
(1779048011.498576) can0 18FC28F4#383300000F020000
(1779048011.499536) can0 18F810F3#0F02E80333640100
(1779048011.500589) can0 18F815F3#0000000010030000
(1779048011.501474) can0 273#000000000F023300
(1779048011.502468) can0 1E1#020F271001FE01FE
(1779048011.503500) can0 1F5#0000000000000000
(1779048011.504576) can0 0800A6A9#0000000000000000
(1779048011.505545) can0 1000A6A9#0F02881333494949
(1779048011.506570) can0 1C00A6A9#0000000000030000
(1779048011.507581) can0 02018100#1003020F00000000
(1779048011.508571) can0 02028100#0000003364000000
(1779048011.509564) can0 02038100#0CE001100CDD0102
(1779048011.510564) can0 02048100#4901014901010000
(1779048011.511460) can0 1AD#9714000059331717
(1779048011.512475) can0 2AD#E00C800C97140016
(1779048011.513488) can0 3AD#0000000000009714
(1779048011.514482) can0 4AD#EB00000000000000
(1779048011.515481) can0 76A#7F00000000000000
(1779048011.578121) can0 0000E005#16D2430003B60591
(1779048011.578690) can0 1806E5F4#13EC010003B6023A
(1779048011.579569) can0 0000E000#13EC13EC020F0000
(1779048011.580549) can0 0000E004#171703B603B601E4
(1779048011.581550) can0 0000E006#0CDF0CDD0CDF0CDF
(1779048011.582564) can0 0000E007#0CDF0CDF0CDF0CDF
(1779048011.583563) can0 0000E008#0CDF0CDF0CDF0CDF
(1779048011.584558) can0 0000E009#0CDF0CDF0CDF0CE0
(1779048011.585589) can0 0000E010#0000000000000000
(1779048011.586589) can0 0000E011#0000000000000000
(1779048011.587589) can0 0000E012#0CDE000200000000
(1779048011.588582) can0 0000F001#0000000000000000
(1779048011.589583) can0 18FF28F4#10330000020F0000
(1779048011.590564) can0 18FE28F4#0CE00CDD3F3F0000
(1779048011.591558) can0 18FD28F4#16D2FA6F00000000
(1779048011.592474) can0 4D4#000033007D0F0203
(1779048011.593475) can0 4D5#DD0CE00C3F3F0000
(1779048011.594552) can0 18914010#0CE0100CDD020000
(1779048011.595569) can0 18904010#020F020F753001FE
(1779048011.596544) can0 18FA28F4#E23DA12C10270000
(1779048011.597564) can0 18FB28F4#E00CDD0C3F3F0000
(1779048011.598578) can0 18FC28F4#383300000F020000
(1779048011.599539) can0 18F810F3#0F02E80333640100
(1779048011.600590) can0 18F815F3#0000000010030000
(1779048011.601488) can0 273#000000000F023300
(1779048011.602472) can0 1E1#020F271001FE01FE
(1779048011.603501) can0 1F5#0000000000000000
(1779048011.604574) can0 0800A6A9#0000000000000000
(1779048011.605559) can0 1000A6A9#0F02881333494949
(1779048011.606572) can0 1C00A6A9#0000000000030000
(1779048011.607590) can0 02018100#1003020F00000000
(1779048011.608567) can0 02028100#0000003364000000
(1779048011.609565) can0 02038100#0CE001100CDD0102
(1779048011.610565) can0 02048100#4901014901010000
(1779048011.611463) can0 1AD#9714000059331717
(1779048011.612457) can0 2AD#E00C800C97140016
(1779048011.613501) can0 3AD#0000000000009714
(1779048011.614483) can0 4AD#EB00000000000000
(1779048011.615477) can0 76A#7F00000000000000
(1779048011.698143) can0 0000E005#16D2430003B60591
(1779048011.698726) can0 1806E5F4#13EC010003B6023A
(1779048011.699579) can0 0000E000#13EC13EC020F0000
(1779048011.700559) can0 0000E004#171703B603B601E4
(1779048011.701553) can0 0000E006#0CDF0CDF0CDF0CDF
(1779048011.702573) can0 0000E007#0CDF0CDF0CDF0CDF
(1779048011.703583) can0 0000E008#0CDF0CDF0CDF0CDF
(1779048011.704567) can0 0000E009#0CDF0CDF0CDF0CE0
(1779048011.705603) can0 0000E010#0000000000000000
(1779048011.706632) can0 0000E011#0000000000000000
(1779048011.707579) can0 0000E012#0CDF000000000000
(1779048011.708591) can0 0000F001#0000000000000000
(1779048011.709567) can0 18FF28F4#10330000020F0000
(1779048011.710554) can0 18FE28F4#0CE00CDF3F3F0000
(1779048011.711563) can0 18FD28F4#16D2FA6F00000000
(1779048011.712484) can0 4D4#000033007D0F0203
(1779048011.713489) can0 4D5#DF0CE00C3F3F0000
(1779048011.714613) can0 18914010#0CE0100CDF010000
(1779048011.715560) can0 18904010#020F020F753001FE
(1779048011.716561) can0 18FA28F4#E23DA12C10270000
(1779048011.717564) can0 18FB28F4#E00CDF0C3F3F0000
(1779048011.718573) can0 18FC28F4#383300000F020000
(1779048011.719555) can0 18F810F3#0F02E80333640100
(1779048011.720580) can0 18F815F3#0000000010030000
(1779048011.721476) can0 273#000000000F023300
(1779048011.722479) can0 1E1#020F271001FE01FE
(1779048011.723491) can0 1F5#0000000000000000
(1779048011.724574) can0 0800A6A9#0000000000000000
(1779048011.725546) can0 1000A6A9#0F02881333494949
(1779048011.726574) can0 1C00A6A9#0000000000030000
(1779048011.727581) can0 02018100#1003020F00000000
(1779048011.728580) can0 02028100#0000003364000000
(1779048011.729561) can0 02038100#0CE001100CDF0101
(1779048011.730555) can0 02048100#4901014901010000
(1779048011.731453) can0 1AD#9814000059331717
(1779048011.732473) can0 2AD#E00C800C98140016
(1779048011.733477) can0 3AD#0000000000009814
(1779048011.734501) can0 4AD#EB00000000000000
(1779048011.735499) can0 76A#7F00000000000000
(1779048011.798111) can0 0000E005#16D2430003B60591
(1779048011.798683) can0 1806E5F4#13EC010003B6023A
(1779048011.799573) can0 0000E000#13EC13EC020F0000
(1779048011.800556) can0 0000E004#171703B603B601E4
(1779048011.801566) can0 0000E006#0CDF0CDF0CDF0CDF
(1779048011.802567) can0 0000E007#0CDF0CDF0CDF0CDF
(1779048011.803560) can0 0000E008#0CDF0CDF0CDF0CDF
(1779048011.804560) can0 0000E009#0CDF0CDF0CDF0CE0
(1779048011.805586) can0 0000E010#0000000000000000
(1779048011.806582) can0 0000E011#0000000000000000
(1779048011.807567) can0 0000E012#0CDF000000000000
(1779048011.808579) can0 0000F001#0000000000000000
(1779048011.809580) can0 18FF28F4#10330000020F0000
(1779048011.810561) can0 18FE28F4#0CE00CDF3F3F0000
(1779048011.811561) can0 18FD28F4#16D2FA6F00000000
(1779048011.812478) can0 4D4#000033007D0F0203
(1779048011.813472) can0 4D5#DF0CE00C3F3F0000
(1779048011.814568) can0 18914010#0CE0100CDF010000
(1779048011.815548) can0 18904010#020F020F753001FE
(1779048011.816549) can0 18FA28F4#E23DA12C10270000
(1779048011.817561) can0 18FB28F4#E00CDF0C3F3F0000
(1779048011.818559) can0 18FC28F4#383300000F020000
(1779048011.819543) can0 18F810F3#0F02E80333640100
(1779048011.820587) can0 18F815F3#0000000010030000
(1779048011.821473) can0 273#000000000F023300
(1779048011.822469) can0 1E1#020F271001FE01FE
(1779048011.823498) can0 1F5#0000000000000000
(1779048011.824581) can0 0800A6A9#0000000000000000
(1779048011.825543) can0 1000A6A9#0F02881333494949
(1779048011.826575) can0 1C00A6A9#0000000000030000
(1779048011.827588) can0 02018100#1003020F00000000
(1779048011.828587) can0 02028100#0000003364000000
(1779048011.829568) can0 02038100#0CE001100CDF0101
(1779048011.830559) can0 02048100#4901014901010000
(1779048011.831460) can0 1AD#9814000059331717
(1779048011.832461) can0 2AD#E00C800C98140016
(1779048011.833486) can0 3AD#0000000000009814
(1779048011.834476) can0 4AD#EB00000000000000
(1779048011.835480) can0 76A#7F00000000000000
(1779048011.915104) can0 0000E005#16D2430003B60591
(1779048011.915690) can0 1806E5F4#13EC010003B6023A
(1779048011.916575) can0 0000E000#13EC13EC020F0000
(1779048011.917556) can0 0000E004#171703B603B601E4
(1779048011.918556) can0 0000E006#0CDF0CDF0CDF0CDF
(1779048011.919569) can0 0000E007#0CDF0CDF0CDF0CDF
(1779048011.920567) can0 0000E008#0CDF0CDF0CDF0CDF
(1779048011.921582) can0 0000E009#0CDF0CDF0CDF0CE0
(1779048011.922582) can0 0000E010#0000000000000000
(1779048011.923575) can0 0000E011#0000000000000000
(1779048011.924568) can0 0000E012#0CDF000000000000
(1779048011.925537) can0 0000E013#4542323630354C43
(1779048011.926557) can0 0000E014#3134323300000000
(1779048011.927582) can0 0000E015#0000000000000003
(1779048011.928582) can0 0000F000#0000000000000000
(1779048011.929614) can0 0000F001#0000000000000000
(1779048011.930576) can0 18FF28F4#10330000020F0000
(1779048011.931557) can0 18FE28F4#0CE00CDF3F3F0000
(1779048011.932552) can0 18FD28F4#16D2FA6F00000000
(1779048011.933468) can0 4D4#000033007D0F0203
(1779048011.934469) can0 4D5#DF0CE00C3F3F0000
(1779048011.935550) can0 18914010#0CE0100CDF010000
(1779048011.936561) can0 18904010#020F020F753001FE
(1779048011.937608) can0 18924010#3F013F0100000000
(1779048011.938558) can0 18934010#000000130000BD42
(1779048011.939570) can0 18944010#1003000000000000
(1779048011.940589) can0 18954010#0000000000000000
(1779048011.941583) can0 18954010#0100000000000000
(1779048011.942584) can0 18954010#0200000000000000
(1779048011.943583) can0 18954010#0300000000000000
(1779048011.944576) can0 18954010#0400000000000000
(1779048011.945628) can0 18954010#0500000000000000
(1779048011.946572) can0 18964010#003F3F3F00000000
(1779048011.947571) can0 18974010#0000000000000000
(1779048011.948561) can0 18984010#0000000000000000
(1779048011.949545) can0 18FA28F4#E23DA12C10270000
(1779048011.950559) can0 18FB28F4#E00CDF0C3F3F0000
(1779048011.951571) can0 18FC28F4#383300000F020000
(1779048011.952533) can0 18F810F3#0F02E80333640100
(1779048011.953565) can0 18F811F3#E00C1001DF0C0101
(1779048011.954559) can0 18F812F3#3F01013F01010000
(1779048011.955571) can0 18F813F3#0101000000000000
(1779048011.956553) can0 18F814F3#3200BA1AA9015F00
(1779048011.957565) can0 18F815F3#0000000010030000
(1779048011.958494) can0 273#000000000F023300
(1779048011.959477) can0 1E1#020F271001FE01FE
(1779048011.960488) can0 1F5#0000000000000000
(1779048011.961566) can0 0800A6A9#0000000000000000
(1779048011.962534) can0 1000A6A9#0F02881333494949
(1779048011.963566) can0 1C00A6A9#0000000000030000
(1779048011.964579) can0 02018100#1003020F00000000
(1779048011.965572) can0 02028100#0000003364000000
(1779048011.966560) can0 02038100#0CE001100CDF0101
(1779048011.967553) can0 02048100#4901014901010000
(1779048011.968470) can0 1AD#9814000059331717
(1779048011.969471) can0 2AD#E00C800C98140016
(1779048011.970484) can0 3AD#0000000000009814
(1779048011.971479) can0 4AD#EB00000000000000
(1779048011.972476) can0 76A#7F00000000000000
(1779048012.031123) can0 0000E005#16D2430003B60591
(1779048012.031692) can0 1806E5F4#13EC010003B6023A
(1779048012.032577) can0 0000E000#13EC13EC020F0000
(1779048012.033546) can0 0000E004#171703B603B601E4
(1779048012.034559) can0 0000E006#0CDF0CDF0CDF0CDF
(1779048012.035572) can0 0000E007#0CDF0CDF0CDF0CDF
(1779048012.036552) can0 0000E008#0CDF0CDF0CDF0CDF
(1779048012.037545) can0 0000E009#0CDF0CDF0CDF0CE0
(1779048012.038585) can0 0000E010#0000000000000000
(1779048012.039577) can0 0000E011#0000000000000000
(1779048012.040578) can0 0000E012#0CDF000000000000
(1779048012.041584) can0 0000F001#0000000000000000
(1779048012.042572) can0 18FF28F4#10330000020F0000
(1779048012.043553) can0 18FE28F4#0CE00CDF3F3F0000
(1779048012.044553) can0 18FD28F4#16D2FA6F00000000
(1779048012.045476) can0 4D4#000033007D0F0203
(1779048012.046477) can0 4D5#DF0CE00C3F3F0000
(1779048012.047559) can0 18914010#0CE0100CDF010000
(1779048012.048553) can0 18904010#020F020F753001FE
(1779048012.049553) can0 18FA28F4#E23DA12C10270000
(1779048012.050554) can0 18FB28F4#E00CDF0C3F3F0000
(1779048012.051566) can0 18FC28F4#383300000F020000
(1779048012.052547) can0 18F810F3#0F02E80333640100
(1779048012.053569) can0 18F815F3#0000000010030000
(1779048012.054477) can0 273#000000000F023300
(1779048012.055477) can0 1E1#020F271001FE01FE
(1779048012.056490) can0 1F5#0000000000000000
(1779048012.057566) can0 0800A6A9#0000000000000000
(1779048012.058535) can0 1000A6A9#0F02881333494949
(1779048012.059579) can0 1C00A6A9#0000000000030000
(1779048012.060579) can0 02018100#1003020F00000000
(1779048012.061569) can0 02028100#0000003364000000
(1779048012.062554) can0 02038100#0CE001100CDF0101
(1779048012.063554) can0 02048100#4901014901010000
(1779048012.064478) can0 1AD#9814000059331717
(1779048012.065478) can0 2AD#E00C800C98140016
(1779048012.066478) can0 3AD#0000000000009814
(1779048012.067503) can0 4AD#EB00000000000000
(1779048012.068478) can0 76A#7F00000000000000
(1779048012.131163) can0 0000E005#16D2430003B60591
(1779048012.131743) can0 1806E5F4#13EC010003B6023A
(1779048012.132578) can0 0000E000#13EC13EC020F0000
(1779048012.133536) can0 0000E004#171703B603B601E4
(1779048012.134559) can0 0000E006#0CDF0CDF0CDF0CDF
(1779048012.135572) can0 0000E007#0CDF0CDF0CDF0CDF
(1779048012.136571) can0 0000E008#0CDF0CDF0CDF0CDF
(1779048012.137544) can0 0000E009#0CDF0CDF0CDF0CE0
(1779048012.138579) can0 0000E010#0000000000000000
(1779048012.139578) can0 0000E011#0000000000000000
(1779048012.140578) can0 0000E012#0CDF000000000000
(1779048012.141572) can0 0000F001#0000000000000000
(1779048012.142572) can0 18FF28F4#10330000020F0000
(1779048012.143553) can0 18FE28F4#0CE00CDF3F3F0000
(1779048012.144566) can0 18FD28F4#16D2FA6F00000000
(1779048012.145483) can0 4D4#000033007D0F0203
(1779048012.146484) can0 4D5#DF0CE00C3F3F0000
(1779048012.147560) can0 18914010#0CE0100CDF010000
(1779048012.148553) can0 18904010#020F020F753001FE
(1779048012.149552) can0 18FA28F4#E23DA12C10270000
(1779048012.150554) can0 18FB28F4#E00CDF0C3F3F0000
(1779048012.151566) can0 18FC28F4#383300000F020000
(1779048012.152579) can0 18F810F3#0F02E80333640100
(1779048012.153579) can0 18F815F3#0000000010030000
(1779048012.154484) can0 273#000000000F023300
(1779048012.155484) can0 1E1#020F271001FE01FE
(1779048012.156484) can0 1F5#0000000000000000
(1779048012.157561) can0 0800A6A9#0000000000000000
(1779048012.158529) can0 1000A6A9#0F02881333494949
(1779048012.159560) can0 1C00A6A9#0000000000030000
(1779048012.160624) can0 02018100#1003020F00000000
(1779048012.161570) can0 02028100#0000003364000000
(1779048012.162555) can0 02038100#0CE001100CDF0101
(1779048012.163548) can0 02048100#4901014901010000
(1779048012.164490) can0 1AD#9814000059331717
(1779048012.165496) can0 2AD#E00C800C98140016
(1779048012.166488) can0 3AD#0000000000009814
(1779048012.167485) can0 4AD#EB00000000000000
(1779048012.168523) can0 76A#7F00000000000000
(1779048012.191279) can0 00000E00#00354C4331343233
(1779048012.231113) can0 0000E005#16D2430003B60591
(1779048012.231682) can0 1806E5F4#13EC010003B6023A
(1779048012.232567) can0 0000E000#13EC13EC020F0000
(1779048012.233545) can0 0000E004#171703B603B601E4
(1779048012.234561) can0 0000E006#0CDF0CDF0CDF0CDF
(1779048012.235554) can0 0000E007#0CDF0CDF0CDF0CDF
(1779048012.236554) can0 0000E008#0CDF0CDF0CDF0CDF
(1779048012.237598) can0 0000E009#0CDF0CDF0CDF0CE0
(1779048012.238594) can0 0000E010#0000000000000000
(1779048012.239596) can0 0000E011#0000000000000000
(1779048012.240569) can0 0000E012#0CDF000000000000
(1779048012.241568) can0 0000F001#0000000000000000
(1779048012.242575) can0 18FF28F4#10330000020F0000
(1779048012.243555) can0 18FE28F4#0CE00CDF3F3F0000
(1779048012.244548) can0 18FD28F4#16D2FA6F00000000
(1779048012.245514) can0 4D4#000033007D0F0203
(1779048012.246492) can0 4D5#DF0CE00C3F3F0000
(1779048012.247555) can0 18914010#0CE0100CDF010000
(1779048012.248555) can0 18904010#020F020F753001FE
(1779048012.249556) can0 18FA28F4#E23DA12C10270000
(1779048012.250550) can0 18FB28F4#E00CDF0C3F3F0000
(1779048012.251562) can0 18FC28F4#383300000F020000
(1779048012.252530) can0 18F810F3#0F02E80333640100
(1779048012.253579) can0 18F815F3#0000000010030000
(1779048012.254499) can0 273#000000000F023300
(1779048012.255503) can0 1E1#020F271001FE01FE
(1779048012.256501) can0 1F5#0000000000000000
(1779048012.257558) can0 0800A6A9#0000000000000000
(1779048012.258524) can0 1000A6A9#0F02881333494949
(1779048012.259556) can0 1C00A6A9#0000000000030000
(1779048012.260569) can0 02018100#1003020F00000000
