(1778533622.884596) can0 0000E005#15273D0003B60591
(1778533622.885180) can0 1806E5F4#13EC010003B6023A
(1778533622.885951) can0 0000E000#13EC13EC020F0000
(1778533622.886951) can0 0000E004#111103B603B601E4
(1778533622.887952) can0 0000E006#0CE00CE00CE00CE0
(1778533622.888952) can0 0000E007#0CE00CE00CE00CE0
(1778533622.889952) can0 0000E008#0CE00CE00CE00CE0
(1778533622.890952) can0 0000E009#0CE00CE00CE00CE2
(1778533622.891952) can0 0000E010#0000000000000000
(1778533622.892952) can0 0000E011#0000000000000000
(1778533622.893952) can0 0000E012#0CE1000100000000
(1778533622.894893) can0 0000E013#4542323630354C43
(1778533622.895952) can0 0000E014#3134323300000000
(1778533622.896954) can0 0000E015#0000000000000003
(1778533622.897952) can0 0000F000#0000000000000000
(1778533622.898953) can0 0000F001#0000000000000000
(1778533622.899953) can0 18FF28F4#10330000020F0000
(1778533622.900952) can0 18FE28F4#0CE20CE039390000
(1778533622.901953) can0 18FD28F4#1527FA6F00000000
(1778533622.902830) can0 4D4#000033007D0F0203
(1778533622.903810) can0 4D5#E00CE20C39390000
(1778533622.904953) can0 18914010#0CE2100CE0010000
(1778533622.905953) can0 18904010#020F0000753001FE
(1778533622.906953) can0 18FA28F4#373CA12C10270000
(1778533622.907954) can0 18FB28F4#E20CE00C39390000
(1778533622.908953) can0 18FC28F4#383300000F020000
(1778533622.909953) can0 18F810F3#0F02E80333640100
(1778533622.910953) can0 18F811F3#E20C1001E00C0101
(1778533622.911954) can0 18F812F3#3901013901010000
(1778533622.912954) can0 18F813F3#0101000000000000
(1778533622.913954) can0 18F814F3#32000F19A9015F00
(1778533622.914954) can0 18F815F3#0000000010030000
(1778533622.915839) can0 273#000000000F023300
(1778533622.916828) can0 1E1#020F271001FE01FE
(1778533622.917862) can0 1F5#0000000000000000
(1778533622.918954) can0 0800A6A9#0000000000000000
(1778533622.919954) can0 1000A6A9#0F02881333434343
(1778533622.920954) can0 1C00A6A9#0000000000030000
(1778533622.921954) can0 02018100#1003020F00000000
(1778533622.922954) can0 02028100#0000003364000000
(1778533622.923955) can0 02038100#0CE201100CE00101
(1778533622.924955) can0 02048100#4301014301010000
(1778533622.982597) can0 0000E005#15273D0003B60591
(1778533622.983175) can0 1806E5F4#13EC010003B6023A
(1778533622.983959) can0 0000E000#13EC13EC020F0000
(1778533622.984960) can0 0000E004#111103B603B601E4
(1778533622.985960) can0 0000E006#0CE00CE00CE00CE0
(1778533622.986959) can0 0000E007#0CE00CE00CE00CE0
(1778533622.987960) can0 0000E008#0CE00CE00CE00CE0
(1778533622.988960) can0 0000E009#0CE00CE00CE00CE2
(1778533622.989960) can0 0000E010#0000000000000000
(1778533622.990960) can0 0000E011#0000000000000000
(1778533622.991961) can0 0000E012#0CE1000100000000
(1778533622.992960) can0 0000F001#0000000000000000
(1778533622.993960) can0 18FF28F4#10330000020F0000
(1778533622.994963) can0 18FE28F4#0CE20CE039390000
(1778533622.995961) can0 18FD28F4#1527FA6F00000000
(1778533622.996838) can0 4D4#000033007D0F0203
(1778533622.997824) can0 4D5#E00CE20C39390000
(1778533622.998961) can0 18914010#0CE2100CE0010000
(1778533622.999961) can0 18904010#020F0000753001FE
(1778533623.000961) can0 18FA28F4#373CA12C10270000
(1778533623.001961) can0 18FB28F4#E20CE00C39390000
(1778533623.002961) can0 18FC28F4#383300000F020000
(1778533623.003902) can0 18F810F3#0F02E80333640100
(1778533623.004961) can0 18F815F3#0000000010030000
(1778533623.005832) can0 273#000000000F023300
(1778533623.006831) can0 1E1#020F271001FE01FE
(1778533623.007876) can0 1F5#0000000000000000
(1778533623.008961) can0 0800A6A9#0000000000000000
(1778533623.009903) can0 1000A6A9#0F02881333434343
(1778533623.010961) can0 1C00A6A9#0000000000030000
(1778533623.011962) can0 02018100#1003020F00000000
(1778533623.012962) can0 02028100#0000003364000000
(1778533623.013962) can0 02038100#0CE201100CE00101
(1778533623.014962) can0 02048100#4301014301010000
(1778533623.082591) can0 0000E005#15273D0003B60591
(1778533623.083180) can0 1806E5F4#13EC010003B6023A
(1778533623.083968) can0 0000E000#13EC13EC020F0000
(1778533623.084968) can0 0000E004#111103B603B601E4
(1778533623.085908) can0 0000E006#0CE00CE00CE00CE0
(1778533623.086903) can0 0000E007#0CE00CE00CE00CE0
(1778533623.087969) can0 0000E008#0CE00CE00CE00CE0
(1778533623.088968) can0 0000E009#0CE00CE00CE00CE2
(1778533623.089968) can0 0000E010#0000000000000000
(1778533623.090968) can0 0000E011#0000000000000000
(1778533623.091969) can0 0000E012#0CE1000100000000
(1778533623.093001) can0 0000F001#0000000000000000
(1778533623.093968) can0 18FF28F4#10330000020F0000
(1778533623.094901) can0 18FE28F4#0CE20CE039390000
(1778533623.095970) can0 18FD28F4#1527FA6F00000000
(1778533623.096834) can0 4D4#000033007D0F0203
(1778533623.097814) can0 4D5#E00CE20C39390000
(1778533623.098969) can0 18914010#0CE2100CE0010000
(1778533623.099969) can0 18904010#020F0000753001FE
(1778533623.100969) can0 18FA28F4#373CA12C10270000
(1778533623.101910) can0 18FB28F4#E20CE00C39390000
(1778533623.102969) can0 18FC28F4#383300000F020000
(1778533623.103904) can0 18F810F3#0F02E80333640100
(1778533623.104969) can0 18F815F3#0000000010030000
(1778533623.105847) can0 273#000000000F023300
(1778533623.106821) can0 1E1#020F271001FE01FE
(1778533623.107859) can0 1F5#0000000000000000
(1778533623.108970) can0 0800A6A9#0000000000000000
(1778533623.109898) can0 1000A6A9#0F02881333434343
(1778533623.110970) can0 1C00A6A9#0000000000030000
(1778533623.111971) can0 02018100#1003020F00000000
(1778533623.112970) can0 02028100#0000003364000000
(1778533623.113970) can0 02038100#0CE201100CE00101
(1778533623.114970) can0 02048100#4301014301010000
(1778533623.182587) can0 0000E005#15273D0003B60591
(1778533623.183173) can0 1806E5F4#13EC010003B6023A
(1778533623.183976) can0 0000E000#13EC13EC020F0000
(1778533623.184901) can0 0000E004#111103B603B601E4
(1778533623.185976) can0 0000E006#0CE00CE00CE00CE0
(1778533623.186911) can0 0000E007#0CE00CE00CE00CE2
(1778533623.187910) can0 0000E008#0CE00CE00CE00CE0
(1778533623.188905) can0 0000E009#0CE00CE00CE00CE2
(1778533623.189976) can0 0000E010#0000000000000000
(1778533623.190976) can0 0000E011#0000000000000000
(1778533623.191978) can0 0000E012#0CE1000100000000
(1778533623.192976) can0 0000F001#0000000000000000
(1778533623.193976) can0 18FF28F4#10330000020F0000
(1778533623.194911) can0 18FE28F4#0CE20CE039390000
(1778533623.195977) can0 18FD28F4#1527FA6F00000000
(1778533623.196832) can0 4D4#000033007D0F0203
(1778533623.197815) can0 4D5#E00CE20C39390000
(1778533623.198977) can0 18914010#0CE2080CE0010000
(1778533623.199978) can0 18904010#020F0000753001FE
(1778533623.200908) can0 18FA28F4#373CA12C10270000
(1778533623.201910) can0 18FB28F4#E20CE00C39390000
(1778533623.202977) can0 18FC28F4#383300000F020000
(1778533623.203900) can0 18F810F3#0F02E80333640100
(1778533623.204977) can0 18F815F3#0000000010030000
(1778533623.205830) can0 273#000000000F023300
(1778533623.206829) can0 1E1#020F271001FE01FE
(1778533623.207854) can0 1F5#0000000000000000
(1778533623.208978) can0 0800A6A9#0000000000000000
(1778533623.209894) can0 1000A6A9#0F02881333434343
(1778533623.210978) can0 1C00A6A9#0000000000030000
(1778533623.211979) can0 02018100#1003020F00000000
(1778533623.212978) can0 02028100#0000003364000000
(1778533623.213919) can0 02038100#0CE201080CE00101
(1778533623.214979) can0 02048100#4301014301010000
(1778533623.282603) can0 0000E005#15273D0003B60591
(1778533623.283193) can0 1806E5F4#13EC010003B6023A
(1778533623.283984) can0 0000E000#13EC13EC020F0000
(1778533623.284905) can0 0000E004#111103B603B601E4
(1778533623.285919) can0 0000E006#0CE00CE00CE00CE0
(1778533623.286898) can0 0000E007#0CE00CE00CE00CE2
(1778533623.287918) can0 0000E008#0CE00CE00CE00CE0
(1778533623.288911) can0 0000E009#0CE00CE00CE00CE2
(1778533623.289984) can0 0000E010#0000000000000000
(1778533623.290985) can0 0000E011#0000000000000000
(1778533623.291985) can0 0000E012#0CE1000100000000
(1778533623.292984) can0 0000F001#0000000000000000
(1778533623.293985) can0 18FF28F4#10330000020F0000
(1778533623.294913) can0 18FE28F4#0CE20CE039390000
(1778533623.295924) can0 18FD28F4#1527FA6F00000000
(1778533623.296823) can0 4D4#000033007D0F0203
(1778533623.297823) can0 4D5#E00CE20C39390000
(1778533623.298912) can0 18914010#0CE2080CE0010000
(1778533623.299986) can0 18904010#020F0000753001FE
(1778533623.300907) can0 18FA28F4#373CA12C10270000
(1778533623.301906) can0 18FB28F4#E20CE00C39390000
(1778533623.302985) can0 18FC28F4#383300000F020000
(1778533623.303895) can0 18F810F3#0F02E80333640100
(1778533623.304986) can0 18F815F3#0000000010030000
(1778533623.305838) can0 273#000000000F023300
(1778533623.306836) can0 1E1#020F271001FE01FE
(1778533623.307881) can0 1F5#0000000000000000
(1778533623.308986) can0 0800A6A9#0000000000000000
(1778533623.309908) can0 1000A6A9#0F02881333434343
(1778533623.310986) can0 1C00A6A9#0000000000030000
(1778533623.311986) can0 02018100#1003020F00000000
(1778533623.312986) can0 02028100#0000003364000000
(1778533623.313986) can0 02038100#0CE201080CE00101
(1778533623.314922) can0 02048100#4301014301010000
(1778533623.399579) can0 0000E005#15273D0003B60591
(1778533623.400172) can0 1806E5F4#13EC010003B6023A
(1778533623.400993) can0 0000E000#13EC13EC020F0000
(1778533623.401921) can0 0000E004#111103B603B601E4
(1778533623.402920) can0 0000E006#0CE00CE00CE00CE0
(1778533623.403915) can0 0000E007#0CE00CE00CE00CE2
(1778533623.404907) can0 0000E008#0CE00CE00CE00CE0
(1778533623.405908) can0 0000E009#0CE00CE00CE00CE2
(1778533623.406994) can0 0000E010#0000000000000000
(1778533623.407995) can0 0000E011#0000000000000000
(1778533623.408996) can0 0000E012#0CE1000100000000
(1778533623.409891) can0 0000E013#4542323630354C43
(1778533623.410921) can0 0000E014#3134323300000000
(1778533623.411937) can0 0000E015#0000000000000003
(1778533623.412995) can0 0000F000#0000000000000000
(1778533623.413994) can0 0000F001#0000000000000000
(1778533623.414935) can0 18FF28F4#10330000020F0000
(1778533623.415916) can0 18FE28F4#0CE20CE039390000
(1778533623.416906) can0 18FD28F4#1527FA6F00000000
(1778533623.417832) can0 4D4#000033007D0F0203
(1778533623.418814) can0 4D5#E00CE20C39390000
(1778533623.419922) can0 18914010#0CE2080CE0010000
(1778533623.420915) can0 18904010#020F0000753001FE
(1778533623.421905) can0 18FA28F4#373CA12C10270000
(1778533623.422916) can0 18FB28F4#E20CE00C39390000
(1778533623.423929) can0 18FC28F4#383300000F020000
(1778533623.424909) can0 18F810F3#0F02E80333640100
(1778533623.425923) can0 18F811F3#E20C0801E00C0101
(1778533623.426923) can0 18F812F3#3901013901010000
(1778533623.427936) can0 18F813F3#0101000000000000
(1778533623.428910) can0 18F814F3#32000F19A9015F00
(1778533623.429930) can0 18F815F3#0000000010030000
(1778533623.430846) can0 273#000000000F023300
(1778533623.431828) can0 1E1#020F271001FE01FE
(1778533623.432853) can0 1F5#0000000000000000
(1778533623.433930) can0 0800A6A9#0000000000000000
(1778533623.434898) can0 1000A6A9#0F02881333434343
(1778533623.435923) can0 1C00A6A9#0000000000030000
(1778533623.436996) can0 02018100#1003020F00000000
(1778533623.437925) can0 02028100#0000003364000000
(1778533623.438923) can0 02038100#0CE201080CE00101
(1778533623.439924) can0 02048100#4301014301010000
(1778533623.497580) can0 0000E005#15273D0003B60591
(1778533623.498179) can0 1806E5F4#13EC010003B6023A
(1778533623.499001) can0 0000E000#13EC13EC020F0000
(1778533623.499924) can0 0000E004#111103B603B601E4
(1778533623.500913) can0 0000E006#0CE00CE00CE00CE0
(1778533623.501916) can0 0000E007#0CE00CE00CE00CE2
(1778533623.502916) can0 0000E008#0CE00CE00CE00CE0
(1778533623.503910) can0 0000E009#0CE00CE00CE00CE2
(1778533623.505002) can0 0000E010#0000000000000000
(1778533623.506002) can0 0000E011#0000000000000000
(1778533623.506930) can0 0000E012#0CE1000100000000
(1778533623.507942) can0 0000F001#0000000000000000
(1778533623.508939) can0 18FF28F4#10330000020F0000
(1778533623.509904) can0 18FE28F4#0CE20CE039390000
(1778533623.510918) can0 18FD28F4#1527FA6F00000000
(1778533623.511835) can0 4D4#000033007D0F0203
(1778533623.512815) can0 4D5#E00CE20C39390000
(1778533623.513912) can0 18914010#0CE2080CE0010000
(1778533623.514923) can0 18904010#020F0000753001FE
(1778533623.515905) can0 18FA28F4#373CA12C10270000
(1778533623.516904) can0 18FB28F4#E20CE00C39390000
(1778533623.517930) can0 18FC28F4#383300000F020000
(1778533623.518911) can0 18F810F3#0F02E80333640100
(1778533623.519943) can0 18F815F3#0000000010030000
(1778533623.520842) can0 273#000000000F023300
(1778533623.521828) can0 1E1#020F271001FE01FE
(1778533623.522855) can0 1F5#0000000000000000
(1778533623.523937) can0 0800A6A9#0000000000000000
(1778533623.524895) can0 1000A6A9#0F02881333434343
(1778533623.525929) can0 1C00A6A9#0000000000030000
(1778533623.526943) can0 02018100#1003020F00000000
(1778533623.527938) can0 02028100#0000003364000000
(1778533623.528938) can0 02038100#0CE201080CE00101
(1778533623.529918) can0 02048100#4301014301010000
(1778533623.597590) can0 0000E005#15273D0003B60591
(1778533623.598182) can0 1806E5F4#13EC010003B6023A
(1778533623.598931) can0 0000E000#13EC13EC020F0000
(1778533623.599932) can0 0000E004#111103B603B601E4
(1778533623.600912) can0 0000E006#0CE00CE00CE00CE0
(1778533623.601912) can0 0000E007#0CE00CE00CE00CE2
(1778533623.602899) can0 0000E008#0CE00CE00CE00CE0
(1778533623.603906) can0 0000E009#0CE00CE00CE00CE2
(1778533623.604951) can0 0000E010#0000000000000000
(1778533623.605950) can0 0000E011#0000000000000000
(1778533623.606930) can0 0000E012#0CE1000100000000
(1778533623.608011) can0 0000F001#0000000000000000
(1778533623.608932) can0 18FF28F4#10330000020F0000
(1778533623.609899) can0 18FE28F4#0CE20CE039390000
(1778533623.610907) can0 18FD28F4#1527FA6F00000000
(1778533623.611830) can0 4D4#000033007D0F0203
(1778533623.612811) can0 4D5#E00CE20C39390000
(1778533623.613925) can0 18914010#0CE2080CE0010000
(1778533623.614915) can0 18904010#020F0000753001FE
(1778533623.615939) can0 18FA28F4#373CA12C10270000
(1778533623.616901) can0 18FB28F4#E20CE00C39390000
(1778533623.617932) can0 18FC28F4#383300000F020000
(1778533623.618894) can0 18F810F3#0F02E80333640100
(1778533623.619946) can0 18F815F3#0000000010030000
(1778533623.620843) can0 273#000000000F023300
(1778533623.621825) can0 1E1#020F271001FE01FE
(1778533623.622847) can0 1F5#0000000000000000
(1778533623.624012) can0 0800A6A9#0000000000000000
(1778533623.624896) can0 1000A6A9#0F02881333434343
(1778533623.625919) can0 1C00A6A9#0000000000030000
(1778533623.626931) can0 02018100#1003020F00000000
(1778533623.627933) can0 02028100#0000003364000000
(1778533623.628933) can0 02038100#0CE201080CE00101
(1778533623.629927) can0 02048100#4301014301010000
(1778533623.697585) can0 0000E005#15273D0003B60591
(1778533623.698176) can0 1806E5F4#13EC010003B6023A
(1778533623.698940) can0 0000E000#13EC13EC020F0000
(1778533623.699908) can0 0000E004#111103B603B601E4
(1778533623.700952) can0 0000E006#0CE00CE00CE00CE0
(1778533623.701920) can0 0000E007#0CE00CE00CE00CE0
(1778533623.702913) can0 0000E008#0CE20CE00CE00CE0
(1778533623.703895) can0 0000E009#0CE00CE00CE00CE2
(1778533623.704938) can0 0000E010#0000000000000000
(1778533623.705939) can0 0000E011#0000000000000000
(1778533623.706920) can0 0000E012#0CE1000100000000
(1778533623.707952) can0 0000F001#0000000000000000
(1778533623.709019) can0 18FF28F4#10330000020F0000
(1778533623.709915) can0 18FE28F4#0CE20CE039390000
(1778533623.710927) can0 18FD28F4#1527FA6F00000000
(1778533623.711826) can0 4D4#000033007D0F0203
(1778533623.712801) can0 4D5#E00CE20C39390000
(1778533623.713921) can0 18914010#0CE2090CE0010000
(1778533623.714914) can0 18904010#020F0000753001FE
(1778533623.715914) can0 18FA28F4#373CA12C10270000
(1778533623.716954) can0 18FB28F4#E20CE00C39390000
(1778533623.717927) can0 18FC28F4#383300000F020000
(1778533623.718908) can0 18F810F3#0F02E80333640100
(1778533623.719935) can0 18F815F3#0000000010030000
(1778533623.720832) can0 273#000000000F023300
(1778533623.721833) can0 1E1#020F271001FE01FE
(1778533623.722845) can0 1F5#0000000000000000
(1778533623.723941) can0 0800A6A9#0000000000000000
(1778533623.724902) can0 1000A6A9#0F02881333434343
(1778533623.725922) can0 1C00A6A9#0000000000030000
(1778533623.726947) can0 02018100#1003020F00000000
(1778533623.727935) can0 02028100#0000003364000000
(1778533623.728909) can0 02038100#0CE201090CE00101
(1778533623.729923) can0 02048100#4301014301010000
(1778533623.797600) can0 0000E005#15273D0003B60591
(1778533623.798191) can0 1806E5F4#13EC010003B6023A
(1778533623.798941) can0 0000E000#13EC13EC020F0000
(1778533623.799909) can0 0000E004#111103B603B601E4
(1778533623.800923) can0 0000E006#0CE00CE00CE00CE0
(1778533623.801916) can0 0000E007#0CE00CE00CE00CE0
(1778533623.802908) can0 0000E008#0CE20CE00CE00CE0
(1778533623.803896) can0 0000E009#0CE00CE00CE00CE2
(1778533623.804940) can0 0000E010#0000000000000000
(1778533623.805941) can0 0000E011#0000000000000000
(1778533623.806914) can0 0000E012#0CE1000100000000
(1778533623.807954) can0 0000F001#0000000000000000
(1778533623.808929) can0 18FF28F4#10330000020F0000
(1778533623.809915) can0 18FE28F4#0CE20CE039390000
(1778533623.810929) can0 18FD28F4#1527FA6F00000000
(1778533623.811827) can0 4D4#000033007D0F0203
(1778533623.812809) can0 4D5#E00CE20C39390000
(1778533623.813903) can0 18914010#0CE2090CE0010000
(1778533623.814917) can0 18904010#020F0000753001FE
(1778533623.815918) can0 18FA28F4#373CA12C10270000
(1778533623.816910) can0 18FB28F4#E20CE00C39390000
(1778533623.817923) can0 18FC28F4#383300000F020000
(1778533623.818901) can0 18F810F3#0F02E80333640100
(1778533623.819937) can0 18F815F3#0000000010030000
(1778533623.820840) can0 273#000000000F023300
(1778533623.821834) can0 1E1#020F271001FE01FE
(1778533623.822847) can0 1F5#0000000000000000
(1778533623.823942) can0 0800A6A9#0000000000000000
(1778533623.824893) can0 1000A6A9#0F02881333434343
(1778533623.825924) can0 1C00A6A9#0000000000030000
(1778533623.826933) can0 02018100#1003020F00000000
(1778533623.827937) can0 02028100#0000003364000000
(1778533623.828918) can0 02038100#0CE201090CE00101
(1778533623.829930) can0 02048100#4301014301010000
(1778533623.914586) can0 0000E005#15273D0003B60591
(1778533623.915182) can0 1806E5F4#13EC010003B6023A
(1778533623.915964) can0 0000E000#13EC13EC020F0000
(1778533623.916912) can0 0000E004#111103B603B601E4
(1778533623.917912) can0 0000E006#0CE00CE00CE00CE0
(1778533623.918906) can0 0000E007#0CE00CE00CE00CE0
(1778533623.919906) can0 0000E008#0CE00CE00CE00CE0
(1778533623.920901) can0 0000E009#0CE00CE00CE00CE2
(1778533623.921942) can0 0000E010#0000000000000000
(1778533623.922944) can0 0000E011#0000000000000000
(1778533623.923958) can0 0000E012#0CE1000100000000
(1778533623.924894) can0 0000E013#4542323630354C43
(1778533623.925918) can0 0000E014#3134323300000000
(1778533623.926938) can0 0000E015#0000000000000003
(1778533623.927952) can0 0000F000#0000000000000000
(1778533623.928945) can0 0000F001#0000000000000000
(1778533623.929926) can0 18FF28F4#10330000020F0000
(1778533623.930907) can0 18FE28F4#0CE20CE039390000
(1778533623.931958) can0 18FD28F4#1527FA6F00000000
(1778533623.932837) can0 4D4#000033007D0F0203
(1778533623.933819) can0 4D5#E00CE20C39390000
(1778533623.934913) can0 18914010#0CE2100CE0010000
(1778533623.935933) can0 18904010#020F0000753001FE
(1778533623.936913) can0 18FA28F4#373CA12C10270000
(1778533623.937905) can0 18FB28F4#E20CE00C39390000
(1778533623.938920) can0 18FC28F4#383300000F020000
(1778533623.939952) can0 18F810F3#0F02E80333640100
(1778533623.940915) can0 18F811F3#E20C1001E00C0101
(1778533623.941914) can0 18F812F3#3901013901010000
(1778533623.942947) can0 18F813F3#0101000000000000
(1778533623.943908) can0 18F814F3#32000F19A9015F00
(1778533623.944940) can0 18F815F3#0000000010030000
(1778533623.945836) can0 273#000000000F023300
(1778533623.946838) can0 1E1#020F271001FE01FE
(1778533623.947845) can0 1F5#0000000000000000
(1778533623.948940) can0 0800A6A9#0000000000000000
(1778533623.949904) can0 1000A6A9#0F02881333434343
(1778533623.950934) can0 1C00A6A9#0000000000030000
(1778533623.951947) can0 02018100#1003020F00000000
(1778533623.952927) can0 02028100#0000003364000000
(1778533623.953921) can0 02038100#0CE201100CE00101
(1778533623.954921) can0 02048100#4301014301010000
(1778533624.012586) can0 0000E005#15273D0003B60591
(1778533624.013177) can0 1806E5F4#13EC010003B6023A
(1778533624.013926) can0 0000E000#13EC13EC020F0000
(1778533624.014908) can0 0000E004#111103B603B601E4
(1778533624.015907) can0 0000E006#0CE00CE00CE00CE0
(1778533624.016951) can0 0000E007#0CE00CE00CE00CE0
(1778533624.017893) can0 0000E008#0CE00CE00CE00CE0
(1778533624.018900) can0 0000E009#0CE00CE00CE00CE2
(1778533624.019946) can0 0000E010#0000000000000000
(1778533624.020939) can0 0000E011#0000000000000000
(1778533624.021926) can0 0000E012#0CE1000100000000
(1778533624.022941) can0 0000F001#0000000000000000
(1778533624.023934) can0 18FF28F4#10330000020F0000
(1778533624.024902) can0 18FE28F4#0CE20CE039390000
(1778533624.025911) can0 18FD28F4#1527FA6F00000000
(1778533624.026832) can0 4D4#000033007D0F0203
(1778533624.027813) can0 4D5#E00CE20C39390000
(1778533624.028921) can0 18914010#0CE2100CE0010000
(1778533624.029918) can0 18904010#020F0000753001FE
(1778533624.030902) can0 18FA28F4#373CA12C10270000
(1778533624.031896) can0 18FB28F4#E20CE00C39390000
(1778533624.032928) can0 18FC28F4#383300000F020000
(1778533624.033896) can0 18F810F3#0F02E80333640100
(1778533624.034940) can0 18F815F3#0000000010030000
(1778533624.035839) can0 273#000000000F023300
(1778533624.036820) can0 1E1#020F271001FE01FE
(1778533624.037851) can0 1F5#0000000000000000
(1778533624.038928) can0 0800A6A9#0000000000000000
(1778533624.039897) can0 1000A6A9#0F02881333434343
(1778533624.040919) can0 1C00A6A9#0000000000030000
(1778533624.041935) can0 02018100#1003020F00000000
(1778533624.042935) can0 02028100#0000003364000000
(1778533624.043916) can0 02038100#0CE201100CE00101
(1778533624.044910) can0 02048100#4301014301010000
(1778533624.112587) can0 0000E005#15273D0003B60591
(1778533624.113172) can0 1806E5F4#13EC010003B6023A
(1778533624.113929) can0 0000E000#13EC13EC020F0000
(1778533624.114903) can0 0000E004#111103B603B601E4
(1778533624.115903) can0 0000E006#0CE00CE00CE00CE0
(1778533624.116902) can0 0000E007#0CE00CE00CE00CE0
(1778533624.117915) can0 0000E008#0CE00CE00CE00CE0
(1778533624.118895) can0 0000E009#0CE00CE00CE00CE2
(1778533624.119942) can0 0000E010#0000000000000000
(1778533624.120941) can0 0000E011#0000000000000000
(1778533624.121921) can0 0000E012#0CE1000100000000
(1778533624.122953) can0 0000F001#0000000000000000
(1778533624.123935) can0 18FF28F4#10330000020F0000
(1778533624.124897) can0 18FE28F4#0CE20CE039390000
(1778533624.125916) can0 18FD28F4#1527FA6F00000000
(1778533624.126827) can0 4D4#000033007D0F0203
(1778533624.127808) can0 4D5#E00CE20C39390000
(1778533624.128922) can0 18914010#0CE2100CE0010000
(1778533624.129916) can0 18904010#020F0000753001FE
(1778533624.130910) can0 18FA28F4#373CA12C10270000
(1778533624.131898) can0 18FB28F4#E20CE00C39390000
(1778533624.132924) can0 18FC28F4#383300000F020000
(1778533624.133906) can0 18F810F3#0F02E80333640100
(1778533624.134942) can0 18F815F3#0000000010030000
(1778533624.135842) can0 273#000000000F023300
(1778533624.136821) can0 1E1#020F271001FE01FE
(1778533624.137854) can0 1F5#0000000000000000
(1778533624.138940) can0 0800A6A9#0000000000000000
(1778533624.139891) can0 1000A6A9#0F02881333434343
(1778533624.140924) can0 1C00A6A9#0000000000030000
(1778533624.141936) can0 02018100#1003020F00000000
(1778533624.142927) can0 02028100#0000003364000000
(1778533624.143917) can0 02038100#0CE201100CE00101
(1778533624.144911) can0 02048100#4301014301010000
(1778533624.212582) can0 0000E005#15273D0003B60591
(1778533624.213174) can0 1806E5F4#13EC010003B6023A
(1778533624.213924) can0 0000E000#13EC13EC020F0000
(1778533624.214910) can0 0000E004#111103B603B601E4
(1778533624.215923) can0 0000E006#0CE00CE00CE00CE0
(1778533624.216896) can0 0000E007#0CE00CE00CE00CE0
(1778533624.217918) can0 0000E008#0CE00CE00CE00CE0
(1778533624.218898) can0 0000E009#0CE00CE00CE00CE2
(1778533624.219943) can0 0000E010#0000000000000000
(1778533624.220940) can0 0000E011#0000000000000000
(1778533624.221923) can0 0000E012#0CE1000100000000
(1778533624.222949) can0 0000F001#0000000000000000
(1778533624.223968) can0 18FF28F4#10330000020F0000
(1778533624.224898) can0 18FE28F4#0CE20CE039390000
(1778533624.225911) can0 18FD28F4#1527FA6F00000000
(1778533624.226829) can0 4D4#000033007D0F0203
(1778533624.227815) can0 4D5#E00CE20C39390000
(1778533624.228920) can0 18914010#0CE2100CE0010000
(1778533624.229922) can0 18904010#020F0000753001FE
(1778533624.230901) can0 18FA28F4#373CA12C10270000
(1778533624.231944) can0 18FB28F4#E20CE00C39390000
(1778533624.232919) can0 18FC28F4#383300000F020000
(1778533624.233906) can0 18F810F3#0F02E80333640100
(1778533624.234937) can0 18F815F3#0000000010030000
(1778533624.235837) can0 273#000000000F023300
(1778533624.236817) can0 1E1#020F271001FE01FE
(1778533624.237848) can0 1F5#0000000000000000
(1778533624.238925) can0 0800A6A9#0000000000000000
(1778533624.239937) can0 1000A6A9#0F02881333434343
(1778533624.240920) can0 1C00A6A9#0000000000030000
(1778533624.241938) can0 02018100#1003020F00000000
(1778533624.242932) can0 02028100#0000003364000000
(1778533624.243912) can0 02038100#0CE201100CE00101
(1778533624.244919) can0 02048100#4301014301010000
(1778533624.312584) can0 0000E005#15273D0003B60591
(1778533624.313176) can0 1806E5F4#13EC010003B6023A
(1778533624.313938) can0 0000E000#13EC13EC020F0000
(1778533624.314906) can0 0000E004#111103B603B601E4
(1778533624.315900) can0 0000E006#0CE00CE00CE00CE0
(1778533624.316951) can0 0000E007#0CE00CE00CE00CE0
(1778533624.317912) can0 0000E008#0CE00CE00CE00CE0
(1778533624.318889) can0 0000E009#0CE00CE00CE00CE2
(1778533624.319945) can0 0000E010#0000000000000000
(1778533624.320938) can0 0000E011#0000000000000000
(1778533624.321920) can0 0000E012#0CE1000100000000
(1778533624.322949) can0 0000F001#0000000000000000
(1778533624.323932) can0 18FF28F4#10330000020F0000
(1778533624.324945) can0 18FE28F4#0CE20CE039390000
(1778533624.325913) can0 18FD28F4#1527FA6F00000000
(1778533624.326826) can0 4D4#000033007D0F0203
(1778533624.327812) can0 4D5#E00CE20C39390000
(1778533624.328919) can0 18914010#0CE2100CE0010000
(1778533624.329919) can0 18904010#020F0000753001FE
(1778533624.330897) can0 18FA28F4#373CA12C10270000
(1778533624.331913) can0 18FB28F4#E20CE00C39390000
(1778533624.332928) can0 18FC28F4#383300000F020000
(1778533624.333907) can0 18F810F3#0F02E80333640100
(1778533624.334935) can0 18F815F3#0000000010030000
(1778533624.335839) can0 273#000000000F023300
(1778533624.336818) can0 1E1#020F271001FE01FE
(1778533624.337850) can0 1F5#0000000000000000
(1778533624.338927) can0 0800A6A9#0000000000000000
(1778533624.339889) can0 1000A6A9#0F02881333434343
(1778533624.340920) can0 1C00A6A9#0000000000030000
(1778533624.341933) can0 02018100#1003020F00000000
(1778533624.342928) can0 02028100#0000003364000000
(1778533624.343914) can0 02038100#0CE201100CE00101
(1778533624.344910) can0 02048100#4301014301010000
(1778533624.429582) can0 0000E005#15273D0003B60591
(1778533624.430162) can0 1806E5F4#13EC010003B6023A
(1778533624.430939) can0 0000E000#13EC13EC020F0000
(1778533624.431903) can0 0000E004#111103B603B601E4
(1778533624.432916) can0 0000E006#0CE00CE00CE00CE2
(1778533624.433915) can0 0000E007#0CE00CE00CE00CE0
(1778533624.434909) can0 0000E008#0CE20CE00CE00CE0
(1778533624.435891) can0 0000E009#0CE00CE00CE00CE2
(1778533624.436953) can0 0000E010#0000000000000000
(1778533624.437929) can0 0000E011#0000000000000000
(1778533624.438934) can0 0000E012#0CE1000100000000
(1778533624.439885) can0 0000E013#4542323630354C43
(1778533624.440910) can0 0000E014#3134323300000000
(1778533624.441936) can0 0000E015#0000000000000003
(1778533624.442941) can0 0000F000#0000000000000000
(1778533624.443935) can0 0000F001#0000000000000000
(1778533624.444935) can0 18FF28F4#10330000020F0000
(1778533624.445897) can0 18FE28F4#0CE20CE039390000
(1778533624.446929) can0 18FD28F4#1527FA6F00000000
(1778533624.447828) can0 4D4#000033007D0F0203
(1778533624.448808) can0 4D5#E00CE20C39390000
(1778533624.449914) can0 18914010#0CE2040CE0010000
(1778533624.450917) can0 18904010#020F0000753001FE
(1778533624.451904) can0 18FA28F4#373CA12C10270000
(1778533624.452898) can0 18FB28F4#E20CE00C39390000
(1778533624.453922) can0 18FC28F4#383300000F020000
(1778533624.454923) can0 18F810F3#0F02E80333640100
(1778533624.455905) can0 18F811F3#E20C0401E00C0101
(1778533624.456904) can0 18F812F3#3901013901010000
(1778533624.457937) can0 18F813F3#0101000000000000
(1778533624.458905) can0 18F814F3#32000F19A9015F00
(1778533624.459933) can0 18F815F3#0000000010030000
(1778533624.460828) can0 273#000000000F023300
(1778533624.461824) can0 1E1#020F271001FE01FE
(1778533624.462886) can0 1F5#0000000000000000
(1778533624.463931) can0 0800A6A9#0000000000000000
(1778533624.464893) can0 1000A6A9#0F02881333434343
(1778533624.465923) can0 1C00A6A9#0000000000030000
(1778533624.466937) can0 02018100#1003020F00000000
(1778533624.467931) can0 02028100#0000003364000000
(1778533624.468912) can0 02038100#0CE201040CE00101
(1778533624.469912) can0 02048100#4301014301010000
(1778533624.527557) can0 0000E005#15273D0003B60591
(1778533624.528148) can0 1806E5F4#13EC010003B6023A
(1778533624.528931) can0 0000E000#13EC13EC020F0000
(1778533624.529904) can0 0000E004#111103B603B601E4
(1778533624.530910) can0 0000E006#0CE00CE00CE00CE2
(1778533624.531937) can0 0000E007#0CE00CE00CE00CE0
(1778533624.532904) can0 0000E008#0CE20CE00CE00CE0
(1778533624.533897) can0 0000E009#0CE00CE00CE00CE2
(1778533624.534948) can0 0000E010#0000000000000000
(1778533624.535943) can0 0000E011#0000000000000000
(1778533624.536923) can0 0000E012#0CE1000100000000
(1778533624.537942) can0 0000F001#0000000000000000
(1778533624.538936) can0 18FF28F4#10330000020F0000
(1778533624.539937) can0 18FE28F4#0CE20CE039390000
(1778533624.540917) can0 18FD28F4#1527FA6F00000000
(1778533624.541831) can0 4D4#000033007D0F0203
(1778533624.542816) can0 4D5#E00CE20C39390000
(1778533624.543912) can0 18914010#0CE2040CE0010000
(1778533624.544924) can0 18904010#020F0000753001FE
(1778533624.545898) can0 18FA28F4#373CA12C10270000
(1778533624.546899) can0 18FB28F4#E20CE00C39390000
(1778533624.547963) can0 18FC28F4#383300000F020000
(1778533624.548899) can0 18F810F3#0F02E80333640100
(1778533624.549943) can0 18F815F3#0000000010030000
(1778533624.550824) can0 273#000000000F023300
(1778533624.551823) can0 1E1#020F271001FE01FE
(1778533624.552855) can0 1F5#0000000000000000
(1778533624.553932) can0 0800A6A9#0000000000000000
(1778533624.554900) can0 1000A6A9#0F02881333434343
(1778533624.555976) can0 1C00A6A9#0000000000030000
(1778533624.556938) can0 02018100#1003020F00000000
(1778533624.557914) can0 02028100#0000003364000000
(1778533624.558918) can0 02038100#0CE201040CE00101
(1778533624.559913) can0 02048100#4301014301010000
(1778533624.627583) can0 0000E005#15273D0003B60591
(1778533624.628175) can0 1806E5F4#13EC010003B6023A
(1778533624.628926) can0 0000E000#13EC13EC020F0000
(1778533624.629907) can0 0000E004#111103B603B601E4
(1778533624.630906) can0 0000E006#0CE00CE00CE00CE2
(1778533624.631899) can0 0000E007#0CE00CE00CE00CE0
(1778533624.632950) can0 0000E008#0CE20CE00CE00CE0
(1778533624.633899) can0 0000E009#0CE00CE00CE00CE2
(1778533624.634944) can0 0000E010#0000000000000000
(1778533624.635935) can0 0000E011#0000000000000000
(1778533624.636924) can0 0000E012#0CE1000100000000
(1778533624.637938) can0 0000F001#0000000000000000
(1778533624.638932) can0 18FF28F4#10330000020F0000
(1778533624.639900) can0 18FE28F4#0CE20CE039390000
(1778533624.640913) can0 18FD28F4#1527FA6F00000000
(1778533624.641830) can0 4D4#000033007D0F0203
(1778533624.642811) can0 4D5#E00CE20C39390000
(1778533624.643901) can0 18914010#0CE2040CE0010000
(1778533624.644919) can0 18904010#020F0000753001FE
(1778533624.645901) can0 18FA28F4#373CA12C10270000
(1778533624.646899) can0 18FB28F4#E20CE00C39390000
(1778533624.647922) can0 18FC28F4#383300000F020000
(1778533624.648895) can0 18F810F3#0F02E80333640100
(1778533624.649939) can0 18F815F3#0000000010030000
(1778533624.650825) can0 273#000000000F023300
(1778533624.651818) can0 1E1#020F271001FE01FE
(1778533624.652850) can0 1F5#0000000000000000
(1778533624.653927) can0 0800A6A9#0000000000000000
(1778533624.654895) can0 1000A6A9#0F02881333434343
(1778533624.655928) can0 1C00A6A9#0000000000030000
(1778533624.656940) can0 02018100#1003020F00000000
(1778533624.657933) can0 02028100#0000003364000000
(1778533624.658914) can0 02038100#0CE201040CE00101
(1778533624.659909) can0 02048100#4301014301010000
(1778533624.727585) can0 0000E005#15273D0003B60591
(1778533624.728177) can0 1806E5F4#13EC010003B6023A
(1778533624.728927) can0 0000E000#13EC13EC020F0000
(1778533624.729907) can0 0000E004#111103B603B601E4
(1778533624.730909) can0 0000E006#0CE00CE00CE00CE0
(1778533624.731903) can0 0000E007#0CE00CE00CE00CE0
(1778533624.732901) can0 0000E008#0CE00CE00CE00CE0
(1778533624.733893) can0 0000E009#0CE00CE00CE00CE2
(1778533624.734946) can0 0000E010#0000000000000000
(1778533624.735946) can0 0000E011#0000000000000000
(1778533624.736927) can0 0000E012#0CE1000100000000
(1778533624.737937) can0 0000F001#0000000000000000
(1778533624.738933) can0 18FF28F4#10330000020F0000
(1778533624.739902) can0 18FE28F4#0CE20CE039390000
(1778533624.740915) can0 18FD28F4#1527FA6F00000000
(1778533624.741832) can0 4D4#000033007D0F0203
(1778533624.742814) can0 4D5#E00CE20C39390000
(1778533624.743909) can0 18914010#0CE2100CE0010000
(1778533624.744921) can0 18904010#020F0000753001FE
(1778533624.745900) can0 18FA28F4#373CA12C10270000
(1778533624.746915) can0 18FB28F4#E20CE00C39390000
(1778533624.747928) can0 18FC28F4#383300000F020000
(1778533624.748896) can0 18F810F3#0F02E80333640100
(1778533624.749938) can0 18F815F3#0000000010030000
(1778533624.750826) can0 273#000000000F023300
(1778533624.751820) can0 1E1#020F271001FE01FE
(1778533624.752852) can0 1F5#0000000000000000
(1778533624.753929) can0 0800A6A9#0000000000000000
(1778533624.754909) can0 1000A6A9#0F02881333434343
(1778533624.755928) can0 1C00A6A9#0000000000030000
(1778533624.756941) can0 02018100#1003020F00000000
(1778533624.757918) can0 02028100#0000003364000000
(1778533624.758915) can0 02038100#0CE201100CE00101
(1778533624.759917) can0 02048100#4301014301010000
(1778533624.821780) can0 00000E00#00354C4331343233
(1778533624.828574) can0 0000E005#15273D0003B60591
(1778533624.829168) can0 1806E5F4#13EC010003B6023A
(1778533624.829935) can0 0000E000#13EC13EC020F0000
(1778533624.830916) can0 0000E004#111103B603B601E4
(1778533624.831928) can0 0000E006#0CE00CE00CE00CE0
(1778533624.832909) can0 0000E007#0CE00CE00CE00CE0
(1778533624.833910) can0 0000E008#0CE00CE00CE00CE0
(1778533624.834900) can0 0000E009#0CE00CE00CE00CE2
(1778533624.835935) can0 0000E010#0000000000000000
(1778533624.836935) can0 0000E011#0000000000000000
(1778533624.837929) can0 0000E012#0CE1000100000000
(1778533624.838937) can0 0000F001#0000000000000000
(1778533624.839961) can0 18FF28F4#10330000020F0000
(1778533624.840909) can0 18FE28F4#0CE20CE039390000
(1778533624.841923) can0 18FD28F4#1527FA6F00000000
(1778533624.842821) can0 4D4#000033007D0F0203
(1778533624.843821) can0 4D5#E00CE20C39390000
(1778533624.844910) can0 18914010#0CE2100CE0010000
(1778533624.845929) can0 18904010#020F0000753001FE
(1778533624.846900) can0 18FA28F4#373CA12C10270000
(1778533624.847936) can0 18FB28F4#E20CE00C39390000
(1778533624.848917) can0 18FC28F4#383300000F020000
(1778533624.849898) can0 18F810F3#0F02E80333640100
(1778533624.850930) can0 18F815F3#0000000010030000
(1778533624.851834) can0 273#000000000F023300
(1778533624.852828) can0 1E1#020F271001FE01FE
(1778533624.853842) can0 1F5#0000000000000000
(1778533624.854936) can0 0800A6A9#0000000000000000
(1778533624.855949) can0 1000A6A9#0F02881333434343
(1778533624.856923) can0 1C00A6A9#0000000000030000
(1778533624.857936) can0 02018100#1003020F00000000
(1778533624.858931) can0 02028100#0000003364000000
(1778533624.859912) can0 02038100#0CE201100CE00101
(1778533624.860911) can0 02048100#4301014301010000
(1778533624.944584) can0 0000E005#15273D0003B60591
(1778533624.945165) can0 1806E5F4#13EC010003B6023A
(1778533624.945935) can0 0000E000#13EC13EC020F0000
(1778533624.946899) can0 0000E004#111103B603B601E4
(1778533624.947894) can0 0000E006#0CE00CE00CE00CE0
(1778533624.948914) can0 0000E007#0CE00CE00CE00CE0
(1778533624.949905) can0 0000E008#0CE00CE20CE00CE0
(1778533624.950906) can0 0000E009#0CE00CE00CE00CE3
(1778533624.951934) can0 0000E010#0000000000000000
(1778533624.952925) can0 0000E011#0000000000000000
(1778533624.953913) can0 0000E012#0CE1000200000000
(1778533624.954893) can0 0000E013#4542323630354C43
(1778533624.955907) can0 0000E014#3134323300000000
(1778533624.956938) can0 0000E015#0000000000000003
(1778533624.957938) can0 0000F000#0000000000000000
(1778533624.958933) can0 0000F001#0000000000000000
(1778533624.959932) can0 18FF28F4#10330000020F0000
(1778533624.960894) can0 18FE28F4#0CE30CE039390000
(1778533624.961913) can0 18FD28F4#1527FA6F00000000
(1778533624.962824) can0 4D4#000033007D0F0203
(1778533624.963806) can0 4D5#E00CE30C39390000
(1778533624.964895) can0 18914010#0CE3100CE0010000
(1778533624.965914) can0 18904010#020F0000753001FE
(1778533624.966895) can0 18FA28F4#373CA12C10270000
(1778533624.967894) can0 18FB28F4#E30CE00C39390000
(1778533624.968923) can0 18FC28F4#383300000F020000
(1778533624.969908) can0 18F810F3#0F02E80333640100
(1778533624.970901) can0 18F811F3#E30C1001E00C0101
(1778533624.971902) can0 18F812F3#3901013901010000
(1778533624.972934) can0 18F813F3#0101000000000000
(1778533624.973894) can0 18F814F3#32000F19A9015F00
(1778533624.974927) can0 18F815F3#0000000010030000
(1778533624.975826) can0 273#000000000F023300
(1778533624.976820) can0 1E1#020F271001FE01FE
(1778533624.977866) can0 1F5#0000000000000000
(1778533624.978927) can0 0800A6A9#0000000000000000
(1778533624.979890) can0 1000A6A9#0F02881333434343
(1778533624.980918) can0 1C00A6A9#0000000000030000
(1778533624.981934) can0 02018100#1003020F00000000
(1778533624.982927) can0 02028100#0000003364000000
(1778533624.983909) can0 02038100#0CE301100CE00101
(1778533624.984909) can0 02048100#4301014301010000
(1778533625.042521) can0 0000E005#15273D0003B60591
(1778533625.043126) can0 1806E5F4#13EC010003B6023A
(1778533625.043928) can0 0000E000#13EC13EC020F0000
(1778533625.044909) can0 0000E004#111103B603B601E4
(1778533625.045907) can0 0000E006#0CE00CE00CE00CE0
(1778533625.046907) can0 0000E007#0CE00CE00CE00CE0
(1778533625.047901) can0 0000E008#0CE00CE20CE00CE0
(1778533625.048899) can0 0000E009#0CE00CE00CE00CE3
(1778533625.049945) can0 0000E010#0000000000000000
(1778533625.050927) can0 0000E011#0000000000000000
(1778533625.051927) can0 0000E012#0CE1000200000000
(1778533625.052940) can0 0000F001#0000000000000000
(1778533625.053921) can0 18FF28F4#10330000020F0000
(1778533625.054920) can0 18FE28F4#0CE30CE039390000
(1778533625.055915) can0 18FD28F4#1527FA6F00000000
(1778533625.056811) can0 4D4#000033007D0F0203
(1778533625.057800) can0 4D5#E00CE30C39390000
(1778533625.058908) can0 18914010#0CE3100CE0010000
(1778533625.059921) can0 18904010#020F0000753001FE
(1778533625.060901) can0 18FA28F4#373CA12C10270000
(1778533625.061883) can0 18FB28F4#E30CE00C39390000
(1778533625.062947) can0 18FC28F4#383300000F020000
(1778533625.063896) can0 18F810F3#0F02E80333640100
(1778533625.064928) can0 18F815F3#0000000010030000
(1778533625.065826) can0 273#000000000F023300
(1778533625.066826) can0 1E1#020F271001FE01FE
(1778533625.067839) can0 1F5#0000000000000000
(1778533625.068927) can0 0800A6A9#0000000000000000
(1778533625.069896) can0 1000A6A9#0F02881333434343
(1778533625.070947) can0 1C00A6A9#0000000000030000
(1778533625.071942) can0 02018100#1003020F00000000
(1778533625.072917) can0 02028100#0000003364000000
(1778533625.073903) can0 02038100#0CE301100CE00101
(1778533625.074915) can0 02048100#4301014301010000
(1778533625.142594) can0 0000E005#15273D0003B60591
(1778533625.143184) can0 1806E5F4#13EC010003B6023A
(1778533625.143935) can0 0000E000#13EC13EC020F0000
(1778533625.144902) can0 0000E004#111103B603B601E4
(1778533625.145896) can0 0000E006#0CE00CE00CE00CE0
(1778533625.146894) can0 0000E007#0CE00CE00CE00CE0
(1778533625.147941) can0 0000E008#0CE00CE20CE00CE0
(1778533625.148909) can0 0000E009#0CE00CE00CE00CE3
(1778533625.149942) can0 0000E010#0000000000000000
(1778533625.150930) can0 0000E011#0000000000000000
(1778533625.151916) can0 0000E012#0CE1000200000000
(1778533625.152949) can0 0000F001#0000000000000000
(1778533625.153928) can0 18FF28F4#10330000020F0000
(1778533625.154896) can0 18FE28F4#0CE30CE039390000
(1778533625.155954) can0 18FD28F4#1527FA6F00000000
(1778533625.156821) can0 4D4#000033007D0F0203
(1778533625.157807) can0 4D5#E00CE30C39390000
(1778533625.158895) can0 18914010#0CE3100CE0010000
(1778533625.159916) can0 18904010#020F0000753001FE
(1778533625.160897) can0 18FA28F4#373CA12C10270000
(1778533625.161891) can0 18FB28F4#E30CE00C39390000
(1778533625.162915) can0 18FC28F4#383300000F020000
(1778533625.163936) can0 18F810F3#0F02E80333640100
(1778533625.164936) can0 18F815F3#0000000010030000
(1778533625.165833) can0 273#000000000F023300
(1778533625.166815) can0 1E1#020F271001FE01FE
(1778533625.167847) can0 1F5#0000000000000000
(1778533625.168922) can0 0800A6A9#0000000000000000
(1778533625.169891) can0 1000A6A9#0F02881333434343
(1778533625.170917) can0 1C00A6A9#0000000000030000
(1778533625.171935) can0 02018100#1003020F00000000
(1778533625.172929) can0 02028100#0000003364000000
(1778533625.173910) can0 02038100#0CE301100CE00101
(1778533625.174900) can0 02048100#4301014301010000
(1778533625.242592) can0 0000E005#15273D0003B60591
(1778533625.243181) can0 1806E5F4#13EC010003B6023A
(1778533625.243932) can0 0000E000#13EC13EC020F0000
(1778533625.244898) can0 0000E004#111103B603B601E4
(1778533625.245892) can0 0000E006#0CE00CE00CE00CE0
(1778533625.246892) can0 0000E007#0CE00CE00CE00CE0
(1778533625.247905) can0 0000E008#0CE00CE00CE00CE0
(1778533625.248882) can0 0000E009#0CE00CE00CE00CE2
(1778533625.249930) can0 0000E010#0000000000000000
(1778533625.250930) can0 0000E011#0000000000000000
(1778533625.251911) can0 0000E012#0CE1000100000000
(1778533625.252918) can0 0000F001#0000000000000000
(1778533625.253924) can0 18FF28F4#10330000020F0000
(1778533625.254886) can0 18FE28F4#0CE20CE039390000
(1778533625.255899) can0 18FD28F4#1527FA6F00000000
(1778533625.256816) can0 4D4#000033007D0F0203
(1778533625.257797) can0 4D5#E00CE20C39390000
(1778533625.258891) can0 18914010#0CE2100CE0010000
(1778533625.259911) can0 18904010#020F0000753001FE
(1778533625.260882) can0 18FA28F4#373CA12C10270000
(1778533625.261886) can0 18FB28F4#E20CE00C39390000
(1778533625.262918) can0 18FC28F4#383300000F020000
(1778533625.263880) can0 18F810F3#0F02E80333640100
(1778533625.264926) can0 18F815F3#0000000010030000
(1778533625.265829) can0 273#000000000F023300
(1778533625.266810) can0 1E1#020F271001FE01FE
(1778533625.267841) can0 1F5#0000000000000000
(1778533625.268918) can0 0800A6A9#0000000000000000
(1778533625.269885) can0 1000A6A9#0F02881333434343
(1778533625.270912) can0 1C00A6A9#0000000000030000
(1778533625.271924) can0 02018100#1003020F00000000
(1778533625.272920) can0 02028100#0000003364000000
(1778533625.273905) can0 02038100#0CE201100CE00101
(1778533625.274899) can0 02048100#4301014301010000
(1778533625.342526) can0 0000E005#15273D0003B60591
(1778533625.343138) can0 1806E5F4#13EC010003B6023A
(1778533625.343915) can0 0000E000#13EC13EC020F0000
(1778533625.344882) can0 0000E004#111103B603B601E4
(1778533625.345894) can0 0000E006#0CE00CE00CE00CE0
(1778533625.346894) can0 0000E007#0CE00CE00CE00CE0
(1778533625.347889) can0 0000E008#0CE00CE00CE00CE0
(1778533625.348888) can0 0000E009#0CE00CE00CE00CE2
(1778533625.349919) can0 0000E010#0000000000000000
(1778533625.350914) can0 0000E011#0000000000000000
(1778533625.351894) can0 0000E012#0CE1000100000000
(1778533625.352926) can0 0000F001#0000000000000000
(1778533625.353907) can0 18FF28F4#10330000020F0000
(1778533625.354890) can0 18FE28F4#0CE20CE039390000
(1778533625.355907) can0 18FD28F4#1527FA6F00000000
(1778533625.356805) can0 4D4#000033007D0F0203
(1778533625.357786) can0 4D5#E00CE20C39390000
(1778533625.358895) can0 18914010#0CE2100CE0010000
(1778533625.359894) can0 18904010#020F0000753001FE
(1778533625.360894) can0 18FA28F4#373CA12C10270000
(1778533625.361888) can0 18FB28F4#E20CE00C39390000
(1778533625.362915) can0 18FC28F4#383300000F020000
(1778533625.363882) can0 18F810F3#0F02E80333640100
(1778533625.364913) can0 18F815F3#0000000010030000
(1778533625.365812) can0 273#000000000F023300
(1778533625.366789) can0 1E1#020F271001FE01FE
(1778533625.367825) can0 1F5#0000000000000000
(1778533625.368901) can0 0800A6A9#0000000000000000
(1778533625.369869) can0 1000A6A9#0F02881333434343
(1778533625.370933) can0 1C00A6A9#0000000000030000
(1778533625.371915) can0 02018100#1003020F00000000
(1778533625.372908) can0 02028100#0000003364000000
(1778533625.373888) can0 02038100#0CE201100CE00101
(1778533625.374899) can0 02048100#4301014301010000
(1778533625.459543) can0 0000E005#15273D0003B60591
(1778533625.460141) can0 1806E5F4#13EC010003B6023A
(1778533625.460917) can0 0000E000#13EC13EC020F0000
(1778533625.461876) can0 0000E004#111103B603B601E4
(1778533625.462878) can0 0000E006#0CE00CE00CE00CE0
(1778533625.463922) can0 0000E007#0CE00CE00CE20CE0
(1778533625.464889) can0 0000E008#0CE00CE00CE20CE0
(1778533625.465871) can0 0000E009#0CE00CE00CE00CE2
(1778533625.466915) can0 0000E010#0000000000000000
(1778533625.467916) can0 0000E011#0000000000000000
(1778533625.468896) can0 0000E012#0CE1000100000000
(1778533625.469856) can0 0000E013#4542323630354C43
(1778533625.470891) can0 0000E014#3134323300000000
(1778533625.471954) can0 0000E015#0000000000000003
(1778533625.472916) can0 0000F000#0000000000000000
(1778533625.473914) can0 0000F001#0000000000000000
(1778533625.474915) can0 18FF28F4#10330000020F0000
(1778533625.475878) can0 18FE28F4#0CE20CE039390000
(1778533625.476890) can0 18FD28F4#1527FA6F00000000
(1778533625.477807) can0 4D4#000033007D0F0203
(1778533625.478789) can0 4D5#E00CE20C39390000
(1778533625.479884) can0 18914010#0CE2070CE0010000
(1778533625.480897) can0 18904010#020F0000753001FE
(1778533625.481879) can0 18FA28F4#373CA12C10270000
(1778533625.482877) can0 18FB28F4#E20CE00C39390000
(1778533625.483890) can0 18FC28F4#383300000F020000
(1778533625.484871) can0 18F810F3#0F02E80333640100
(1778533625.485884) can0 18F811F3#E20C0701E00C0101
(1778533625.486884) can0 18F812F3#3901013901010000
(1778533625.487917) can0 18F813F3#0101000000000000
(1778533625.488877) can0 18F814F3#32000F19A9015F00
(1778533625.489909) can0 18F815F3#0000000010030000
(1778533625.490808) can0 273#000000000F023300
(1778533625.491802) can0 1E1#020F271001FE01FE
(1778533625.492815) can0 1F5#0000000000000000
(1778533625.493909) can0 0800A6A9#0000000000000000
(1778533625.494871) can0 1000A6A9#0F02881333434343
(1778533625.495904) can0 1C00A6A9#0000000000030000
(1778533625.496916) can0 02018100#1003020F00000000
(1778533625.497888) can0 02028100#0000003364000000
(1778533625.498891) can0 02038100#0CE201070CE00101
(1778533625.499885) can0 02048100#4301014301010000
(1778533625.557550) can0 0000E005#15273D0003B60591
(1778533625.558142) can0 1806E5F4#13EC010003B6023A
(1778533625.558905) can0 0000E000#13EC13EC020F0000
(1778533625.559872) can0 0000E004#111103B603B601E4
(1778533625.560872) can0 0000E006#0CE00CE00CE00CE0
(1778533625.561885) can0 0000E007#0CE00CE00CE20CE0
(1778533625.562879) can0 0000E008#0CE00CE00CE20CE0
(1778533625.563855) can0 0000E009#0CE00CE00CE00CE2
(1778533625.564909) can0 0000E010#0000000000000000
(1778533625.565904) can0 0000E011#0000000000000000
(1778533625.566886) can0 0000E012#0CE1000100000000
(1778533625.567918) can0 0000F001#0000000000000000
(1778533625.568898) can0 18FF28F4#10330000020F0000
(1778533625.569879) can0 18FE28F4#0CE20CE039390000
(1778533625.570879) can0 18FD28F4#1527FA6F00000000
(1778533625.571797) can0 4D4#000033007D0F0203
(1778533625.572773) can0 4D5#E00CE20C39390000
(1778533625.573872) can0 18914010#0CE2070CE0010000
(1778533625.574885) can0 18904010#020F0000753001FE
(1778533625.575866) can0 18FA28F4#373CA12C10270000
(1778533625.576877) can0 18FB28F4#E20CE00C39390000
(1778533625.577891) can0 18FC28F4#383300000F020000
(1778533625.578872) can0 18F810F3#0F02E80333640100
(1778533625.579905) can0 18F815F3#0000000010030000
(1778533625.580803) can0 273#000000000F023300
(1778533625.581784) can0 1E1#020F271001FE01FE
(1778533625.582815) can0 1F5#0000000000000000
(1778533625.583892) can0 0800A6A9#0000000000000000
(1778533625.584850) can0 1000A6A9#0F02881333434343
(1778533625.585905) can0 1C00A6A9#0000000000030000
(1778533625.586904) can0 02018100#1003020F00000000
(1778533625.587899) can0 02028100#0000003364000000
(1778533625.588879) can0 02038100#0CE201070CE00101
(1778533625.589892) can0 02048100#4301014301010000
(1778533625.657538) can0 0000E005#15273D0003B60591
(1778533625.658144) can0 1806E5F4#13EC010003B6023A
(1778533625.658901) can0 0000E000#13EC13EC020F0000
(1778533625.659862) can0 0000E004#111103B603B601E4
(1778533625.660881) can0 0000E006#0CE00CE00CE00CE0
(1778533625.661874) can0 0000E007#0CE00CE00CE20CE0
(1778533625.662866) can0 0000E008#0CE00CE00CE20CE0
(1778533625.663856) can0 0000E009#0CE00CE00CE00CE2
(1778533625.664900) can0 0000E010#0000000000000000
(1778533625.665900) can0 0000E011#0000000000000000
(1778533625.666879) can0 0000E012#0CE1000100000000
(1778533625.667906) can0 0000F001#0000000000000000
(1778533625.668887) can0 18FF28F4#10330000020F0000
(1778533625.669874) can0 18FE28F4#0CE20CE039390000
(1778533625.670902) can0 18FD28F4#1527FA6F00000000
(1778533625.671785) can0 4D4#000033007D0F0203
(1778533625.672779) can0 4D5#E00CE20C39390000
(1778533625.673875) can0 18914010#0CE2070CE0010000
(1778533625.674874) can0 18904010#020F0000753001FE
(1778533625.675875) can0 18FA28F4#373CA12C10270000
(1778533625.676868) can0 18FB28F4#E20CE00C39390000
(1778533625.677882) can0 18FC28F4#383300000F020000
(1778533625.678872) can0 18F810F3#0F02E80333640100
(1778533625.679894) can0 18F815F3#0000000010030000
(1778533625.680792) can0 273#000000000F023300
(1778533625.681792) can0 1E1#020F271001FE01FE
(1778533625.682805) can0 1F5#0000000000000000
