(1779047606.365284) can0 18964010#003F3F3F00000000
(1779047606.366248) can0 18974010#0000000000000000
(1779047606.367240) can0 18984010#0000000000000000
(1779047606.368202) can0 18FA28F4#E23DA12C10270000
(1779047606.369223) can0 18FB28F4#E00CE00C3F3F0000
(1779047606.370234) can0 18FC28F4#383300000F020000
(1779047606.371210) can0 18F810F3#0F02E80333640100
(1779047606.372222) can0 18F811F3#E00C1001E00C0101
(1779047606.373216) can0 18F812F3#3F01013F01010000
(1779047606.374248) can0 18F813F3#0101000000000000
(1779047606.375216) can0 18F814F3#3200BA1AA9015F00
(1779047606.376242) can0 18F815F3#0000000010030000
(1779047606.377135) can0 273#000000000F023300
(1779047606.378126) can0 1E1#020F271001FE01FE
(1779047606.379153) can0 1F5#0000000000000000
(1779047606.380230) can0 0800A6A9#0000000000000000
(1779047606.381198) can0 1000A6A9#0F02881333494949
(1779047606.382229) can0 1C00A6A9#0000000000030000
(1779047606.383243) can0 02018100#1003020F00000000
(1779047606.384242) can0 02028100#0000003364000000
(1779047606.385218) can0 02038100#0CE001100CE00101
(1779047606.386230) can0 02048100#4901014901010000
(1779047606.387107) can0 1AD#9914000059331717
(1779047606.388121) can0 2AD#E00C800C99140016
(1779047606.389145) can0 3AD#0000000000009914
(1779047606.390155) can0 4AD#EB00000000000000
(1779047606.391149) can0 76A#7F00000000000000
(1779047606.449842) can0 0000E005#16D2420003B60591
(1779047606.450418) can0 1806E5F4#13EC010003B6023A
(1779047606.451236) can0 0000E000#13EC13EC020F0000
(1779047606.452218) can0 0000E004#171703B603B601E4
(1779047606.453212) can0 0000E006#0CE00CE00CE00CE0
(1779047606.454210) can0 0000E007#0CE00CE00CE00CE0
(1779047606.455225) can0 0000E008#0CE00CE00CE00CE0
(1779047606.456225) can0 0000E009#0CE00CE00CE00CE0
(1779047606.457256) can0 0000E010#0000000000000000
(1779047606.458245) can0 0000E011#0000000000000000
(1779047606.459250) can0 0000E012#0CE0000000000000
(1779047606.460244) can0 0000F001#0000000000000000
(1779047606.461244) can0 18FF28F4#10330000020F0000
(1779047606.462225) can0 18FE28F4#0CE00CE03F3F0000
(1779047606.463229) can0 18FD28F4#16D2FA6F00000000
(1779047606.464143) can0 4D4#000033007D0F0203
(1779047606.465139) can0 4D5#E00CE00C3F3F0000
(1779047606.466218) can0 18914010#0CE0100CE0010000
(1779047606.467232) can0 18904010#020F020F753001FE
(1779047606.468213) can0 18FA28F4#E23DA12C10270000
(1779047606.469213) can0 18FB28F4#E00CE00C3F3F0000
(1779047606.470237) can0 18FC28F4#383300000F020000
(1779047606.471207) can0 18F810F3#0F02E80333640100
(1779047606.472252) can0 18F815F3#0000000010030000
(1779047606.473137) can0 273#000000000F023300
(1779047606.474137) can0 1E1#020F271001FE01FE
(1779047606.475163) can0 1F5#0000000000000000
(1779047606.476246) can0 0800A6A9#0000000000000000
(1779047606.477208) can0 1000A6A9#0F02881333494949
(1779047606.478235) can0 1C00A6A9#0000000000030000
(1779047606.479272) can0 02018100#1003020F00000000
(1779047606.480234) can0 02028100#0000003364000000
(1779047606.481233) can0 02038100#0CE001100CE00101
(1779047606.482223) can0 02048100#4901014901010000
(1779047606.483113) can0 1AD#9914000059331717
(1779047606.484126) can0 2AD#E00C800C99140016
(1779047606.485138) can0 3AD#0000000000009914
(1779047606.486152) can0 4AD#EB00000000000000
(1779047606.487178) can0 76A#7F00000000000000
(1779047606.549818) can0 0000E005#16D2420003B60591
(1779047606.550363) can0 1806E5F4#13EC010003B6023A
(1779047606.551243) can0 0000E000#13EC13EC020F0000
(1779047606.552228) can0 0000E004#171703B603B601E4
(1779047606.553209) can0 0000E006#0CE00CE00CE00CE0
(1779047606.554222) can0 0000E007#0CE00CE00CE00CE0
(1779047606.555215) can0 0000E008#0CE00CE00CE00CE0
(1779047606.556235) can0 0000E009#0CE00CE00CE00CE0
(1779047606.557248) can0 0000E010#0000000000000000
(1779047606.558248) can0 0000E011#0000000000000000
(1779047606.559248) can0 0000E012#0CE0000000000000
(1779047606.560260) can0 0000F001#0000000000000000
(1779047606.561242) can0 18FF28F4#10330000020F0000
(1779047606.562223) can0 18FE28F4#0CE00CE03F3F0000
(1779047606.563213) can0 18FD28F4#16D2FA6F00000000
(1779047606.564153) can0 4D4#000033007D0F0203
(1779047606.565134) can0 4D5#E00CE00C3F3F0000
(1779047606.566230) can0 18914010#0CE0100CE0010000
(1779047606.567225) can0 18904010#020F020F753001FE
(1779047606.568224) can0 18FA28F4#E23DA12C10270000
(1779047606.569224) can0 18FB28F4#E00CE00C3F3F0000
(1779047606.570236) can0 18FC28F4#383300000F020000
(1779047606.571198) can0 18F810F3#0F02E80333640100
(1779047606.572281) can0 18F815F3#0000000010030000
(1779047606.573148) can0 273#000000000F023300
(1779047606.574129) can0 1E1#020F271001FE01FE
(1779047606.575154) can0 1F5#0000000000000000
(1779047606.576237) can0 0800A6A9#0000000000000000
(1779047606.577205) can0 1000A6A9#0F02881333494949
(1779047606.578231) can0 1C00A6A9#0000000000030000
(1779047606.579244) can0 02018100#1003020F00000000
(1779047606.580275) can0 02028100#0000003364000000
(1779047606.581225) can0 02038100#0CE001100CE00101
(1779047606.582218) can0 02048100#4901014901010000
(1779047606.583124) can0 1AD#9914000059331717
(1779047606.584117) can0 2AD#E00C800C99140016
(1779047606.585149) can0 3AD#0000000000009914
(1779047606.586142) can0 4AD#EB00000000000000
(1779047606.587148) can0 76A#7F00000000000000
(1779047606.649827) can0 0000E005#16D2420003B60591
(1779047606.650382) can0 1806E5F4#13EC010003B6023A
(1779047606.651252) can0 0000E000#13EC13EC020F0000
(1779047606.652210) can0 0000E004#171703B603B601E4
(1779047606.653214) can0 0000E006#0CE00CE00CE00CE0
(1779047606.654214) can0 0000E007#0CE00CE00CE00CE0
(1779047606.655228) can0 0000E008#0CE00CE00CE00CE0
(1779047606.656227) can0 0000E009#0CE00CE00CE00CE0
(1779047606.657290) can0 0000E010#0000000000000000
(1779047606.658252) can0 0000E011#0000000000000000
(1779047606.659253) can0 0000E012#0CE0000000000000
(1779047606.660247) can0 0000F001#0000000000000000
(1779047606.661247) can0 18FF28F4#10330000020F0000
(1779047606.662227) can0 18FE28F4#0CE00CE03F3F0000
(1779047606.663228) can0 18FD28F4#16D2FA6F00000000
(1779047606.664143) can0 4D4#000033007D0F0203
(1779047606.665170) can0 4D5#E00CE00C3F3F0000
(1779047606.666221) can0 18914010#0CE0100CE0010000
(1779047606.667234) can0 18904010#020F020F753001FE
(1779047606.668234) can0 18FA28F4#E23DA12C10270000
(1779047606.669215) can0 18FB28F4#E00CE00C3F3F0000
(1779047606.670241) can0 18FC28F4#383300000F020000
(1779047606.671209) can0 18F810F3#0F02E80333640100
(1779047606.672248) can0 18F815F3#0000000010030000
(1779047606.673140) can0 273#000000000F023300
(1779047606.674140) can0 1E1#020F271001FE01FE
(1779047606.675165) can0 1F5#0000000000000000
(1779047606.676243) can0 0800A6A9#0000000000000000
(1779047606.677210) can0 1000A6A9#0F02881333494949
(1779047606.678242) can0 1C00A6A9#0000000000030000
(1779047606.679255) can0 02018100#1003020F00000000
(1779047606.680235) can0 02028100#0000003364000000
(1779047606.681235) can0 02038100#0CE001100CE00101
(1779047606.682229) can0 02048100#4901014901010000
(1779047606.683116) can0 1AD#9914000059331717
(1779047606.684119) can0 2AD#E00C800C99140016
(1779047606.685140) can0 3AD#0000000000009914
(1779047606.686154) can0 4AD#EB00000000000000
(1779047606.687147) can0 76A#7F00000000000000
(1779047606.749856) can0 0000E005#16D2420003B60591
(1779047606.750413) can0 1806E5F4#13EC010003B6023A
(1779047606.751250) can0 0000E000#13EC13EC020F0000
(1779047606.752231) can0 0000E004#171703B603B601E4
(1779047606.753224) can0 0000E006#0CE00CE00CE00CE0
(1779047606.754225) can0 0000E007#0CE00CE00CE00CE0
(1779047606.755225) can0 0000E008#0CE00CE00CE00CE0
(1779047606.756218) can0 0000E009#0CE00CE00CE00CE0
(1779047606.757265) can0 0000E010#0000000000000000
(1779047606.758250) can0 0000E011#0000000000000000
(1779047606.759245) can0 0000E012#0CE0000000000000
(1779047606.760256) can0 0000F001#0000000000000000
(1779047606.761238) can0 18FF28F4#10330000020F0000
(1779047606.762225) can0 18FE28F4#0CE00CE03F3F0000
(1779047606.763220) can0 18FD28F4#16D2FA6F00000000
(1779047606.764137) can0 4D4#000033007D0F0203
(1779047606.765138) can0 4D5#E00CE00C3F3F0000
(1779047606.766232) can0 18914010#0CE0100CE0010000
(1779047606.767227) can0 18904010#020F020F753001FE
(1779047606.768227) can0 18FA28F4#E23DA12C10270000
(1779047606.769220) can0 18FB28F4#E00CE00C3F3F0000
(1779047606.770239) can0 18FC28F4#383300000F020000
(1779047606.771221) can0 18F810F3#0F02E80333640100
(1779047606.772246) can0 18F815F3#0000000010030000
(1779047606.773147) can0 273#000000000F023300
(1779047606.774131) can0 1E1#020F271001FE01FE
(1779047606.775163) can0 1F5#0000000000000000
(1779047606.776239) can0 0800A6A9#0000000000000000
(1779047606.777207) can0 1000A6A9#0F02881333494949
(1779047606.778240) can0 1C00A6A9#0000000000030000
(1779047606.779266) can0 02018100#1003020F00000000
(1779047606.780246) can0 02028100#0000003364000000
(1779047606.781236) can0 02038100#0CE001100CE00101
(1779047606.782240) can0 02048100#4901014901010000
(1779047606.783119) can0 1AD#9914000059331717
(1779047606.784132) can0 2AD#E00C800C99140016
(1779047606.785140) can0 3AD#0000000000009914
(1779047606.786157) can0 4AD#EB00000000000000
(1779047606.787171) can0 76A#7F00000000000000
(1779047606.866863) can0 0000E005#16D2420003B60591
(1779047606.867423) can0 1806E5F4#13EC010003B6023A
(1779047606.868256) can0 0000E000#13EC13EC020F0000
(1779047606.869225) can0 0000E004#171703B603B601E4
(1779047606.870224) can0 0000E006#0CE00CE00CE00CE0
(1779047606.871232) can0 0000E007#0CE00CE00CE00CE0
(1779047606.872250) can0 0000E008#0CE00CE00CE00CE0
(1779047606.873231) can0 0000E009#0CE00CE00CE00CE0
(1779047606.874256) can0 0000E010#0000000000000000
(1779047606.875249) can0 0000E011#0000000000000000
(1779047606.876256) can0 0000E012#0CE0000000000000
(1779047606.877205) can0 0000E013#4542323630354C43
(1779047606.878231) can0 0000E014#3134323300000000
(1779047606.879252) can0 0000E015#0000000000000003
(1779047606.880295) can0 0000F000#0000000000000000
(1779047606.881257) can0 0000F001#0000000000000000
(1779047606.882257) can0 18FF28F4#10330000020F0000
(1779047606.883218) can0 18FE28F4#0CE00CE03F3F0000
(1779047606.884238) can0 18FD28F4#16D2FA6F00000000
(1779047606.885156) can0 4D4#000033007D0F0203
(1779047606.886137) can0 4D5#E00CE00C3F3F0000
(1779047606.887229) can0 18914010#0CE0100CE0010000
(1779047606.888277) can0 18904010#020F020F753001FE
(1779047606.889239) can0 18924010#3F013F0100000000
(1779047606.890220) can0 18934010#000000260000BD42
(1779047606.891252) can0 18944010#1003000000000000
(1779047606.892265) can0 18954010#0000000000000000
(1779047606.893264) can0 18954010#0100000000000000
(1779047606.894258) can0 18954010#0200000000000000
(1779047606.895257) can0 18954010#0300000000000000
(1779047606.896310) can0 18954010#0400000000000000
(1779047606.897254) can0 18954010#0500000000000000
(1779047606.898253) can0 18964010#003F3F3F00000000
(1779047606.899246) can0 18974010#0000000000000000
(1779047606.900247) can0 18984010#0000000000000000
(1779047606.901221) can0 18FA28F4#E23DA12C10270000
(1779047606.902222) can0 18FB28F4#E00CE00C3F3F0000
(1779047606.903247) can0 18FC28F4#383300000F020000
(1779047606.904215) can0 18F810F3#0F02E80333640100
(1779047606.905228) can0 18F811F3#E00C1001E00C0101
(1779047606.906242) can0 18F812F3#3F01013F01010000
(1779047606.907261) can0 18F813F3#0101000000000000
(1779047606.908245) can0 18F814F3#3200BA1AA9015F00
(1779047606.909254) can0 18F815F3#0000000010030000
(1779047606.910154) can0 273#000000000F023300
(1779047606.911140) can0 1E1#020F271001FE01FE
(1779047606.912172) can0 1F5#0000000000000000
(1779047606.913248) can0 0800A6A9#0000000000000000
(1779047606.914216) can0 1000A6A9#0F02881333494949
(1779047606.915242) can0 1C00A6A9#0000000000030000
(1779047606.916260) can0 02018100#1003020F00000000
(1779047606.917242) can0 02028100#0000003364000000
(1779047606.918235) can0 02038100#0CE001100CE00101
(1779047606.919236) can0 02048100#4901014901010000
(1779047606.920121) can0 1AD#9914000059331717
(1779047606.921134) can0 2AD#E00C800C99140016
(1779047606.922141) can0 3AD#0000000000009914
(1779047606.923160) can0 4AD#EB00000000000000
(1779047606.924160) can0 76A#7F00000000000000
(1779047606.982796) can0 0000E005#16D2420003B60591
(1779047606.983383) can0 1806E5F4#13EC010003B6023A
(1779047606.984250) can0 0000E000#13EC13EC020F0000
(1779047606.985230) can0 0000E004#171703B603B601E4
(1779047606.986224) can0 0000E006#0CE00CE00CE00CE0
(1779047606.987221) can0 0000E007#0CE00CE00CE00CE0
(1779047606.988224) can0 0000E008#0CE00CE00CE00CE0
(1779047606.989218) can0 0000E009#0CE00CE00CE00CE0
(1779047606.990280) can0 0000E010#0000000000000000
(1779047606.991268) can0 0000E011#0000000000000000
(1779047606.992250) can0 0000E012#0CE0000000000000
(1779047606.993264) can0 0000F001#0000000000000000
(1779047606.994244) can0 18FF28F4#10330000020F0000
(1779047606.995226) can0 18FE28F4#0CE00CE03F3F0000
(1779047606.996219) can0 18FD28F4#16D2FA6F00000000
(1779047606.997136) can0 4D4#000033007D0F0203
(1779047606.998137) can0 4D5#E00CE00C3F3F0000
(1779047606.999231) can0 18914010#0CE0100CE0010000
(1779047607.000226) can0 18904010#020F020F753001FE
(1779047607.001235) can0 18FA28F4#E23DA12C10270000
(1779047607.002233) can0 18FB28F4#E00CE00C3F3F0000
(1779047607.003235) can0 18FC28F4#383300000F020000
(1779047607.004219) can0 18F810F3#0F02E80333640100
(1779047607.005252) can0 18F815F3#0000000010030000
(1779047607.006150) can0 273#000000000F023300
(1779047607.007151) can0 1E1#020F271001FE01FE
(1779047607.008163) can0 1F5#0000000000000000
(1779047607.009239) can0 0800A6A9#0000000000000000
(1779047607.010221) can0 1000A6A9#0F02881333494949
(1779047607.011231) can0 1C00A6A9#0000000000030000
(1779047607.012252) can0 02018100#1003020F00000000
(1779047607.013252) can0 02028100#0000003364000000
(1779047607.014227) can0 02038100#0CE001100CE00101
(1779047607.015219) can0 02048100#4901014901010000
(1779047607.016126) can0 1AD#9914000059331717
(1779047607.017138) can0 2AD#E00C800C99140016
(1779047607.018171) can0 3AD#0000000000009914
(1779047607.019164) can0 4AD#EB00000000000000
(1779047607.020157) can0 76A#7F00000000000000
(1779047607.082793) can0 0000E005#16D2420003B60591
(1779047607.083381) can0 1806E5F4#13EC010003B6023A
(1779047607.084246) can0 0000E000#13EC13EC020F0000
(1779047607.085228) can0 0000E004#171703B603B601E4
(1779047607.086228) can0 0000E006#0CE00CE00CE00CE0
(1779047607.087241) can0 0000E007#0CE00CE00CE00CE0
(1779047607.088219) can0 0000E008#0CE00CE00CE00CE0
(1779047607.089222) can0 0000E009#0CE00CE00CE00CE0
(1779047607.090267) can0 0000E010#0000000000000000
(1779047607.091268) can0 0000E011#0000000000000000
(1779047607.092248) can0 0000E012#0CE0000000000000
(1779047607.093261) can0 0000F001#0000000000000000
(1779047607.094261) can0 18FF28F4#10330000020F0000
(1779047607.095256) can0 18FE28F4#0CE00CE03F3F0000
(1779047607.096232) can0 18FD28F4#16D2FA6F00000000
(1779047607.097153) can0 4D4#000033007D0F0203
(1779047607.098134) can0 4D5#E00CE00C3F3F0000
(1779047607.099230) can0 18914010#0CE0100CE0010000
(1779047607.100227) can0 18904010#020F020F753001FE
(1779047607.101230) can0 18FA28F4#E23DA12C10270000
(1779047607.102223) can0 18FB28F4#E00CE00C3F3F0000
(1779047607.103275) can0 18FC28F4#383300000F020000
(1779047607.104224) can0 18F810F3#0F02E80333640100
(1779047607.105249) can0 18F815F3#0000000010030000
(1779047607.106154) can0 273#000000000F023300
(1779047607.107148) can0 1E1#020F271001FE01FE
(1779047607.108158) can0 1F5#0000000000000000
(1779047607.109262) can0 0800A6A9#0000000000000000
(1779047607.110211) can0 1000A6A9#0F02881333494949
(1779047607.111269) can0 1C00A6A9#0000000000030000
(1779047607.112256) can0 02018100#1003020F00000000
(1779047607.113258) can0 02028100#0000003364000000
(1779047607.114245) can0 02038100#0CE001100CE00101
(1779047607.115245) can0 02048100#4901014901010000
(1779047607.116124) can0 1AD#9914000059331717
(1779047607.117137) can0 2AD#E00C800C99140016
(1779047607.118149) can0 3AD#0000000000009914
(1779047607.119194) can0 4AD#EB00000000000000
(1779047607.120159) can0 76A#7F00000000000000
(1779047607.182885) can0 0000E005#16D2420003B60591
(1779047607.183431) can0 1806E5F4#13EC010003B6023A
(1779047607.184251) can0 0000E000#13EC13EC020F0000
(1779047607.185229) can0 0000E004#171703B603B601E4
(1779047607.186233) can0 0000E006#0CE00CE00CE00CDF
(1779047607.187234) can0 0000E007#0CE00CE00CE00CE0
(1779047607.188260) can0 0000E008#0CE00CE00CE00CE0
(1779047607.189227) can0 0000E009#0CE00CE00CE00CE0
(1779047607.190278) can0 0000E010#0000000000000000
(1779047607.191254) can0 0000E011#0000000000000000
(1779047607.192253) can0 0000E012#0CE0000100000000
(1779047607.193265) can0 0000F001#0000000000000000
(1779047607.194247) can0 18FF28F4#10330000020F0000
(1779047607.195228) can0 18FE28F4#0CE00CDF3F3F0000
(1779047607.196279) can0 18FD28F4#16D2FA6F00000000
(1779047607.197139) can0 4D4#000033007D0F0203
(1779047607.198145) can0 4D5#DF0CE00C3F3F0000
(1779047607.199241) can0 18914010#0CE0100CDF040000
(1779047607.200234) can0 18904010#020F020F753001FE
(1779047607.201234) can0 18FA28F4#E23DA12C10270000
(1779047607.202234) can0 18FB28F4#E00CDF0C3F3F0000
(1779047607.203247) can0 18FC28F4#383300000F020000
(1779047607.204273) can0 18F810F3#0F02E80333640100
(1779047607.205252) can0 18F815F3#0000000010030000
(1779047607.206158) can0 273#000000000F023300
(1779047607.207140) can0 1E1#020F271001FE01FE
(1779047607.208171) can0 1F5#0000000000000000
(1779047607.209248) can0 0800A6A9#0000000000000000
(1779047607.210216) can0 1000A6A9#0F02881333494949
(1779047607.211243) can0 1C00A6A9#0000000000030000
(1779047607.212261) can0 02018100#1003020F00000000
(1779047607.213255) can0 02028100#0000003364000000
(1779047607.214254) can0 02038100#0CE001100CDF0104
(1779047607.215236) can0 02048100#4901014901010000
(1779047607.216134) can0 1AD#9914000059331717
(1779047607.217139) can0 2AD#E00C800C99140016
(1779047607.218160) can0 3AD#0000000000009914
(1779047607.219173) can0 4AD#EB00000000000000
(1779047607.220167) can0 76A#7F00000000000000
(1779047607.282791) can0 0000E005#16D2420003B60591
(1779047607.283382) can0 1806E5F4#13EC010003B6023A
(1779047607.284256) can0 0000E000#13EC13EC020F0000
(1779047607.285236) can0 0000E004#171703B603B601E4
(1779047607.286230) can0 0000E006#0CE00CE00CE00CDF
(1779047607.287231) can0 0000E007#0CE00CE00CE00CE0
(1779047607.288231) can0 0000E008#0CE00CE00CE00CE0
(1779047607.289224) can0 0000E009#0CE00CE00CE00CE0
(1779047607.290269) can0 0000E010#0000000000000000
(1779047607.291270) can0 0000E011#0000000000000000
(1779047607.292250) can0 0000E012#0CE0000100000000
(1779047607.293270) can0 0000F001#0000000000000000
(1779047607.294257) can0 18FF28F4#10330000020F0000
(1779047607.295232) can0 18FE28F4#0CE00CDF3F3F0000
(1779047607.296251) can0 18FD28F4#16D2FA6F00000000
(1779047607.297162) can0 4D4#000033007D0F0203
(1779047607.298162) can0 4D5#DF0CE00C3F3F0000
(1779047607.299239) can0 18914010#0CE0100CDF040000
(1779047607.300238) can0 18904010#020F020F753001FE
(1779047607.301232) can0 18FA28F4#E23DA12C10270000
(1779047607.302225) can0 18FB28F4#E00CDF0C3F3F0000
(1779047607.303246) can0 18FC28F4#383300000F020000
(1779047607.304226) can0 18F810F3#0F02E80333640100
(1779047607.305258) can0 18F815F3#0000000010030000
(1779047607.306151) can0 273#000000000F023300
(1779047607.307156) can0 1E1#020F271001FE01FE
(1779047607.308169) can0 1F5#0000000000000000
(1779047607.309265) can0 0800A6A9#0000000000000000
(1779047607.310227) can0 1000A6A9#0F02881333494949
(1779047607.311258) can0 1C00A6A9#0000000000030000
(1779047607.312271) can0 02018100#1003020F00000000
(1779047607.313252) can0 02028100#0000003364000000
(1779047607.314248) can0 02038100#0CE001100CDF0104
(1779047607.315246) can0 02048100#4901014901010000
(1779047607.316134) can0 1AD#9914000059331717
(1779047607.317140) can0 2AD#E00C800C99140016
(1779047607.318175) can0 3AD#0000000000009914
(1779047607.319165) can0 4AD#EB00000000000000
(1779047607.320164) can0 76A#7F00000000000000
(1779047607.419800) can0 0000E005#16D2420003B60591
(1779047607.420379) can0 1806E5F4#13EC010003B6023A
(1779047607.421264) can0 0000E000#13EC13EC020F0000
(1779047607.422226) can0 0000E004#171703B603B601E4
(1779047607.423227) can0 0000E006#0CE00CE00CE00CE0
(1779047607.424237) can0 0000E007#0CE00CE00CE00CE0
(1779047607.425239) can0 0000E008#0CE00CE00CE00CE0
(1779047607.426232) can0 0000E009#0CE00CE00CE00CE0
(1779047607.427315) can0 0000E010#0000000000000000
(1779047607.428255) can0 0000E011#0000000000000000
(1779047607.429258) can0 0000E012#0CE0000000000000
(1779047607.430208) can0 0000E013#4542323630354C43
(1779047607.431240) can0 0000E014#3134323300000000
(1779047607.432253) can0 0000E015#0000000000000003
(1779047607.433266) can0 0000F000#0000000000000000
(1779047607.434265) can0 0000F001#0000000000000000
(1779047607.435266) can0 18FF28F4#10330000020F0000
(1779047607.436239) can0 18FE28F4#0CE00CE03F3F0000
(1779047607.437241) can0 18FD28F4#16D2FA6F00000000
(1779047607.438158) can0 4D4#000033007D0F0203
(1779047607.439145) can0 4D5#E00CE00C3F3F0000
(1779047607.440233) can0 18914010#0CE0100CE0010000
(1779047607.441234) can0 18904010#020F020F753001FE
(1779047607.442248) can0 18924010#3F013F0100000000
(1779047607.443229) can0 18934010#000000270000BD42
(1779047607.444260) can0 18944010#1003000000000000
(1779047607.445273) can0 18954010#0000000000000000
(1779047607.446272) can0 18954010#0100000000000000
(1779047607.447281) can0 18954010#0200000000000000
(1779047607.448263) can0 18954010#0300000000000000
(1779047607.449267) can0 18954010#0400000000000000
(1779047607.450267) can0 18954010#0500000000000000
(1779047607.451262) can0 18964010#003F3F3F00000000
(1779047607.452251) can0 18974010#0000000000000000
(1779047607.453254) can0 18984010#0000000000000000
(1779047607.454235) can0 18FA28F4#E23DA12C10270000
(1779047607.455230) can0 18FB28F4#E00CE00C3F3F0000
(1779047607.456242) can0 18FC28F4#383300000F020000
(1779047607.457223) can0 18F810F3#0F02E80333640100
(1779047607.458237) can0 18F811F3#E00C1001E00C0101
(1779047607.459249) can0 18F812F3#3F01013F01010000
(1779047607.460256) can0 18F813F3#0101000000000000
(1779047607.461224) can0 18F814F3#3200BA1AA9015F00
(1779047607.462255) can0 18F815F3#0000000010030000
(1779047607.463156) can0 273#000000000F023300
(1779047607.464144) can0 1E1#020F271001FE01FE
(1779047607.465180) can0 1F5#0000000000000000
(1779047607.466256) can0 0800A6A9#0000000000000000
(1779047607.467225) can0 1000A6A9#0F02881333494949
(1779047607.468256) can0 1C00A6A9#0000000000030000
(1779047607.469288) can0 02018100#1003020F00000000
(1779047607.470256) can0 02028100#0000003364000000
(1779047607.471251) can0 02038100#0CE001100CE00101
(1779047607.472258) can0 02048100#4901014901010000
(1779047607.473130) can0 1AD#9914000059331717
(1779047607.474143) can0 2AD#E00C800C99140016
(1779047607.475162) can0 3AD#0000000000009914
(1779047607.476168) can0 4AD#EB00000000000000
(1779047607.477168) can0 76A#7F00000000000000
(1779047607.535861) can0 0000E005#16D2420003B60591
(1779047607.536436) can0 1806E5F4#13EC010003B6023A
(1779047607.537257) can0 0000E000#13EC13EC020F0000
(1779047607.538238) can0 0000E004#171703B603B601E4
(1779047607.539238) can0 0000E006#0CE00CE00CE00CE0
(1779047607.540232) can0 0000E007#0CE00CE00CE00CE0
(1779047607.541243) can0 0000E008#0CE00CE00CE00CE0
(1779047607.542233) can0 0000E009#0CE00CE00CE00CE0
(1779047607.543277) can0 0000E010#0000000000000000
(1779047607.544271) can0 0000E011#0000000000000000
(1779047607.545252) can0 0000E012#0CE0000000000000
(1779047607.546271) can0 0000F001#0000000000000000
(1779047607.547271) can0 18FF28F4#10330000020F0000
(1779047607.548233) can0 18FE28F4#0CE00CE03F3F0000
(1779047607.549265) can0 18FD28F4#16D2FA6F00000000
(1779047607.550163) can0 4D4#000033007D0F0203
(1779047607.551146) can0 4D5#E00CE00C3F3F0000
(1779047607.552240) can0 18914010#0CE0100CE0010000
(1779047607.553236) can0 18904010#020F020F753001FE
(1779047607.554234) can0 18FA28F4#E23DA12C10270000
(1779047607.555235) can0 18FB28F4#E00CE00C3F3F0000
(1779047607.556246) can0 18FC28F4#383300000F020000
(1779047607.557245) can0 18F810F3#0F02E80333640100
(1779047607.558273) can0 18F815F3#0000000010030000
(1779047607.559164) can0 273#000000000F023300
(1779047607.560166) can0 1E1#020F271001FE01FE
(1779047607.561172) can0 1F5#0000000000000000
(1779047607.562266) can0 0800A6A9#0000000000000000
(1779047607.563235) can0 1000A6A9#0F02881333494949
(1779047607.564247) can0 1C00A6A9#0000000000030000
(1779047607.565292) can0 02018100#1003020F00000000
(1779047607.566260) can0 02028100#0000003364000000
(1779047607.567261) can0 02038100#0CE001100CE00101
(1779047607.568248) can0 02048100#4901014901010000
(1779047607.569139) can0 1AD#9914000059331717
(1779047607.570147) can0 2AD#E00C800C99140016
(1779047607.571160) can0 3AD#0000000000009914
(1779047607.572172) can0 4AD#EB00000000000000
(1779047607.573204) can0 76A#7F00000000000000
(1779047607.635788) can0 0000E005#16D2420003B60591
(1779047607.636376) can0 1806E5F4#13EC010003B6023A
(1779047607.637260) can0 0000E000#13EC13EC020F0000
(1779047607.638242) can0 0000E004#171703B603B601E4
(1779047607.639243) can0 0000E006#0CE00CE00CE00CE0
