(1779054411.077257) can0 0000E012#0CD9000100000000
(1779054411.078298) can0 0000F001#0000000000000000
(1779054411.079250) can0 18FF28F4#10320000020E0000
(1779054411.080234) can0 18FE28F4#0CDA0CD942420000
(1779054411.081246) can0 18FD28F4#1761FA6F00000000
(1779054411.082167) can0 4D4#000032007D0E0203
(1779054411.083144) can0 4D5#D90CDA0C42420000
(1779054411.084240) can0 18914010#0CDA100CD9020000
(1779054411.085232) can0 18904010#020E020E753001FC
(1779054411.086284) can0 18FA28F4#713EA12C10270000
(1779054411.087235) can0 18FB28F4#DA0CD90C42420000
(1779054411.088247) can0 18FC28F4#383200000E020000
(1779054411.089228) can0 18F810F3#0E02E80332640100
(1779054411.090258) can0 18F815F3#0000000010030000
(1779054411.091171) can0 273#000000000E023200
(1779054411.092147) can0 1E1#020E271001FC01FC
(1779054411.093169) can0 1F5#0000000000000000
(1779054411.094302) can0 0800A6A9#0000000000000000
(1779054411.095217) can0 1000A6A9#0E028813324C4C4C
(1779054411.096247) can0 1C00A6A9#0000000000030000
(1779054411.097263) can0 02018100#1003020E00000000
(1779054411.098260) can0 02028100#0000003264000000
(1779054411.099241) can0 02038100#0CDA01100CD90102
(1779054411.100240) can0 02048100#4C01014C01010000
(1779054411.101141) can0 1AD#8F14000059321A1A
(1779054411.102133) can0 2AD#DA0C800C8F140016
(1779054411.103164) can0 3AD#0000000000008F14
(1779054411.104158) can0 4AD#EB00000000000000
(1779054411.105153) can0 76A#7F00000000000000
(1779054411.167840) can0 0000E005#1761480003B60591
(1779054411.168424) can0 1806E5F4#13DC010003B6023A
(1779054411.169239) can0 0000E000#13DC13DC020E0000
(1779054411.170214) can0 0000E004#1A1A03B603B601E3
(1779054411.171250) can0 0000E006#0CD90CD90CD90CD9
(1779054411.172218) can0 0000E007#0CD90CD90CD90CD9
(1779054411.173219) can0 0000E008#0CD90CD90CD90CD9
(1779054411.174213) can0 0000E009#0CD90CD90CD90CDA
(1779054411.175263) can0 0000E010#0000000000000000
(1779054411.176257) can0 0000E011#0000000000000000
(1779054411.177239) can0 0000E012#0CD9000100000000
(1779054411.178249) can0 0000F001#0000000000000000
(1779054411.179256) can0 18FF28F4#10320000020E0000
(1779054411.180220) can0 18FE28F4#0CDA0CD942420000
(1779054411.181232) can0 18FD28F4#1761FA6F00000000
(1779054411.182142) can0 4D4#000032007D0E0203
(1779054411.183130) can0 4D5#D90CDA0C42420000
(1779054411.184225) can0 18914010#0CDA100CD9020000
(1779054411.185227) can0 18904010#020E020E753001FC
(1779054411.186237) can0 18FA28F4#713EA12C10270000
(1779054411.187220) can0 18FB28F4#DA0CD90C42420000
(1779054411.188234) can0 18FC28F4#383200000E020000
(1779054411.189219) can0 18F810F3#0E02E80332640100
(1779054411.190241) can0 18F815F3#0000000010030000
(1779054411.191163) can0 273#000000000E023200
(1779054411.192144) can0 1E1#020E271001FC01FC
(1779054411.193163) can0 1F5#0000000000000000
(1779054411.194253) can0 0800A6A9#0000000000000000
(1779054411.195220) can0 1000A6A9#0E028813324C4C4C
(1779054411.196250) can0 1C00A6A9#0000000000030000
(1779054411.197251) can0 02018100#1003020E00000000
(1779054411.198245) can0 02028100#0000003264000000
(1779054411.199227) can0 02038100#0CDA01100CD90102
(1779054411.200239) can0 02048100#4C01014C01010000
(1779054411.201125) can0 1AD#8F14000059321A1A
(1779054411.202121) can0 2AD#DA0C800C8F140016
(1779054411.203151) can0 3AD#0000000000008F14
(1779054411.204163) can0 4AD#EB00000000000000
(1779054411.205163) can0 76A#7F00000000000000
(1779054411.267778) can0 0000E005#1761480003B60591
(1779054411.268419) can0 1806E5F4#13DC010003B6023A
(1779054411.269226) can0 0000E000#13DC13DC020E0000
(1779054411.270226) can0 0000E004#1A1A03B603B601E3
(1779054411.271205) can0 0000E006#0CD90CD90CD80CD9
(1779054411.272205) can0 0000E007#0CD90CD90CD90CD9
(1779054411.273206) can0 0000E008#0CD90CD90CD90CD9
(1779054411.274199) can0 0000E009#0CD90CD90CD90CDA
(1779054411.275261) can0 0000E010#0000000000000000
(1779054411.276262) can0 0000E011#0000000000000000
(1779054411.277244) can0 0000E012#0CD9000200000000
(1779054411.278256) can0 0000F001#0000000000000000
(1779054411.279240) can0 18FF28F4#10320000020E0000
(1779054411.280225) can0 18FE28F4#0CDA0CD842420000
(1779054411.281237) can0 18FD28F4#1761FA6F00000000
(1779054411.282156) can0 4D4#000032007D0E0203
(1779054411.283123) can0 4D5#D80CDA0C42420000
(1779054411.284232) can0 18914010#0CDA100CD8030000
(1779054411.285231) can0 18904010#020E020E753001FC
(1779054411.286226) can0 18FA28F4#713EA12C10270000
(1779054411.287203) can0 18FB28F4#DA0CD80C42420000
(1779054411.288238) can0 18FC28F4#383200000E020000
(1779054411.289219) can0 18F810F3#0E02E80332640100
(1779054411.290251) can0 18F815F3#0000000010030000
(1779054411.291146) can0 273#000000000E023200
(1779054411.292136) can0 1E1#020E271001FC01FC
(1779054411.293181) can0 1F5#0000000000000000
(1779054411.294245) can0 0800A6A9#0000000000000000
(1779054411.295214) can0 1000A6A9#0E028813324C4C4C
(1779054411.296238) can0 1C00A6A9#0000000000030000
(1779054411.297257) can0 02018100#1003020E00000000
(1779054411.298258) can0 02028100#0000003264000000
(1779054411.299247) can0 02038100#0CDA01100CD80103
(1779054411.300245) can0 02048100#4C01014C01010000
(1779054411.301150) can0 1AD#8E14000059321A1A
(1779054411.302128) can0 2AD#DA0C800C8E140016
(1779054411.303140) can0 3AD#0000000000008E14
(1779054411.304155) can0 4AD#EB00000000000000
(1779054411.305150) can0 76A#7F00000000000000
(1779054411.367836) can0 0000E005#1761480003B60591
(1779054411.368422) can0 1806E5F4#13DC010003B6023A
(1779054411.369237) can0 0000E000#13DC13DC020E0000
(1779054411.370249) can0 0000E004#1A1A03B603B601E3
(1779054411.371216) can0 0000E006#0CD90CD90CD80CD9
(1779054411.372213) can0 0000E007#0CD90CD90CD90CD9
(1779054411.373197) can0 0000E008#0CD90CD90CD90CD9
(1779054411.374210) can0 0000E009#0CD90CD90CD90CDA
(1779054411.375261) can0 0000E010#0000000000000000
(1779054411.376251) can0 0000E011#0000000000000000
(1779054411.377236) can0 0000E012#0CD9000200000000
(1779054411.378286) can0 0000F001#0000000000000000
(1779054411.379236) can0 18FF28F4#10320000020E0000
(1779054411.380217) can0 18FE28F4#0CDA0CD842420000
(1779054411.381230) can0 18FD28F4#1761FA6F00000000
(1779054411.382147) can0 4D4#000032007D0E0203
(1779054411.383129) can0 4D5#D80CDA0C42420000
(1779054411.384222) can0 18914010#0CDA100CD8030000
(1779054411.385224) can0 18904010#020E020E753001FC
(1779054411.386268) can0 18FA28F4#713EA12C10270000
(1779054411.387219) can0 18FB28F4#DA0CD80C42420000
(1779054411.388233) can0 18FC28F4#383200000E020000
(1779054411.389218) can0 18F810F3#0E02E80332640100
(1779054411.390244) can0 18F815F3#0000000010030000
(1779054411.391149) can0 273#000000000E023200
(1779054411.392130) can0 1E1#020E271001FC01FC
(1779054411.393160) can0 1F5#0000000000000000
(1779054411.394288) can0 0800A6A9#0000000000000000
(1779054411.395206) can0 1000A6A9#0E028813324C4C4C
(1779054411.396230) can0 1C00A6A9#0000000000030000
(1779054411.397250) can0 02018100#1003020E00000000
(1779054411.398244) can0 02028100#0000003264000000
(1779054411.399226) can0 02038100#0CDA01100CD80103
(1779054411.400236) can0 02048100#4C01014C01010000
(1779054411.401123) can0 1AD#8E14000059321A1A
(1779054411.402123) can0 2AD#DA0C800C8E140016
(1779054411.403149) can0 3AD#0000000000008E14
(1779054411.404144) can0 4AD#EB00000000000000
(1779054411.405161) can0 76A#7F00000000000000
(1779054411.484841) can0 0000E005#1761480003B60591
(1779054411.485430) can0 1806E5F4#13DC010003B6023A
(1779054411.486231) can0 0000E000#13DC13DC020E0000
(1779054411.487217) can0 0000E004#1A1A03B603B601E3
(1779054411.488197) can0 0000E006#0CD90CD90CD90CD9
(1779054411.489210) can0 0000E007#0CD90CD90CD90CD9
(1779054411.490206) can0 0000E008#0CD90CD90CD90CD9
(1779054411.491205) can0 0000E009#0CD90CD90CD90CDA
(1779054411.492255) can0 0000E010#0000000000000000
(1779054411.493255) can0 0000E011#0000000000000000
(1779054411.494237) can0 0000E012#0CD9000100000000
(1779054411.495199) can0 0000E013#4542323630354C43
(1779054411.496230) can0 0000E014#3134323300000000
(1779054411.497242) can0 0000E015#0000000000000003
(1779054411.498262) can0 0000F000#0000000000000000
(1779054411.499257) can0 0000F001#0000000000000000
(1779054411.500243) can0 18FF28F4#10320000020E0000
(1779054411.501205) can0 18FE28F4#0CDA0CD942420000
(1779054411.502217) can0 18FD28F4#1761FA6F00000000
(1779054411.503142) can0 4D4#000032007D0E0203
(1779054411.504136) can0 4D5#D90CDA0C42420000
(1779054411.505217) can0 18914010#0CDA100CD9020000
(1779054411.506218) can0 18904010#020E020E753001FC
(1779054411.507230) can0 18924010#4201420100000000
(1779054411.508248) can0 18934010#000000640000BCAD
(1779054411.509242) can0 18944010#1003000000000000
(1779054411.510255) can0 18954010#0000000000000000
(1779054411.511254) can0 18954010#0100000000000000
(1779054411.512256) can0 18954010#0200000000000000
(1779054411.513244) can0 18954010#0300000000000000
(1779054411.514249) can0 18954010#0400000000000000
(1779054411.515248) can0 18954010#0500000000000000
(1779054411.516248) can0 18964010#0042424200000000
(1779054411.517242) can0 18974010#0000000000000000
(1779054411.518241) can0 18984010#0000000000000000
(1779054411.519223) can0 18FA28F4#713EA12C10270000
(1779054411.520217) can0 18FB28F4#DA0CD90C42420000
(1779054411.521226) can0 18FC28F4#383200000E020000
(1779054411.522211) can0 18F810F3#0E02E80332640100
(1779054411.523223) can0 18F811F3#DA0C1001D90C0201
(1779054411.524255) can0 18F812F3#4201014201010000
(1779054411.525249) can0 18F813F3#0101000000000000
(1779054411.526216) can0 18F814F3#3200491BA9015F00
(1779054411.527243) can0 18F815F3#0000000010030000
(1779054411.528147) can0 273#000000000E023200
(1779054411.529140) can0 1E1#020E271001FC01FC
(1779054411.530172) can0 1F5#0000000000000000
(1779054411.531250) can0 0800A6A9#0000000000000000
(1779054411.532243) can0 1000A6A9#0E028813324C4C4C
(1779054411.533236) can0 1C00A6A9#0000000000030000
(1779054411.534256) can0 02018100#1003020E00000000
(1779054411.535241) can0 02028100#0000003264000000
(1779054411.536224) can0 02038100#0CDA01100CD90102
(1779054411.537232) can0 02048100#4C01014C01010000
(1779054411.538122) can0 1AD#8F14000059321A1A
(1779054411.539121) can0 2AD#DA0C800C8F140016
(1779054411.540179) can0 3AD#0000000000008F14
(1779054411.541146) can0 4AD#EB00000000000000
(1779054411.542160) can0 76A#7F00000000000000
(1779054411.600833) can0 0000E005#1761480003B60591
(1779054411.601445) can0 1806E5F4#13DC010003B6023A
(1779054411.602228) can0 0000E000#13DC13DC020E0000
(1779054411.603229) can0 0000E004#1A1A03B603B601E3
(1779054411.604209) can0 0000E006#0CD90CD90CD90CD9
(1779054411.605209) can0 0000E007#0CD90CD90CD90CD9
(1779054411.606205) can0 0000E008#0CD90CD90CD90CD9
(1779054411.607204) can0 0000E009#0CD90CD90CD90CDA
(1779054411.608254) can0 0000E010#0000000000000000
(1779054411.609279) can0 0000E011#0000000000000000
(1779054411.610228) can0 0000E012#0CD9000100000000
(1779054411.611249) can0 0000F001#0000000000000000
(1779054411.612241) can0 18FF28F4#10320000020E0000
(1779054411.613210) can0 18FE28F4#0CDA0CD942420000
(1779054411.614216) can0 18FD28F4#1761FA6F00000000
(1779054411.615140) can0 4D4#000032007D0E0203
(1779054411.616121) can0 4D5#D90CDA0C42420000
(1779054411.617268) can0 18914010#0CDA100CD9020000
(1779054411.618209) can0 18904010#020E020E753001FC
(1779054411.619231) can0 18FA28F4#713EA12C10270000
(1779054411.620208) can0 18FB28F4#DA0CD90C42420000
(1779054411.621229) can0 18FC28F4#383200000E020000
(1779054411.622222) can0 18F810F3#0E02E80332640100
(1779054411.623236) can0 18F815F3#0000000010030000
(1779054411.624152) can0 273#000000000E023200
(1779054411.625185) can0 1E1#020E271001FC01FC
(1779054411.626163) can0 1F5#0000000000000000
(1779054411.627249) can0 0800A6A9#0000000000000000
(1779054411.628211) can0 1000A6A9#0E028813324C4C4C
(1779054411.629243) can0 1C00A6A9#0000000000030000
(1779054411.630243) can0 02018100#1003020E00000000
(1779054411.631239) can0 02028100#0000003264000000
(1779054411.632223) can0 02038100#0CDA01100CD90102
(1779054411.633237) can0 02048100#4C01014C01010000
(1779054411.634114) can0 1AD#8F14000059321A1A
(1779054411.635129) can0 2AD#DA0C800C8F140016
(1779054411.636140) can0 3AD#0000000000008F14
(1779054411.637154) can0 4AD#EB00000000000000
(1779054411.638150) can0 76A#7F00000000000000
(1779054411.700796) can0 0000E005#1761480003B60591
(1779054411.701377) can0 1806E5F4#13DC010003B6023A
(1779054411.702275) can0 0000E000#13DC13DC020E0000
(1779054411.703213) can0 0000E004#1A1A03B603B601E3
(1779054411.704201) can0 0000E006#0CD90CD90CD90CD9
(1779054411.705196) can0 0000E007#0CD90CD90CD90CD9
(1779054411.706200) can0 0000E008#0CD90CD90CD90CD9
(1779054411.707200) can0 0000E009#0CD90CD90CD90CDA
(1779054411.708259) can0 0000E010#0000000000000000
(1779054411.709240) can0 0000E011#0000000000000000
(1779054411.710241) can0 0000E012#0CD9000100000000
(1779054411.711247) can0 0000F001#0000000000000000
(1779054411.712234) can0 18FF28F4#10320000020E0000
(1779054411.713195) can0 18FE28F4#0CDA0CD942420000
(1779054411.714229) can0 18FD28F4#1761FA6F00000000
(1779054411.715143) can0 4D4#000032007D0E0203
(1779054411.716115) can0 4D5#D90CDA0C42420000
(1779054411.717226) can0 18914010#0CDA100CD9020000
(1779054411.718223) can0 18904010#020E020E753001FC
(1779054411.719222) can0 18FA28F4#713EA12C10270000
(1779054411.720221) can0 18FB28F4#DA0CD90C42420000
(1779054411.721234) can0 18FC28F4#383200000E020000
(1779054411.722215) can0 18F810F3#0E02E80332640100
(1779054411.723239) can0 18F815F3#0000000010030000
(1779054411.724147) can0 273#000000000E023200
(1779054411.725127) can0 1E1#020E271001FC01FC
(1779054411.726157) can0 1F5#0000000000000000
(1779054411.727231) can0 0800A6A9#0000000000000000
(1779054411.728204) can0 1000A6A9#0E028813324C4C4C
(1779054411.729235) can0 1C00A6A9#0000000000030000
(1779054411.730249) can0 02018100#1003020E00000000
(1779054411.731248) can0 02028100#0000003264000000
(1779054411.732224) can0 02038100#0CDA01100CD90102
(1779054411.733223) can0 02048100#4C01014C01010000
(1779054411.734107) can0 1AD#8F14000059321A1A
(1779054411.735117) can0 2AD#DA0C800C8F140016
(1779054411.736134) can0 3AD#0000000000008F14
(1779054411.737146) can0 4AD#EB00000000000000
(1779054411.738139) can0 76A#7F00000000000000
(1779054411.800826) can0 0000E005#1761480003B60591
(1779054411.801459) can0 1806E5F4#13DC010003B6023A
(1779054411.802221) can0 0000E000#13DC13DC020E0000
(1779054411.803223) can0 0000E004#1A1A03B603B601E3
(1779054411.804201) can0 0000E006#0CD90CD90CD90CD9
(1779054411.805200) can0 0000E007#0CD90CD90CD90CD9
(1779054411.806199) can0 0000E008#0CD90CD90CD90CD9
(1779054411.807194) can0 0000E009#0CD90CD90CD90CDA
(1779054411.808256) can0 0000E010#0000000000000000
(1779054411.809241) can0 0000E011#0000000000000000
(1779054411.810220) can0 0000E012#0CD9000100000000
(1779054411.811257) can0 0000F001#0000000000000000
(1779054411.812233) can0 18FF28F4#10320000020E0000
(1779054411.813204) can0 18FE28F4#0CDA0CD942420000
(1779054411.814214) can0 18FD28F4#1761FA6F00000000
(1779054411.815133) can0 4D4#000032007D0E0203
(1779054411.816129) can0 4D5#D90CDA0C42420000
(1779054411.817208) can0 18914010#0CDA100CD9010000
(1779054411.818207) can0 18904010#020E020E753001FC
(1779054411.819221) can0 18FA28F4#713EA12C10270000
(1779054411.820196) can0 18FB28F4#DA0CD90C42420000
(1779054411.821221) can0 18FC28F4#383200000E020000
(1779054411.822214) can0 18F810F3#0E02E80332640100
(1779054411.823248) can0 18F815F3#0000000010030000
(1779054411.824156) can0 273#000000000E023200
(1779054411.825126) can0 1E1#020E271001FC01FC
(1779054411.826157) can0 1F5#0000000000000000
(1779054411.827240) can0 0800A6A9#0000000000000000
(1779054411.828203) can0 1000A6A9#0E028813324C4C4C
(1779054411.829234) can0 1C00A6A9#0000000000030000
(1779054411.830247) can0 02018100#1003020E00000000
(1779054411.831229) can0 02028100#0000003264000000
(1779054411.832236) can0 02038100#0CDA01100CD90101
(1779054411.833227) can0 02048100#4C01014C01010000
(1779054411.834106) can0 1AD#8E14000059321A1A
(1779054411.835120) can0 2AD#DA0C800C8E140016
(1779054411.836126) can0 3AD#0000000000008E14
(1779054411.837145) can0 4AD#EB00000000000000
(1779054411.838145) can0 76A#7F00000000000000
(1779054411.900855) can0 0000E005#1761480003B60591
(1779054411.901462) can0 1806E5F4#13DC010003B6023A
(1779054411.902230) can0 0000E000#13DC13DC020E0000
(1779054411.903206) can0 0000E004#1A1A03B603B601E3
(1779054411.904189) can0 0000E006#0CD90CD90CD90CD9
(1779054411.905201) can0 0000E007#0CD90CD90CD90CD9
(1779054411.906200) can0 0000E008#0CD90CD90CD90CD9
(1779054411.907200) can0 0000E009#0CD90CD90CD90CDA
(1779054411.908244) can0 0000E010#0000000000000000
(1779054411.909269) can0 0000E011#0000000000000000
(1779054411.910226) can0 0000E012#0CD9000100000000
(1779054411.911238) can0 0000F001#0000000000000000
(1779054411.912239) can0 18FF28F4#10320000020E0000
(1779054411.913206) can0 18FE28F4#0CDA0CD942420000
(1779054411.914220) can0 18FD28F4#1761FA6F00000000
(1779054411.915137) can0 4D4#000032007D0E0203
(1779054411.916118) can0 4D5#D90CDA0C42420000
(1779054411.917241) can0 18914010#0CDA100CD9010000
(1779054411.918208) can0 18904010#020E020E753001FC
(1779054411.919206) can0 18FA28F4#713EA12C10270000
(1779054411.920206) can0 18FB28F4#DA0CD90C42420000
(1779054411.921215) can0 18FC28F4#383200000E020000
(1779054411.922201) can0 18F810F3#0E02E80332640100
(1779054411.923234) can0 18F815F3#0000000010030000
(1779054411.924131) can0 273#000000000E023200
(1779054411.925162) can0 1E1#020E271001FC01FC
(1779054411.926144) can0 1F5#0000000000000000
(1779054411.927239) can0 0800A6A9#0000000000000000
(1779054411.928208) can0 1000A6A9#0E028813324C4C4C
(1779054411.929216) can0 1C00A6A9#0000000000030000
(1779054411.930233) can0 02018100#1003020E00000000
(1779054411.931234) can0 02028100#0000003264000000
(1779054411.932215) can0 02038100#0CDA01100CD90101
(1779054411.933254) can0 02048100#4C01014C01010000
(1779054411.934112) can0 1AD#8E14000059321A1A
(1779054411.935105) can0 2AD#DA0C800C8E140016
(1779054411.936138) can0 3AD#0000000000008E14
(1779054411.937150) can0 4AD#EB00000000000000
(1779054411.938146) can0 76A#7F00000000000000
(1779054412.037781) can0 0000E005#1761480003B60591
(1779054412.038363) can0 1806E5F4#13DC010003B6023A
(1779054412.039224) can0 0000E000#13DC13DC020E0000
(1779054412.040208) can0 0000E004#1A1A03B603B601E3
(1779054412.041185) can0 0000E006#0CD90CD90CD90CD9
(1779054412.042200) can0 0000E007#0CD90CD90CD90CD9
(1779054412.043184) can0 0000E008#0CD90CD90CD90CD9
(1779054412.044201) can0 0000E009#0CD90CD90CD90CDA
(1779054412.045243) can0 0000E010#0000000000000000
(1779054412.046245) can0 0000E011#0000000000000000
(1779054412.047227) can0 0000E012#0CD9000100000000
(1779054412.048189) can0 0000E013#4542323630354C43
(1779054412.049228) can0 0000E014#3134323300000000
(1779054412.050239) can0 0000E015#0000000000000003
(1779054412.051249) can0 0000F000#0000000000000000
(1779054412.052249) can0 0000F001#0000000000000000
(1779054412.053226) can0 18FF28F4#10320000020E0000
(1779054412.054196) can0 18FE28F4#0CDA0CD942420000
(1779054412.055228) can0 18FD28F4#1761FA6F00000000
(1779054412.056127) can0 4D4#000032007D0E0203
(1779054412.057109) can0 4D5#D90CDA0C42420000
(1779054412.058202) can0 18914010#0CDA100CD9010000
(1779054412.059202) can0 18904010#020E020E753001FC
(1779054412.060217) can0 18924010#4201420100000000
(1779054412.061214) can0 18934010#000000650000BCAD
(1779054412.062228) can0 18944010#1003000000000000
(1779054412.063272) can0 18954010#0000000000000000
(1779054412.064236) can0 18954010#0100000000000000
(1779054412.065235) can0 18954010#0200000000000000
(1779054412.066235) can0 18954010#0300000000000000
(1779054412.067230) can0 18954010#0400000000000000
(1779054412.068229) can0 18954010#0500000000000000
(1779054412.069209) can0 18964010#0042424200000000
(1779054412.070241) can0 18974010#0000000000000000
(1779054412.071267) can0 18984010#0000000000000000
(1779054412.072202) can0 18FA28F4#713EA12C10270000
(1779054412.073197) can0 18FB28F4#DA0CD90C42420000
(1779054412.074238) can0 18FC28F4#383200000E020000
(1779054412.075214) can0 18F810F3#0E02E80332640100
(1779054412.076211) can0 18F811F3#DA0C1001D90C0101
(1779054412.077207) can0 18F812F3#4201014201010000
(1779054412.078241) can0 18F813F3#0101000000000000
(1779054412.079242) can0 18F814F3#3200491BA9015F00
(1779054412.080250) can0 18F815F3#0000000010030000
(1779054412.081141) can0 273#000000000E023200
(1779054412.082125) can0 1E1#020E271001FC01FC
(1779054412.083149) can0 1F5#0000000000000000
(1779054412.084232) can0 0800A6A9#0000000000000000
(1779054412.085194) can0 1000A6A9#0E028813324C4C4C
(1779054412.086223) can0 1C00A6A9#0000000000030000
(1779054412.087236) can0 02018100#1003020E00000000
(1779054412.088239) can0 02028100#0000003264000000
(1779054412.089220) can0 02038100#0CDA01100CD90101
(1779054412.090219) can0 02048100#4C01014C01010000
(1779054412.091101) can0 1AD#8E14000059321A1A
(1779054412.092119) can0 2AD#DA0C800C8E140016
(1779054412.093140) can0 3AD#0000000000008E14
(1779054412.094156) can0 4AD#EB00000000000000
(1779054412.095166) can0 76A#7F00000000000000
(1779054412.153816) can0 0000E005#1761480003B60591
(1779054412.154412) can0 1806E5F4#13DC010003B6023A
(1779054412.155213) can0 0000E000#13DC13DC020E0000
(1779054412.156264) can0 0000E004#1A1A03B603B601E3
(1779054412.157192) can0 0000E006#0CD90CD90CD90CD9
(1779054412.158188) can0 0000E007#0CD90CD90CD90CD9
(1779054412.159186) can0 0000E008#0CD90CD90CD90CD9
(1779054412.160182) can0 0000E009#0CD90CD90CD90CDA
(1779054412.161227) can0 0000E010#0000000000000000
(1779054412.162225) can0 0000E011#0000000000000000
(1779054412.163210) can0 0000E012#0CD9000100000000
(1779054412.164290) can0 0000F001#0000000000000000
(1779054412.165222) can0 18FF28F4#10320000020E0000
(1779054412.166190) can0 18FE28F4#0CDA0CD942420000
(1779054412.167195) can0 18FD28F4#1761FA6F00000000
(1779054412.168119) can0 4D4#000032007D0E0203
(1779054412.169098) can0 4D5#D90CDA0C42420000
(1779054412.170194) can0 18914010#0CDA100CD9010000
(1779054412.171192) can0 18904010#020E020E753001FC
(1779054412.172208) can0 18FA28F4#713EA12C10270000
(1779054412.173188) can0 18FB28F4#DA0CD90C42420000
(1779054412.174220) can0 18FC28F4#383200000E020000
(1779054412.175203) can0 18F810F3#0E02E80332640100
(1779054412.176236) can0 18F815F3#0000000010030000
(1779054412.177134) can0 273#000000000E023200
(1779054412.178112) can0 1E1#020E271001FC01FC
(1779054412.179143) can0 1F5#0000000000000000
(1779054412.180224) can0 0800A6A9#0000000000000000
(1779054412.181189) can0 1000A6A9#0E028813324C4C4C
(1779054412.182221) can0 1C00A6A9#0000000000030000
(1779054412.183233) can0 02018100#1003020E00000000
(1779054412.184229) can0 02028100#0000003264000000
(1779054412.185215) can0 02038100#0CDA01100CD90101
(1779054412.186207) can0 02048100#4C01014C01010000
(1779054412.187095) can0 1AD#8E14000059321A1A
(1779054412.188106) can0 2AD#DA0C800C8E140016
(1779054412.189120) can0 3AD#0000000000008E14
(1779054412.190131) can0 4AD#EB00000000000000
(1779054412.191127) can0 76A#7F00000000000000
(1779054412.253815) can0 0000E005#1761480003B60591
(1779054412.254397) can0 1806E5F4#13DC010003B6023A
(1779054412.255217) can0 0000E000#13DC13DC020E0000
(1779054412.256202) can0 0000E004#1A1A03B603B601E3
(1779054412.257179) can0 0000E006#0CD90CD90CD90CD9
(1779054412.258196) can0 0000E007#0CD90CD90CD90CD9
(1779054412.259187) can0 0000E008#0CD90CD90CD90CD9
(1779054412.260188) can0 0000E009#0CD90CD90CD90CDA
(1779054412.261232) can0 0000E010#0000000000000000
(1779054412.262233) can0 0000E011#0000000000000000
(1779054412.263213) can0 0000E012#0CD9000100000000
(1779054412.264223) can0 0000F001#0000000000000000
(1779054412.265227) can0 18FF28F4#10320000020E0000
(1779054412.266194) can0 18FE28F4#0CDA0CD942420000
(1779054412.267208) can0 18FD28F4#1761FA6F00000000
(1779054412.268122) can0 4D4#000032007D0E0203
(1779054412.269106) can0 4D5#D90CDA0C42420000
(1779054412.270201) can0 18914010#0CDA100CD9010000
(1779054412.271196) can0 18904010#020E020E753001FC
(1779054412.272208) can0 18FA28F4#713EA12C10270000
(1779054412.273196) can0 18FB28F4#DA0CD90C42420000
(1779054412.274206) can0 18FC28F4#383200000E020000
(1779054412.275188) can0 18F810F3#0E02E80332640100
(1779054412.276215) can0 18F815F3#0000000010030000
(1779054412.277119) can0 273#000000000E023200
(1779054412.278117) can0 1E1#020E271001FC01FC
(1779054412.279133) can0 1F5#0000000000000000
(1779054412.280220) can0 0800A6A9#0000000000000000
(1779054412.281194) can0 1000A6A9#0E028813324C4C4C
(1779054412.282221) can0 1C00A6A9#0000000000030000
(1779054412.283221) can0 02018100#1003020E00000000
(1779054412.284221) can0 02028100#0000003264000000
(1779054412.285200) can0 02038100#0CDA01100CD90101
(1779054412.286226) can0 02048100#4C01014C01010000
(1779054412.287093) can0 1AD#8E14000059321A1A
(1779054412.288108) can0 2AD#DA0C800C8E140016
(1779054412.289118) can0 3AD#0000000000008E14
(1779054412.290132) can0 4AD#EB00000000000000
(1779054412.291131) can0 76A#7F00000000000000
(1779054412.353758) can0 0000E005#1761480003B60591
(1779054412.354343) can0 1806E5F4#13DC010003B6023A
(1779054412.355233) can0 0000E000#13DC13DC020E0000
(1779054412.356199) can0 0000E004#1A1A03B603B601E3
(1779054412.357184) can0 0000E006#0CD90CD90CD90CD9
(1779054412.358183) can0 0000E007#0CD90CD90CD90CD9
(1779054412.359180) can0 0000E008#0CD90CD90CD90CD9
(1779054412.360176) can0 0000E009#0CD90CD90CD90CDA
(1779054412.361235) can0 0000E010#0000000000000000
(1779054412.362233) can0 0000E011#0000000000000000
(1779054412.363234) can0 0000E012#0CD9000100000000
(1779054412.364231) can0 0000F001#0000000000000000
(1779054412.365211) can0 18FF28F4#10320000020E0000
(1779054412.366195) can0 18FE28F4#0CDA0CD942420000
(1779054412.367209) can0 18FD28F4#1761FA6F00000000
(1779054412.368124) can0 4D4#000032007D0E0203
(1779054412.369112) can0 4D5#D90CDA0C42420000
(1779054412.370206) can0 18914010#0CDA100CD9020000
(1779054412.371234) can0 18904010#020E020E753001FC
(1779054412.372199) can0 18FA28F4#713EA12C10270000
(1779054412.373196) can0 18FB28F4#DA0CD90C42420000
(1779054412.374212) can0 18FC28F4#383200000E020000
(1779054412.375195) can0 18F810F3#0E02E80332640100
(1779054412.376226) can0 18F815F3#0000000010030000
(1779054412.377120) can0 273#000000000E023200
(1779054412.378105) can0 1E1#020E271001FC01FC
(1779054412.379170) can0 1F5#0000000000000000
(1779054412.380213) can0 0800A6A9#0000000000000000
(1779054412.381182) can0 1000A6A9#0E028813324C4C4C
(1779054412.382212) can0 1C00A6A9#0000000000030000
(1779054412.383226) can0 02018100#1003020E00000000
(1779054412.384225) can0 02028100#0000003264000000
(1779054412.385205) can0 02038100#0CDA01100CD90102
(1779054412.386200) can0 02048100#4C01014C01010000
(1779054412.387139) can0 1AD#8F14000059321A1A
(1779054412.388098) can0 2AD#DA0C800C8F140016
(1779054412.389111) can0 3AD#0000000000008F14
(1779054412.390124) can0 4AD#EB00000000000000
(1779054412.391126) can0 76A#7F00000000000000
(1779054412.453806) can0 0000E005#1761480003B60591
(1779054412.454389) can0 1806E5F4#13DC010003B6023A
(1779054412.455212) can0 0000E000#13DC13DC020E0000
(1779054412.456238) can0 0000E004#1A1A03B603B601E3
(1779054412.457172) can0 0000E006#0CD90CD90CD90CD9
(1779054412.458186) can0 0000E007#0CD90CD90CD90CD9
(1779054412.459188) can0 0000E008#0CD90CD90CD90CD9
(1779054412.460184) can0 0000E009#0CD90CD90CD90CDA
(1779054412.461231) can0 0000E010#0000000000000000
(1779054412.462222) can0 0000E011#0000000000000000
(1779054412.463211) can0 0000E012#0CD9000100000000
(1779054412.464270) can0 0000F001#0000000000000000
(1779054412.465218) can0 18FF28F4#10320000020E0000
(1779054412.466185) can0 18FE28F4#0CDA0CD942420000
(1779054412.467200) can0 18FD28F4#1761FA6F00000000
(1779054412.468117) can0 4D4#000032007D0E0203
(1779054412.469098) can0 4D5#D90CDA0C42420000
(1779054412.470189) can0 18914010#0CDA100CD9020000
(1779054412.471193) can0 18904010#020E020E753001FC
(1779054412.472259) can0 18FA28F4#713EA12C10270000
(1779054412.473186) can0 18FB28F4#DA0CD90C42420000
(1779054412.474201) can0 18FC28F4#383200000E020000
(1779054412.475188) can0 18F810F3#0E02E80332640100
(1779054412.476212) can0 18F815F3#0000000010030000
(1779054412.477130) can0 273#000000000E023200
(1779054412.478112) can0 1E1#020E271001FC01FC
(1779054412.479158) can0 1F5#0000000000000000
(1779054412.480239) can0 0800A6A9#0000000000000000
(1779054412.481196) can0 1000A6A9#0E028813324C4C4C
(1779054412.482219) can0 1C00A6A9#0000000000030000
(1779054412.483216) can0 02018100#1003020E00000000
(1779054412.484215) can0 02028100#0000003264000000
(1779054412.485193) can0 02038100#0CDA01100CD90102
(1779054412.486202) can0 02048100#4C01014C01010000
(1779054412.487094) can0 1AD#8F14000059321A1A
(1779054412.488105) can0 2AD#DA0C800C8F140016
(1779054412.489118) can0 3AD#0000000000008F14
(1779054412.490130) can0 4AD#EB00000000000000
(1779054412.491124) can0 76A#7F00000000000000
(1779054412.570767) can0 0000E005#1761480003B60591
(1779054412.571352) can0 1806E5F4#13DC010003B6023A
(1779054412.572196) can0 0000E000#13DC13DC020E0000
(1779054412.573199) can0 0000E004#1A1A03B603B601E3
(1779054412.574181) can0 0000E006#0CD90CD90CD90CD9
(1779054412.575174) can0 0000E007#0CD90CD90CD90CD9
(1779054412.576169) can0 0000E008#0CD90CD90CD90CD9
(1779054412.577172) can0 0000E009#0CD90CD90CD90CD9
(1779054412.578236) can0 0000E010#0000000000000000
(1779054412.579217) can0 0000E011#0000000000000000
(1779054412.580213) can0 0000E012#0CD9000000000000
(1779054412.581179) can0 0000E013#4542323630354C43
(1779054412.582197) can0 0000E014#3134323300000000
(1779054412.583207) can0 0000E015#0000000000000003
(1779054412.584216) can0 0000F000#0000000000000000
(1779054412.585220) can0 0000F001#0000000000000000
(1779054412.586233) can0 18FF28F4#10320000020E0000
(1779054412.587187) can0 18FE28F4#0CD90CD942420000
(1779054412.588198) can0 18FD28F4#1761FA6F00000000
(1779054412.589117) can0 4D4#000032007D0E0203
(1779054412.590083) can0 4D5#D90CD90C42420000
(1779054412.591192) can0 18914010#0CD9090CD9010000
(1779054412.592193) can0 18904010#020E020E753001FC
(1779054412.593190) can0 18924010#4201420100000000
(1779054412.594218) can0 18934010#000000660000BCAD
(1779054412.595198) can0 18944010#1003000000000000
(1779054412.596225) can0 18954010#0000000000000000
(1779054412.597231) can0 18954010#0100000000000000
(1779054412.598226) can0 18954010#0200000000000000
(1779054412.599226) can0 18954010#0300000000000000
(1779054412.600221) can0 18954010#0400000000000000
(1779054412.601205) can0 18954010#0500000000000000
(1779054412.602232) can0 18964010#0042424200000000
(1779054412.603213) can0 18974010#0000000000000000
(1779054412.604215) can0 18984010#0000000000000000
(1779054412.605195) can0 18FA28F4#713EA12C10270000
(1779054412.606174) can0 18FB28F4#D90CD90C42420000
(1779054412.607201) can0 18FC28F4#383200000E020000
(1779054412.608180) can0 18F810F3#0E02E80332640100
(1779054412.609180) can0 18F811F3#D90C0901D90C0101
(1779054412.610239) can0 18F812F3#4201014201010000
(1779054412.611219) can0 18F813F3#0101000000000000
(1779054412.612184) can0 18F814F3#3200491BA9015F00
(1779054412.613213) can0 18F815F3#0000000010030000
(1779054412.614113) can0 273#000000000E023200
(1779054412.615094) can0 1E1#020E271001FC01FC
(1779054412.616126) can0 1F5#0000000000000000
(1779054412.617222) can0 0800A6A9#0000000000000000
(1779054412.618233) can0 1000A6A9#0E028813324C4C4C
(1779054412.619198) can0 1C00A6A9#0000000000030000
(1779054412.620212) can0 02018100#1003020E00000000
(1779054412.621207) can0 02028100#0000003264000000
(1779054412.622189) can0 02038100#0CD901090CD90101
(1779054412.623209) can0 02048100#4C01014C01010000
(1779054412.624087) can0 1AD#8E14000059321A1A
(1779054412.625086) can0 2AD#D90C800C8E140016
(1779054412.626120) can0 3AD#0000000000008E14
(1779054412.627119) can0 4AD#EB00000000000000
(1779054412.628113) can0 76A#7F00000000000000
(1779054412.686810) can0 0000E005#1761480003B60591
(1779054412.687397) can0 1806E5F4#13DC010003B6023A
(1779054412.688193) can0 0000E000#13DC13DC020E0000
(1779054412.689184) can0 0000E004#1A1A03B603B601E3
(1779054412.690174) can0 0000E006#0CD90CD90CD90CD9
(1779054412.691175) can0 0000E007#0CD90CD90CD90CD9
(1779054412.692165) can0 0000E008#0CD90CD90CD90CD9
(1779054412.693161) can0 0000E009#0CD90CD90CD90CD9
(1779054412.694229) can0 0000E010#0000000000000000
(1779054412.695264) can0 0000E011#0000000000000000
(1779054412.696211) can0 0000E012#0CD9000000000000
(1779054412.697225) can0 0000F001#0000000000000000
(1779054412.698205) can0 18FF28F4#10320000020E0000
(1779054412.699169) can0 18FE28F4#0CD90CD942420000
(1779054412.700198) can0 18FD28F4#1761FA6F00000000
(1779054412.701094) can0 4D4#000032007D0E0203
(1779054412.702083) can0 4D5#D90CD90C42420000
(1779054412.703180) can0 18914010#0CD9090CD9010000
(1779054412.704192) can0 18904010#020E020E753001FC
(1779054412.705187) can0 18FA28F4#713EA12C10270000
(1779054412.706174) can0 18FB28F4#D90CD90C42420000
(1779054412.707205) can0 18FC28F4#383200000E020000
(1779054412.708187) can0 18F810F3#0E02E80332640100
(1779054412.709213) can0 18F815F3#0000000010030000
(1779054412.710114) can0 273#000000000E023200
(1779054412.711098) can0 1E1#020E271001FC01FC
(1779054412.712129) can0 1F5#0000000000000000
(1779054412.713202) can0 0800A6A9#0000000000000000
(1779054412.714174) can0 1000A6A9#0E028813324C4C4C
(1779054412.715201) can0 1C00A6A9#0000000000030000
(1779054412.716219) can0 02018100#1003020E00000000
(1779054412.717208) can0 02028100#0000003264000000
(1779054412.718192) can0 02038100#0CD901090CD90101
(1779054412.719196) can0 02048100#4C01014C01010000
(1779054412.720074) can0 1AD#8E14000059321A1A
(1779054412.721086) can0 2AD#D90C800C8E140016
(1779054412.722098) can0 3AD#0000000000008E14
(1779054412.723111) can0 4AD#EB00000000000000
(1779054412.724111) can0 76A#7F00000000000000
(1779054412.786763) can0 0000E005#1761480003B60591
(1779054412.787343) can0 1806E5F4#13DC010003B6023A
(1779054412.788194) can0 0000E000#13DC13DC020E0000
(1779054412.789189) can0 0000E004#1A1A03B603B601E3
(1779054412.790173) can0 0000E006#0CD90CD90CD90CD9
(1779054412.791173) can0 0000E007#0CD90CD90CD90CD9
(1779054412.792174) can0 0000E008#0CD90CD90CD90CD9
(1779054412.793171) can0 0000E009#0CD90CD90CD90CD9
(1779054412.794216) can0 0000E010#0000000000000000
(1779054412.795214) can0 0000E011#0000000000000000
(1779054412.796211) can0 0000E012#0CD9000000000000
(1779054412.797220) can0 0000F001#0000000000000000
(1779054412.798206) can0 18FF28F4#10320000020E0000
(1779054412.799173) can0 18FE28F4#0CD90CD942420000
(1779054412.800187) can0 18FD28F4#1761FA6F00000000
(1779054412.801104) can0 4D4#000032007D0E0203
(1779054412.802090) can0 4D5#D90CD90C42420000
(1779054412.803179) can0 18914010#0CD9090CD9010000
(1779054412.804179) can0 18904010#020E020E753001FC
(1779054412.805192) can0 18FA28F4#713EA12C10270000
(1779054412.806161) can0 18FB28F4#D90CD90C42420000
(1779054412.807192) can0 18FC28F4#383200000E020000
(1779054412.808173) can0 18F810F3#0E02E80332640100
(1779054412.809214) can0 18F815F3#0000000010030000
(1779054412.810104) can0 273#000000000E023200
(1779054412.811103) can0 1E1#020E271001FC01FC
(1779054412.812118) can0 1F5#0000000000000000
(1779054412.813213) can0 0800A6A9#0000000000000000
(1779054412.814182) can0 1000A6A9#0E028813324C4C4C
(1779054412.815206) can0 1C00A6A9#0000000000030000
(1779054412.816205) can0 02018100#1003020E00000000
(1779054412.817218) can0 02028100#0000003264000000
(1779054412.818187) can0 02038100#0CD901090CD90101
(1779054412.819199) can0 02048100#4C01014C01010000
(1779054412.820085) can0 1AD#8E14000059321A1A
(1779054412.821092) can0 2AD#D90C800C8E140016
(1779054412.822111) can0 3AD#0000000000008E14
(1779054412.823123) can0 4AD#EB00000000000000
(1779054412.824117) can0 76A#7F00000000000000
(1779054412.886759) can0 0000E005#1761480003B60591
(1779054412.887359) can0 1806E5F4#13DC010003B6023A
(1779054412.888207) can0 0000E000#13DC13DC020E0000
(1779054412.889181) can0 0000E004#1A1A03B603B601E3
(1779054412.890171) can0 0000E006#0CD90CD90CD90CD9
(1779054412.891174) can0 0000E007#0CD90CD90CD90CD9
(1779054412.892171) can0 0000E008#0CD90CD90CD90CD9
(1779054412.893166) can0 0000E009#0CD90CD90CD90CD9
(1779054412.894227) can0 0000E010#0000000000000000
(1779054412.895218) can0 0000E011#0000000000000000
(1779054412.896197) can0 0000E012#0CD9000000000000
(1779054412.897211) can0 0000F001#0000000000000000
(1779054412.898201) can0 18FF28F4#10320000020E0000
(1779054412.899173) can0 18FE28F4#0CD90CD942420000
(1779054412.900190) can0 18FD28F4#1761FA6F00000000
(1779054412.901108) can0 4D4#000032007D0E0203
(1779054412.902101) can0 4D5#D90CD90C42420000
(1779054412.903185) can0 18914010#0CD9080CD9010000
(1779054412.904178) can0 18904010#020E020E753001FC
(1779054412.905180) can0 18FA28F4#713EA12C10270000
(1779054412.906157) can0 18FB28F4#D90CD90C42420000
(1779054412.907194) can0 18FC28F4#383200000E020000
(1779054412.908172) can0 18F810F3#0E02E80332640100
(1779054412.909204) can0 18F815F3#0000000010030000
(1779054412.910131) can0 273#000000000E023200
(1779054412.911091) can0 1E1#020E271001FC01FC
(1779054412.912114) can0 1F5#0000000000000000
(1779054412.913211) can0 0800A6A9#0000000000000000
(1779054412.914178) can0 1000A6A9#0E028813324C4C4C
(1779054412.915193) can0 1C00A6A9#0000000000030000
(1779054412.916204) can0 02018100#1003020E00000000
(1779054412.917204) can0 02028100#0000003264000000
(1779054412.918234) can0 02038100#0CD901080CD90101
(1779054412.919200) can0 02048100#4C01014C01010000
(1779054412.920085) can0 1AD#8E14000059321A1A
(1779054412.921078) can0 2AD#D90C800C8E140016
(1779054412.922103) can0 3AD#0000000000008E14
(1779054412.923110) can0 4AD#EB00000000000000
(1779054412.924116) can0 76A#7F00000000000000
(1779054413.006752) can0 0000E005#1761480003B60591
(1779054413.007331) can0 1806E5F4#13DC010003B6023A
(1779054413.008199) can0 0000E000#13DC13DC020E0000
(1779054413.009178) can0 0000E004#1A1A03B603B601E3
(1779054413.010161) can0 0000E006#0CD90CD90CD90CD9
(1779054413.011156) can0 0000E007#0CD90CD90CD90CD9
(1779054413.012158) can0 0000E008#0CD90CD90CD90CD9
(1779054413.013172) can0 0000E009#0CD90CD90CD90CD9
(1779054413.014217) can0 0000E010#0000000000000000
(1779054413.015208) can0 0000E011#0000000000000000
(1779054413.016197) can0 0000E012#0CD9000000000000
(1779054413.017210) can0 0000F001#0000000000000000
(1779054413.018192) can0 18FF28F4#10320000020E0000
(1779054413.019160) can0 18FE28F4#0CD90CD942420000
(1779054413.020186) can0 18FD28F4#1761FA6F00000000
(1779054413.021108) can0 4D4#000032007D0E0203
(1779054413.022069) can0 4D5#D90CD90C42420000
(1779054413.023180) can0 18914010#0CD9080CD9010000
(1779054413.024180) can0 18904010#020E020E753001FC
(1779054413.025177) can0 18FA28F4#713EA12C10270000
(1779054413.026159) can0 18FB28F4#D90CD90C42420000
(1779054413.027185) can0 18FC28F4#383200000E020000
(1779054413.028173) can0 18F810F3#0E02E80332640100
(1779054413.029203) can0 18F815F3#0000000010030000
(1779054413.030103) can0 273#000000000E023200
(1779054413.031083) can0 1E1#020E271001FC01FC
(1779054413.032116) can0 1F5#0000000000000000
(1779054413.033197) can0 0800A6A9#0000000000000000
(1779054413.034160) can0 1000A6A9#0E028813324C4C4C
(1779054413.035187) can0 1C00A6A9#0000000000030000
(1779054413.036205) can0 02018100#1003020E00000000
(1779054413.037204) can0 02028100#0000003264000000
(1779054413.038188) can0 02038100#0CD901080CD90101
(1779054413.039178) can0 02048100#4C01014C01010000
(1779054413.040086) can0 1AD#8E14000059321A1A
(1779054413.041078) can0 2AD#D90C800C8E140016
(1779054413.042104) can0 3AD#0000000000008E14
(1779054413.043103) can0 4AD#EB00000000000000
(1779054413.044103) can0 76A#7F00000000000000
(1779054413.123752) can0 0000E005#1761480003B60591
(1779054413.124334) can0 1806E5F4#13DC010003B6023A
(1779054413.125210) can0 0000E000#13DC13DC020E0000
(1779054413.126179) can0 0000E004#1A1A03B603B601E3
(1779054413.127159) can0 0000E006#0CD90CD90CD90CD9
(1779054413.128159) can0 0000E007#0CD90CD90CD90CD9
(1779054413.129149) can0 0000E008#0CD90CD90CD90CD9
(1779054413.130153) can0 0000E009#0CD90CD90CD90CDA
(1779054413.131202) can0 0000E010#0000000000000000
(1779054413.132198) can0 0000E011#0000000000000000
(1779054413.133214) can0 0000E012#0CD9000100000000
(1779054413.134165) can0 0000E013#4542323630354C43
(1779054413.135177) can0 0000E014#3134323300000000
(1779054413.136209) can0 0000E015#0000000000000003
(1779054413.137201) can0 0000F000#0000000000000000
(1779054413.138203) can0 0000F001#0000000000000000
(1779054413.139183) can0 18FF28F4#10320000020E0000
(1779054413.140166) can0 18FE28F4#0CDA0CD942420000
(1779054413.141207) can0 18FD28F4#1761FA6F00000000
(1779054413.142098) can0 4D4#000032007D0E0203
(1779054413.143078) can0 4D5#D90CDA0C42420000
(1779054413.144173) can0 18914010#0CDA100CD9020000
(1779054413.145172) can0 18904010#020E020E753001FC
(1779054413.146185) can0 18924010#4201420100000000
(1779054413.147172) can0 18934010#000000670000BCAD
(1779054413.148199) can0 18944010#1003000000000000
(1779054413.149255) can0 18954010#0000000000000000
(1779054413.150211) can0 18954010#0100000000000000
(1779054413.151191) can0 18954010#0200000000000000
(1779054413.152211) can0 18954010#0300000000000000
(1779054413.153198) can0 18954010#0400000000000000
(1779054413.154205) can0 18954010#0500000000000000
(1779054413.155186) can0 18964010#0042424200000000
(1779054413.156198) can0 18974010#0000000000000000
(1779054413.157199) can0 18984010#0000000000000000
(1779054413.158173) can0 18FA28F4#713EA12C10270000
(1779054413.159172) can0 18FB28F4#DA0CD90C42420000
(1779054413.160186) can0 18FC28F4#383200000E020000
(1779054413.161163) can0 18F810F3#0E02E80332640100
(1779054413.162180) can0 18F811F3#DA0C1001D90C0201
(1779054413.163180) can0 18F812F3#4201014201010000
(1779054413.164206) can0 18F813F3#0101000000000000
(1779054413.165162) can0 18F814F3#3200491BA9015F00
(1779054413.166206) can0 18F815F3#0000000010030000
(1779054413.167100) can0 273#000000000E023200
(1779054413.168082) can0 1E1#020E271001FC01FC
(1779054413.169111) can0 1F5#0000000000000000
(1779054413.170187) can0 0800A6A9#0000000000000000
(1779054413.171155) can0 1000A6A9#0E028813324C4C4C
(1779054413.172186) can0 1C00A6A9#0000000000030000
(1779054413.173195) can0 02018100#1003020E00000000
(1779054413.174199) can0 02028100#0000003264000000
(1779054413.175180) can0 02038100#0CDA01100CD90102
(1779054413.176181) can0 02048100#4C01014C01010000
(1779054413.177075) can0 1AD#8F14000059321A1A
(1779054413.178079) can0 2AD#DA0C800C8F140016
(1779054413.179093) can0 3AD#0000000000008F14
(1779054413.180105) can0 4AD#EB00000000000000
(1779054413.181104) can0 76A#7F00000000000000
(1779054413.239781) can0 0000E005#1761480003B60591
(1779054413.240373) can0 1806E5F4#13DC010003B6023A
(1779054413.241192) can0 0000E000#13DC13DC020E0000
(1779054413.242168) can0 0000E004#1A1A03B603B601E3
(1779054413.243153) can0 0000E006#0CD90CD90CD90CD9
(1779054413.244152) can0 0000E007#0CD90CD90CD90CD9
(1779054413.245146) can0 0000E008#0CD90CD90CD90CD9
(1779054413.246143) can0 0000E009#0CD90CD90CD90CDA
(1779054413.247210) can0 0000E010#0000000000000000
(1779054413.248209) can0 0000E011#0000000000000000
(1779054413.249191) can0 0000E012#0CD9000100000000
(1779054413.250203) can0 0000F001#0000000000000000
(1779054413.251185) can0 18FF28F4#10320000020E0000
(1779054413.252165) can0 18FE28F4#0CDA0CD942420000
(1779054413.253185) can0 18FD28F4#1761FA6F00000000
(1779054413.254093) can0 4D4#000032007D0E0203
(1779054413.255083) can0 4D5#D90CDA0C42420000
(1779054413.256177) can0 18914010#0CDA100CD9020000
(1779054413.257172) can0 18904010#020E020E753001FC
(1779054413.258171) can0 18FA28F4#713EA12C10270000
(1779054413.259173) can0 18FB28F4#DA0CD90C42420000
(1779054413.260184) can0 18FC28F4#383200000E020000
(1779054413.261166) can0 18F810F3#0E02E80332640100
(1779054413.262198) can0 18F815F3#0000000010030000
(1779054413.263096) can0 273#000000000E023200
(1779054413.264083) can0 1E1#020E271001FC01FC
(1779054413.265109) can0 1F5#0000000000000000
(1779054413.266186) can0 0800A6A9#0000000000000000
(1779054413.267158) can0 1000A6A9#0E028813324C4C4C
(1779054413.268191) can0 1C00A6A9#0000000000030000
(1779054413.269202) can0 02018100#1003020E00000000
(1779054413.270199) can0 02028100#0000003264000000
(1779054413.271200) can0 02038100#0CDA01100CD90102
(1779054413.272175) can0 02048100#4C01014C01010000
(1779054413.273078) can0 1AD#8F14000059321A1A
(1779054413.274071) can0 2AD#DA0C800C8F140016
(1779054413.275104) can0 3AD#0000000000008F14
(1779054413.276097) can0 4AD#EB00000000000000
(1779054413.277098) can0 76A#7F00000000000000
(1779054413.339786) can0 0000E005#1761480003B60591
(1779054413.340376) can0 1806E5F4#13DC010003B6023A
(1779054413.341186) can0 0000E000#13DC13DC020E0000
(1779054413.342166) can0 0000E004#1A1A03B603B601E3
(1779054413.343149) can0 0000E006#0CD90CD90CD90CD9
(1779054413.344165) can0 0000E007#0CD90CD90CD90CD9
(1779054413.345159) can0 0000E008#0CD90CD90CD90CD9
(1779054413.346157) can0 0000E009#0CD90CD90CD90CDA
(1779054413.347203) can0 0000E010#0000000000000000
(1779054413.348222) can0 0000E011#0000000000000000
(1779054413.349183) can0 0000E012#0CD9000100000000
(1779054413.350203) can0 0000F001#0000000000000000
(1779054413.351176) can0 18FF28F4#10320000020E0000
(1779054413.352165) can0 18FE28F4#0CDA0CD942420000
(1779054413.353179) can0 18FD28F4#1761FA6F00000000
(1779054413.354095) can0 4D4#000032007D0E0203
(1779054413.355072) can0 4D5#D90CDA0C42420000
(1779054413.356191) can0 18914010#0CDA100CD9020000
(1779054413.357172) can0 18904010#020E020E753001FC
(1779054413.358171) can0 18FA28F4#713EA12C10270000
(1779054413.359165) can0 18FB28F4#DA0CD90C42420000
(1779054413.360179) can0 18FC28F4#383200000E020000
(1779054413.361159) can0 18F810F3#0E02E80332640100
(1779054413.362192) can0 18F815F3#0000000010030000
(1779054413.363092) can0 273#000000000E023200
(1779054413.364109) can0 1E1#020E271001FC01FC
(1779054413.365102) can0 1F5#0000000000000000
(1779054413.366202) can0 0800A6A9#0000000000000000
(1779054413.367144) can0 1000A6A9#0E028813324C4C4C
(1779054413.368186) can0 1C00A6A9#0000000000030000
(1779054413.369203) can0 02018100#1003020E00000000
(1779054413.370195) can0 02028100#0000003264000000
(1779054413.371174) can0 02038100#0CDA01100CD90102
(1779054413.372218) can0 02048100#4C01014C01010000
(1779054413.373070) can0 1AD#8F14000059321A1A
(1779054413.374065) can0 2AD#DA0C800C8F140016
(1779054413.375097) can0 3AD#0000000000008F14
(1779054413.376091) can0 4AD#EB00000000000000
(1779054413.377089) can0 76A#7F00000000000000
(1779054413.439725) can0 0000E005#1761480003B60591
(1779054413.440319) can0 1806E5F4#13DC010003B6023A
(1779054413.441221) can0 0000E000#13DC13DC020E0000
(1779054413.442170) can0 0000E004#1A1A03B603B601E3
(1779054413.443151) can0 0000E006#0CD90CD90CD90CD9
(1779054413.444150) can0 0000E007#0CD90CD90CD90CD9
(1779054413.445144) can0 0000E008#0CD90CD90CD90CD9
(1779054413.446144) can0 0000E009#0CD90CD90CD90CD9
(1779054413.447188) can0 0000E010#0000000000000000
(1779054413.448188) can0 0000E011#0000000000000000
(1779054413.449221) can0 0000E012#0CD9000000000000
(1779054413.450201) can0 0000F001#0000000000000000
(1779054413.451178) can0 18FF28F4#10320000020E0000
(1779054413.452150) can0 18FE28F4#0CD90CD942420000
(1779054413.453164) can0 18FD28F4#1761FA6F00000000
(1779054413.454081) can0 4D4#000032007D0E0203
(1779054413.455063) can0 4D5#D90CD90C42420000
(1779054413.456157) can0 18914010#0CD9080CD9010000
(1779054413.457221) can0 18904010#020E020E753001FC
(1779054413.458170) can0 18FA28F4#713EA12C10270000
(1779054413.459151) can0 18FB28F4#D90CD90C42420000
(1779054413.460170) can0 18FC28F4#383200000E020000
(1779054413.461151) can0 18F810F3#0E02E80332640100
(1779054413.462196) can0 18F815F3#0000000010030000
(1779054413.463080) can0 273#000000000E023200
(1779054413.464081) can0 1E1#020E271001FC01FC
(1779054413.465095) can0 1F5#0000000000000000
(1779054413.466189) can0 0800A6A9#0000000000000000
(1779054413.467159) can0 1000A6A9#0E028813324C4C4C
(1779054413.468170) can0 1C00A6A9#0000000000030000
(1779054413.469190) can0 02018100#1003020E00000000
(1779054413.470192) can0 02028100#0000003264000000
(1779054413.471164) can0 02038100#0CD901080CD90101
(1779054413.472177) can0 02048100#4C01014C01010000
(1779054413.473063) can0 1AD#8E14000059321A1A
(1779054413.474075) can0 2AD#D90C800C8E140016
(1779054413.475087) can0 3AD#0000000000008E14
(1779054413.476101) can0 4AD#EB00000000000000
(1779054413.477096) can0 76A#7F00000000000000
(1779054413.539787) can0 0000E005#1761480003B60591
(1779054413.540374) can0 1806E5F4#13DC010003B6023A
(1779054413.541170) can0 0000E000#13DC13DC020E0000
(1779054413.542171) can0 0000E004#1A1A03B603B601E3
(1779054413.543149) can0 0000E006#0CD90CD90CD90CD9
(1779054413.544140) can0 0000E007#0CD90CD90CD90CD9
(1779054413.545144) can0 0000E008#0CD90CD90CD90CD9
(1779054413.546143) can0 0000E009#0CD90CD90CD90CD9
(1779054413.547191) can0 0000E010#0000000000000000
(1779054413.548183) can0 0000E011#0000000000000000
(1779054413.549182) can0 0000E012#0CD9000000000000
(1779054413.550202) can0 0000F001#0000000000000000
(1779054413.551182) can0 18FF28F4#10320000020E0000
(1779054413.552144) can0 18FE28F4#0CD90CD942420000
(1779054413.553177) can0 18FD28F4#1761FA6F00000000
(1779054413.554081) can0 4D4#000032007D0E0203
(1779054413.555062) can0 4D5#D90CD90C42420000
(1779054413.556147) can0 18914010#0CD9080CD9010000
(1779054413.557150) can0 18904010#020E020E753001FC
(1779054413.558168) can0 18FA28F4#713EA12C10270000
(1779054413.559153) can0 18FB28F4#D90CD90C42420000
(1779054413.560176) can0 18FC28F4#383200000E020000
(1779054413.561157) can0 18F810F3#0E02E80332640100
(1779054413.562190) can0 18F815F3#0000000010030000
(1779054413.563089) can0 273#000000000E023200
(1779054413.564076) can0 1E1#020E271001FC01FC
(1779054413.565100) can0 1F5#0000000000000000
(1779054413.566182) can0 0800A6A9#0000000000000000
(1779054413.567151) can0 1000A6A9#0E028813324C4C4C
(1779054413.568171) can0 1C00A6A9#0000000000030000
(1779054413.569190) can0 02018100#1003020E00000000
(1779054413.570197) can0 02028100#0000003264000000
(1779054413.571188) can0 02038100#0CD901080CD90101
(1779054413.572164) can0 02048100#4C01014C01010000
(1779054413.573050) can0 1AD#8E14000059321A1A
(1779054413.574063) can0 2AD#D90C800C8E140016
