(1779322634.806751) can0 0000E005#1702440003B60591
(1779322634.807322) can0 1806E5F4#13B3010003B6023A
(1779322634.808160) can0 0000E000#13B313B3020C0000
(1779322634.809166) can0 0000E004#181803B603B601DF
(1779322634.810119) can0 0000E006#0CCF0CCF0CCF0CCF
(1779322634.811128) can0 0000E007#0CCF0CCF0CCF0CCF
(1779322634.812124) can0 0000E008#0CCF0CCF0CCF0CCF
(1779322634.813104) can0 0000E009#0CCF0CCF0CCF0CCF
(1779322634.814163) can0 0000E010#0000000000000000
(1779322634.815155) can0 0000E011#0000000000000000
(1779322634.816125) can0 0000E012#0CCF000000000000
(1779322634.817188) can0 0000F001#0000000000000000
(1779322634.818153) can0 18FF28F4#10320000020C0000
(1779322634.819136) can0 18FE28F4#0CCF0CCF40400000
(1779322634.820153) can0 18FD28F4#1702FA6F00000000
(1779322634.821046) can0 4D4#000032007D0C0203
(1779322634.822037) can0 4D5#CF0CCF0C40400000
(1779322634.823131) can0 18914010#0CCF0A0CCF010000
(1779322634.824131) can0 18904010#020C020C753001F8
(1779322634.825177) can0 18FA28F4#123EA12C10270000
(1779322634.826128) can0 18FB28F4#CF0CCF0C40400000
(1779322634.827141) can0 18FC28F4#383200000C020000
(1779322634.828124) can0 18F810F3#0C02E80332640100
(1779322634.829153) can0 18F815F3#0000000010030000
(1779322634.830057) can0 273#000000000C023200
(1779322634.831051) can0 1E1#020C271001F801F8
(1779322634.832063) can0 1F5#0000000000000000
(1779322634.833191) can0 0800A6A9#0000000000000000
(1779322634.834119) can0 1000A6A9#0C028813324A4A4A
(1779322634.835147) can0 1C00A6A9#0000000000030000
(1779322634.836159) can0 02018100#1003020C00000000
(1779322634.837149) can0 02028100#0000003264000000
(1779322634.838143) can0 02038100#0CCF010A0CCF0101
(1779322634.839143) can0 02048100#4A01014A01010000
(1779322634.840035) can0 1AD#7E14000059321818
(1779322634.841083) can0 2AD#CF0C800C7E140016
(1779322634.842068) can0 3AD#0000000000007E14
(1779322634.843062) can0 4AD#EB00000000000000
(1779322634.844059) can0 76A#7F00000000000000
(1779322634.906737) can0 0000E005#1702440003B60591
(1779322634.907308) can0 1806E5F4#13B3010003B6023A
(1779322634.908141) can0 0000E000#13B313B3020C0000
(1779322634.909158) can0 0000E004#181803B603B601DF
(1779322634.910166) can0 0000E006#0CCF0CCF0CCF0CCF
(1779322634.911123) can0 0000E007#0CCF0CCF0CCF0CCF
(1779322634.912121) can0 0000E008#0CCF0CCF0CCF0CCF
(1779322634.913116) can0 0000E009#0CCF0CCF0CCF0CCF
(1779322634.914171) can0 0000E010#0000000000000000
(1779322634.915181) can0 0000E011#0000000000000000
(1779322634.916165) can0 0000E012#0CCF000000000000
(1779322634.917162) can0 0000F001#0000000000000000
(1779322634.918186) can0 18FF28F4#10320000020C0000
(1779322634.919143) can0 18FE28F4#0CCF0CCF40400000
(1779322634.920156) can0 18FD28F4#1702FA6F00000000
(1779322634.921043) can0 4D4#000032007D0C0203
(1779322634.922036) can0 4D5#CF0CCF0C40400000
(1779322634.923123) can0 18914010#0CCF090CCF010000
(1779322634.924117) can0 18904010#020C020C753001F8
(1779322634.925159) can0 18FA28F4#123EA12C10270000
(1779322634.926175) can0 18FB28F4#CF0CCF0C40400000
(1779322634.927138) can0 18FC28F4#383200000C020000
(1779322634.928145) can0 18F810F3#0C02E80332640100
(1779322634.929171) can0 18F815F3#0000000010030000
(1779322634.930054) can0 273#000000000C023200
(1779322634.931067) can0 1E1#020C271001F801F8
(1779322634.932075) can0 1F5#0000000000000000
(1779322634.933163) can0 0800A6A9#0000000000000000
(1779322634.934117) can0 1000A6A9#0C028813324A4A4A
(1779322634.935150) can0 1C00A6A9#0000000000030000
(1779322634.936162) can0 02018100#1003020C00000000
(1779322634.937167) can0 02028100#0000003264000000
(1779322634.938143) can0 02038100#0CCF01090CCF0101
(1779322634.939140) can0 02048100#4A01014A01010000
(1779322634.940046) can0 1AD#7E14000059321818
(1779322634.941034) can0 2AD#CF0C800C7E140016
(1779322634.942070) can0 3AD#0000000000007E14
(1779322634.943071) can0 4AD#EB00000000000000
(1779322634.944080) can0 76A#7F00000000000000
(1779322635.006707) can0 0000E005#1702440003B60591
(1779322635.007284) can0 1806E5F4#13B3010003B6023A
(1779322635.008148) can0 0000E000#13B313B3020C0000
(1779322635.009157) can0 0000E004#181803B603B601DF
(1779322635.010136) can0 0000E006#0CCF0CCF0CCF0CCF
(1779322635.011130) can0 0000E007#0CCF0CCF0CCF0CCF
(1779322635.012131) can0 0000E008#0CCF0CCF0CCF0CCF
(1779322635.013116) can0 0000E009#0CCF0CCF0CCF0CCF
(1779322635.014163) can0 0000E010#0000000000000000
(1779322635.015162) can0 0000E011#0000000000000000
(1779322635.016143) can0 0000E012#0CCF000000000000
(1779322635.017169) can0 0000F001#0000000000000000
(1779322635.018149) can0 18FF28F4#10320000020C0000
(1779322635.019117) can0 18FE28F4#0CCF0CCF40400000
(1779322635.020150) can0 18FD28F4#1702FA6F00000000
(1779322635.021060) can0 4D4#000032007D0C0203
(1779322635.022045) can0 4D5#CF0CCF0C40400000
(1779322635.023125) can0 18914010#0CCF090CCF010000
(1779322635.024129) can0 18904010#020C020C753001F8
(1779322635.025144) can0 18FA28F4#123EA12C10270000
(1779322635.026134) can0 18FB28F4#CF0CCF0C40400000
(1779322635.027150) can0 18FC28F4#383200000C020000
(1779322635.028131) can0 18F810F3#0C02E80332640100
(1779322635.029160) can0 18F815F3#0000000010030000
(1779322635.030067) can0 273#000000000C023200
(1779322635.031056) can0 1E1#020C271001F801F8
(1779322635.032078) can0 1F5#0000000000000000
(1779322635.033178) can0 0800A6A9#0000000000000000
(1779322635.034132) can0 1000A6A9#0C028813324A4A4A
(1779322635.035167) can0 1C00A6A9#0000000000030000
(1779322635.036172) can0 02018100#1003020C00000000
(1779322635.037172) can0 02028100#0000003264000000
(1779322635.038172) can0 02038100#0CCF01090CCF0101
(1779322635.039144) can0 02048100#4A01014A01010000
(1779322635.040062) can0 1AD#7E14000059321818
(1779322635.041037) can0 2AD#CF0C800C7E140016
(1779322635.042072) can0 3AD#0000000000007E14
(1779322635.043074) can0 4AD#EB00000000000000
(1779322635.044072) can0 76A#7F00000000000000
(1779322635.050062) can0 00000E00#00354C4331343233
(1779322635.123701) can0 0000E005#1702440003B60591
(1779322635.124279) can0 1806E5F4#13B3010003B6023A
(1779322635.125151) can0 0000E000#13B313B3020C0000
(1779322635.126137) can0 0000E004#181803B603B601DF
(1779322635.127106) can0 0000E006#0CCF0CCF0CCF0CCF
(1779322635.128093) can0 0000E007#0CCF0CCF0CCF0CCF
(1779322635.129094) can0 0000E008#0CCF0CCF0CCF0CCF
(1779322635.130100) can0 0000E009#0CCF0CCF0CCF0CD0
(1779322635.131160) can0 0000E010#0000000000000000
(1779322635.132140) can0 0000E011#0000000000000000
(1779322635.133166) can0 0000E012#0CCF000100000000
(1779322635.134101) can0 0000E013#4542323630354C43
(1779322635.135159) can0 0000E014#3134323300000000
(1779322635.136168) can0 0000E015#0000000000000003
(1779322635.137156) can0 0000F000#0000000000000000
(1779322635.138154) can0 0000F001#0000000000000000
(1779322635.139133) can0 18FF28F4#10320000020C0000
(1779322635.140111) can0 18FE28F4#0CD00CCF40400000
(1779322635.141161) can0 18FD28F4#1702FA6F00000000
(1779322635.142048) can0 4D4#000032007D0C0203
(1779322635.143037) can0 4D5#CF0CD00C40400000
(1779322635.144122) can0 18914010#0CD0100CCF010000
(1779322635.145126) can0 18904010#020C020C753001F8
(1779322635.146138) can0 18924010#4001400100000000
(1779322635.147118) can0 18934010#0000005E0000BB2C
(1779322635.148130) can0 18944010#1003000000000000
(1779322635.149191) can0 18954010#0000000000000000
(1779322635.150160) can0 18954010#0100000000000000
(1779322635.151146) can0 18954010#0200000000000000
(1779322635.152141) can0 18954010#0300000000000000
(1779322635.153139) can0 18954010#0400000000000000
(1779322635.154154) can0 18954010#0500000000000000
(1779322635.155138) can0 18964010#0040404000000000
(1779322635.156138) can0 18974010#0000000000000000
(1779322635.157150) can0 18984010#0000000000000000
(1779322635.158117) can0 18FA28F4#123EA12C10270000
(1779322635.159109) can0 18FB28F4#D00CCF0C40400000
(1779322635.160140) can0 18FC28F4#383200000C020000
(1779322635.161121) can0 18F810F3#0C02E80332640100
(1779322635.162116) can0 18F811F3#D00C1001CF0C0101
(1779322635.163126) can0 18F812F3#4001014001010000
(1779322635.164134) can0 18F813F3#0101000000000000
(1779322635.165118) can0 18F814F3#3200EA1AA9015F00
(1779322635.166138) can0 18F815F3#0000000010030000
(1779322635.167037) can0 273#000000000C023200
(1779322635.168029) can0 1E1#020C271001F801F8
(1779322635.169069) can0 1F5#0000000000000000
(1779322635.170152) can0 0800A6A9#0000000000000000
(1779322635.171117) can0 1000A6A9#0C028813324A4A4A
(1779322635.172154) can0 1C00A6A9#0000000000030000
(1779322635.173166) can0 02018100#1003020C00000000
(1779322635.174145) can0 02028100#0000003264000000
(1779322635.175158) can0 02038100#0CD001100CCF0101
(1779322635.176172) can0 02048100#4A01014A01010000
(1779322635.177024) can0 1AD#7E14000059321818
(1779322635.178025) can0 2AD#D00C800C7E140016
(1779322635.179037) can0 3AD#0000000000007E14
(1779322635.180031) can0 4AD#EB00000000000000
(1779322635.181050) can0 76A#7F00000000000000
(1779322635.239724) can0 0000E005#1702440003B60591
(1779322635.240283) can0 1806E5F4#13B3010003B6023A
(1779322635.241119) can0 0000E000#13B313B3020C0000
(1779322635.242131) can0 0000E004#181803B603B601DF
(1779322635.243098) can0 0000E006#0CCF0CCF0CCF0CCF
(1779322635.244092) can0 0000E007#0CCF0CCF0CCF0CCF
(1779322635.245091) can0 0000E008#0CCF0CCF0CCF0CCF
(1779322635.246092) can0 0000E009#0CCF0CCF0CCF0CD0
(1779322635.247137) can0 0000E010#0000000000000000
(1779322635.248138) can0 0000E011#0000000000000000
(1779322635.249118) can0 0000E012#0CCF000100000000
(1779322635.250150) can0 0000F001#0000000000000000
(1779322635.251119) can0 18FF28F4#10320000020C0000
(1779322635.252112) can0 18FE28F4#0CD00CCF40400000
(1779322635.253112) can0 18FD28F4#1702FA6F00000000
(1779322635.254029) can0 4D4#000032007D0C0203
(1779322635.255010) can0 4D5#CF0CD00C40400000
(1779322635.256105) can0 18914010#0CD0100CCF010000
(1779322635.257107) can0 18904010#020C020C753001F8
(1779322635.258119) can0 18FA28F4#123EA12C10270000
(1779322635.259100) can0 18FB28F4#D00CCF0C40400000
(1779322635.260112) can0 18FC28F4#383200000C020000
(1779322635.261100) can0 18F810F3#0C02E80332640100
(1779322635.262132) can0 18F815F3#0000000010030000
(1779322635.263029) can0 273#000000000C023200
(1779322635.264030) can0 1E1#020C271001F801F8
(1779322635.265043) can0 1F5#0000000000000000
(1779322635.266125) can0 0800A6A9#0000000000000000
(1779322635.267087) can0 1000A6A9#0C028813324A4A4A
(1779322635.268115) can0 1C00A6A9#0000000000030000
(1779322635.269133) can0 02018100#1003020C00000000
(1779322635.270133) can0 02028100#0000003264000000
(1779322635.271132) can0 02038100#0CD001100CCF0101
(1779322635.272104) can0 02048100#4A01014A01010000
(1779322635.273012) can0 1AD#7E14000059321818
(1779322635.274024) can0 2AD#D00C800C7E140016
(1779322635.275037) can0 3AD#0000000000007E14
(1779322635.276030) can0 4AD#EB00000000000000
(1779322635.277030) can0 76A#7F00000000000000
(1779322635.339728) can0 0000E005#1702440003B60591
(1779322635.340280) can0 1806E5F4#13B3010003B6023A
(1779322635.341114) can0 0000E000#13B313B3020C0000
(1779322635.342119) can0 0000E004#181803B603B601DF
(1779322635.343099) can0 0000E006#0CCF0CCF0CCF0CCF
(1779322635.344099) can0 0000E007#0CCF0CCF0CCF0CCF
(1779322635.345093) can0 0000E008#0CCF0CCF0CCF0CCF
(1779322635.346093) can0 0000E009#0CCF0CCF0CCF0CD0
(1779322635.347144) can0 0000E010#0000000000000000
(1779322635.348156) can0 0000E011#0000000000000000
(1779322635.349125) can0 0000E012#0CCF000100000000
(1779322635.350137) can0 0000F001#0000000000000000
(1779322635.351118) can0 18FF28F4#10320000020C0000
(1779322635.352099) can0 18FE28F4#0CD00CCF40400000
(1779322635.353112) can0 18FD28F4#1702FA6F00000000
(1779322635.354036) can0 4D4#000032007D0C0203
(1779322635.355016) can0 4D5#CF0CD00C40400000
(1779322635.356125) can0 18914010#0CD0100CCF010000
(1779322635.357104) can0 18904010#020C020C753001F8
(1779322635.358107) can0 18FA28F4#123EA12C10270000
(1779322635.359105) can0 18FB28F4#D00CCF0C40400000
(1779322635.360119) can0 18FC28F4#383200000C020000
(1779322635.361100) can0 18F810F3#0C02E80332640100
(1779322635.362132) can0 18F815F3#0000000010030000
(1779322635.363036) can0 273#000000000C023200
(1779322635.364068) can0 1E1#020C271001F801F8
(1779322635.365043) can0 1F5#0000000000000000
(1779322635.366125) can0 0800A6A9#0000000000000000
(1779322635.367094) can0 1000A6A9#0C028813324A4A4A
(1779322635.368120) can0 1C00A6A9#0000000000030000
(1779322635.369136) can0 02018100#1003020C00000000
(1779322635.370133) can0 02028100#0000003264000000
(1779322635.371113) can0 02038100#0CD001100CCF0101
(1779322635.372146) can0 02048100#4A01014A01010000
(1779322635.373012) can0 1AD#7E14000059321818
(1779322635.374024) can0 2AD#D00C800C7E140016
(1779322635.375037) can0 3AD#0000000000007E14
(1779322635.376036) can0 4AD#EB00000000000000
(1779322635.377030) can0 76A#7F00000000000000
(1779322635.439682) can0 0000E005#1702440003B60591
(1779322635.440289) can0 1806E5F4#13B3010003B6023A
(1779322635.441152) can0 0000E000#13B313B3020C0000
(1779322635.442114) can0 0000E004#181803B603B601DF
(1779322635.443099) can0 0000E006#0CCF0CCF0CCF0CCF
(1779322635.444093) can0 0000E007#0CCF0CCF0CCF0CCF
(1779322635.445094) can0 0000E008#0CCF0CCF0CCF0CCF
(1779322635.446092) can0 0000E009#0CCF0CCF0CCF0CD0
(1779322635.447137) can0 0000E010#0000000000000000
(1779322635.448138) can0 0000E011#0000000000000000
(1779322635.449169) can0 0000E012#0CCF000100000000
(1779322635.450132) can0 0000F001#0000000000000000
(1779322635.451118) can0 18FF28F4#10320000020C0000
(1779322635.452119) can0 18FE28F4#0CD00CCF40400000
(1779322635.453113) can0 18FD28F4#1702FA6F00000000
(1779322635.454026) can0 4D4#000032007D0C0203
(1779322635.455017) can0 4D5#CF0CD00C40400000
(1779322635.456112) can0 18914010#0CD0100CCF020000
(1779322635.457157) can0 18904010#020C020C753001F8
(1779322635.458106) can0 18FA28F4#123EA12C10270000
(1779322635.459107) can0 18FB28F4#D00CCF0C40400000
(1779322635.460119) can0 18FC28F4#383200000C020000
(1779322635.461100) can0 18F810F3#0C02E80332640100
(1779322635.462126) can0 18F815F3#0000000010030000
(1779322635.463036) can0 273#000000000C023200
(1779322635.464017) can0 1E1#020C271001F801F8
(1779322635.465050) can0 1F5#0000000000000000
(1779322635.466124) can0 0800A6A9#0000000000000000
(1779322635.467094) can0 1000A6A9#0C028813324A4A4A
(1779322635.468120) can0 1C00A6A9#0000000000030000
(1779322635.469139) can0 02018100#1003020C00000000
(1779322635.470132) can0 02028100#0000003264000000
(1779322635.471113) can0 02038100#0CD001100CCF0102
(1779322635.472114) can0 02048100#4A01014A01010000
(1779322635.473012) can0 1AD#7E14000059321818
(1779322635.474020) can0 2AD#D00C800C7E140016
(1779322635.475037) can0 3AD#0000000000007E14
(1779322635.476037) can0 4AD#EB00000000000000
(1779322635.477037) can0 76A#7F00000000000000
(1779322635.539735) can0 0000E005#1702440003B60591
(1779322635.540295) can0 1806E5F4#13B3010003B6023A
(1779322635.541119) can0 0000E000#13B313B3020C0000
(1779322635.542118) can0 0000E004#181803B603B601DF
(1779322635.543099) can0 0000E006#0CCF0CCF0CCF0CCF
(1779322635.544099) can0 0000E007#0CCF0CCF0CCF0CCF
(1779322635.545092) can0 0000E008#0CCF0CCF0CCF0CCF
(1779322635.546093) can0 0000E009#0CCF0CCF0CCF0CD0
(1779322635.547133) can0 0000E010#0000000000000000
(1779322635.548137) can0 0000E011#0000000000000000
(1779322635.549119) can0 0000E012#0CCF000100000000
(1779322635.550137) can0 0000F001#0000000000000000
(1779322635.551114) can0 18FF28F4#10320000020C0000
(1779322635.552099) can0 18FE28F4#0CD00CCF40400000
(1779322635.553113) can0 18FD28F4#1702FA6F00000000
(1779322635.554029) can0 4D4#000032007D0C0203
(1779322635.555010) can0 4D5#CF0CD00C40400000
(1779322635.556106) can0 18914010#0CD0100CCF020000
(1779322635.557106) can0 18904010#020C020C753001F8
(1779322635.558106) can0 18FA28F4#123EA12C10270000
(1779322635.559103) can0 18FB28F4#D00CCF0C40400000
(1779322635.560119) can0 18FC28F4#383200000C020000
(1779322635.561100) can0 18F810F3#0C02E80332640100
(1779322635.562131) can0 18F815F3#0000000010030000
(1779322635.563025) can0 273#000000000C023200
(1779322635.564017) can0 1E1#020C271001F801F8
(1779322635.565042) can0 1F5#0000000000000000
(1779322635.566126) can0 0800A6A9#0000000000000000
(1779322635.567088) can0 1000A6A9#0C028813324A4A4A
(1779322635.568120) can0 1C00A6A9#0000000000030000
(1779322635.569139) can0 02018100#1003020C00000000
(1779322635.570132) can0 02028100#0000003264000000
(1779322635.571112) can0 02038100#0CD001100CCF0102
(1779322635.572114) can0 02048100#4A01014A01010000
(1779322635.573012) can0 1AD#7E14000059321818
(1779322635.574025) can0 2AD#D00C800C7E140016
(1779322635.575033) can0 3AD#0000000000007E14
(1779322635.576037) can0 4AD#EB00000000000000
(1779322635.577031) can0 76A#7F00000000000000
(1779322635.656683) can0 0000E005#1702440003B60591
(1779322635.657231) can0 1806E5F4#13B3010003B6023A
(1779322635.658113) can0 0000E000#13B313B3020C0000
(1779322635.659112) can0 0000E004#181803B603B601DF
(1779322635.660093) can0 0000E006#0CCF0CCF0CCF0CCF
(1779322635.661094) can0 0000E007#0CCF0CCF0CCF0CCF
(1779322635.662093) can0 0000E008#0CCF0CCF0CCF0CCF
(1779322635.663075) can0 0000E009#0CCF0CCF0CCF0CCF
(1779322635.664170) can0 0000E010#0000000000000000
(1779322635.665129) can0 0000E011#0000000000000000
(1779322635.666119) can0 0000E012#0CCF000000000000
(1779322635.667081) can0 0000E013#4542323630354C43
(1779322635.668113) can0 0000E014#3134323300000000
(1779322635.669127) can0 0000E015#0000000000000003
(1779322635.670145) can0 0000F000#0000000000000000
(1779322635.671126) can0 0000F001#0000000000000000
(1779322635.672158) can0 18FF28F4#10320000020C0000
(1779322635.673087) can0 18FE28F4#0CCF0CCF40400000
(1779322635.674120) can0 18FD28F4#1702FA6F00000000
(1779322635.675025) can0 4D4#000032007D0C0203
(1779322635.676005) can0 4D5#CF0CCF0C40400000
(1779322635.677099) can0 18914010#0CCF010CCF020000
(1779322635.678095) can0 18904010#020C020C753001F8
(1779322635.679127) can0 18924010#4001400100000000
(1779322635.680146) can0 18934010#0000005F0000BB2C
(1779322635.681127) can0 18944010#1003000000000000
(1779322635.682140) can0 18954010#0000000000000000
(1779322635.683139) can0 18954010#0100000000000000
(1779322635.684133) can0 18954010#0200000000000000
(1779322635.685133) can0 18954010#0300000000000000
(1779322635.686134) can0 18954010#0400000000000000
(1779322635.687114) can0 18954010#0500000000000000
(1779322635.688178) can0 18964010#0040404000000000
(1779322635.689121) can0 18974010#0000000000000000
(1779322635.690121) can0 18984010#0000000000000000
(1779322635.691101) can0 18FA28F4#123EA12C10270000
(1779322635.692083) can0 18FB28F4#CF0CCF0C40400000
(1779322635.693115) can0 18FC28F4#383200000C020000
(1779322635.694096) can0 18F810F3#0C02E80332640100
(1779322635.695089) can0 18F811F3#CF0C0101CF0C0201
(1779322635.696103) can0 18F812F3#4001014001010000
(1779322635.697117) can0 18F813F3#0101000000000000
(1779322635.698096) can0 18F814F3#3200EA1AA9015F00
(1779322635.699127) can0 18F815F3#0000000010030000
(1779322635.700025) can0 273#000000000C023200
(1779322635.701023) can0 1E1#020C271001F801F8
(1779322635.702038) can0 1F5#0000000000000000
(1779322635.703115) can0 0800A6A9#0000000000000000
(1779322635.704083) can0 1000A6A9#0C028813324A4A4A
(1779322635.705115) can0 1C00A6A9#0000000000030000
(1779322635.706128) can0 02018100#1003020C00000000
(1779322635.707128) can0 02028100#0000003264000000
(1779322635.708109) can0 02038100#0CCF01010CCF0102
(1779322635.709103) can0 02048100#4A01014A01010000
(1779322635.710007) can0 1AD#7F14000059321818
(1779322635.711007) can0 2AD#CF0C800C7F140016
(1779322635.712020) can0 3AD#0000000000007F14
(1779322635.713035) can0 4AD#EB00000000000000
(1779322635.714033) can0 76A#7F00000000000000
(1779322635.772707) can0 0000E005#1702440003B60591
(1779322635.773311) can0 1806E5F4#13B3010003B6023A
(1779322635.774096) can0 0000E000#13B313B3020C0000
(1779322635.775114) can0 0000E004#181803B603B601DF
(1779322635.776076) can0 0000E006#0CCF0CCF0CCF0CCF
(1779322635.777095) can0 0000E007#0CCF0CCF0CCF0CCF
(1779322635.778084) can0 0000E008#0CCF0CCF0CCF0CCF
(1779322635.779075) can0 0000E009#0CCF0CCF0CCF0CCF
(1779322635.780133) can0 0000E010#0000000000000000
(1779322635.781133) can0 0000E011#0000000000000000
(1779322635.782114) can0 0000E012#0CCF000000000000
(1779322635.783134) can0 0000F001#0000000000000000
(1779322635.784114) can0 18FF28F4#10320000020C0000
(1779322635.785096) can0 18FE28F4#0CCF0CCF40400000
(1779322635.786108) can0 18FD28F4#1702FA6F00000000
(1779322635.787025) can0 4D4#000032007D0C0203
(1779322635.788005) can0 4D5#CF0CCF0C40400000
(1779322635.789101) can0 18914010#0CCF010CCF020000
(1779322635.790100) can0 18904010#020C020C753001F8
(1779322635.791102) can0 18FA28F4#123EA12C10270000
(1779322635.792083) can0 18FB28F4#CF0CCF0C40400000
(1779322635.793115) can0 18FC28F4#383200000C020000
(1779322635.794093) can0 18F810F3#0C02E80332640100
(1779322635.795128) can0 18F815F3#0000000010030000
(1779322635.796026) can0 273#000000000C023200
(1779322635.797006) can0 1E1#020C271001F801F8
(1779322635.798038) can0 1F5#0000000000000000
(1779322635.799121) can0 0800A6A9#0000000000000000
(1779322635.800083) can0 1000A6A9#0C028813324A4A4A
(1779322635.801115) can0 1C00A6A9#0000000000030000
(1779322635.802140) can0 02018100#1003020C00000000
(1779322635.803109) can0 02028100#0000003264000000
(1779322635.804096) can0 02038100#0CCF01010CCF0102
(1779322635.805109) can0 02048100#4A01014A01010000
(1779322635.806000) can0 1AD#7F14000059321818
(1779322635.807001) can0 2AD#CF0C800C7F140016
(1779322635.808033) can0 3AD#0000000000007F14
(1779322635.809027) can0 4AD#EB00000000000000
(1779322635.810040) can0 76A#7F00000000000000
(1779322635.872655) can0 0000E005#1702440003B60591
(1779322635.873212) can0 1806E5F4#13B3010003B6023A
(1779322635.874101) can0 0000E000#13B313B3020C0000
(1779322635.875107) can0 0000E004#181803B603B601DF
(1779322635.876082) can0 0000E006#0CCF0CCF0CCF0CCF
(1779322635.877075) can0 0000E007#0CCF0CCF0CCF0CCF
(1779322635.878075) can0 0000E008#0CCF0CCF0CCF0CCF
(1779322635.879085) can0 0000E009#0CCF0CCF0CCF0CCF
(1779322635.880139) can0 0000E010#0000000000000000
(1779322635.881121) can0 0000E011#0000000000000000
(1779322635.882120) can0 0000E012#0CCF000000000000
(1779322635.883133) can0 0000F001#0000000000000000
(1779322635.884114) can0 18FF28F4#10320000020C0000
(1779322635.885095) can0 18FE28F4#0CCF0CCF40400000
(1779322635.886115) can0 18FD28F4#1702FA6F00000000
(1779322635.887044) can0 4D4#000032007D0C0203
(1779322635.888012) can0 4D5#CF0CCF0C40400000
(1779322635.889090) can0 18914010#0CCF010CCF020000
(1779322635.890084) can0 18904010#020C020C753001F8
(1779322635.891102) can0 18FA28F4#123EA12C10270000
(1779322635.892090) can0 18FB28F4#CF0CCF0C40400000
(1779322635.893103) can0 18FC28F4#383200000C020000
(1779322635.894102) can0 18F810F3#0C02E80332640100
(1779322635.895147) can0 18F815F3#0000000010030000
(1779322635.896013) can0 273#000000000C023200
(1779322635.897014) can0 1E1#020C271001F801F8
(1779322635.898024) can0 1F5#0000000000000000
(1779322635.899122) can0 0800A6A9#0000000000000000
(1779322635.900070) can0 1000A6A9#0C028813324A4A4A
(1779322635.901103) can0 1C00A6A9#0000000000030000
(1779322635.902115) can0 02018100#1003020C00000000
(1779322635.903148) can0 02028100#0000003264000000
(1779322635.904096) can0 02038100#0CCF01010CCF0102
(1779322635.905110) can0 02048100#4A01014A01010000
(1779322635.905994) can0 1AD#7F14000059321818
(1779322635.906995) can0 2AD#CF0C800C7F140016
(1779322635.908020) can0 3AD#0000000000007F14
(1779322635.909032) can0 4AD#EB00000000000000
(1779322635.910025) can0 76A#7F00000000000000
(1779322635.972667) can0 0000E005#1702440003B60591
(1779322635.973219) can0 1806E5F4#13B3010003B6023A
(1779322635.974108) can0 0000E000#13B313B3020C0000
(1779322635.975102) can0 0000E004#181803B603B601DF
(1779322635.976088) can0 0000E006#0CCF0CCF0CCF0CCF
(1779322635.977089) can0 0000E007#0CCF0CCF0CCF0CCF
(1779322635.978083) can0 0000E008#0CCF0CCF0CCF0CCF
(1779322635.979069) can0 0000E009#0CCF0CCF0CCF0CCF
(1779322635.980166) can0 0000E010#0000000000000000
(1779322635.981127) can0 0000E011#0000000000000000
(1779322635.982114) can0 0000E012#0CCF000000000000
(1779322635.983120) can0 0000F001#0000000000000000
(1779322635.984108) can0 18FF28F4#10320000020C0000
(1779322635.985090) can0 18FE28F4#0CCF0CCF40400000
(1779322635.986109) can0 18FD28F4#1702FA6F00000000
(1779322635.987020) can0 4D4#000032007D0C0203
(1779322635.988051) can0 4D5#CF0CCF0C40400000
(1779322635.989083) can0 18914010#0CCF0A0CCF010000
(1779322635.990096) can0 18904010#020C020C753001F8
(1779322635.991097) can0 18FA28F4#123EA12C10270000
(1779322635.992077) can0 18FB28F4#CF0CCF0C40400000
(1779322635.993109) can0 18FC28F4#383200000C020000
(1779322635.994089) can0 18F810F3#0C02E80332640100
(1779322635.995116) can0 18F815F3#0000000010030000
(1779322635.996026) can0 273#000000000C023200
(1779322635.997020) can0 1E1#020C271001F801F8
(1779322635.998039) can0 1F5#0000000000000000
(1779322635.999113) can0 0800A6A9#0000000000000000
(1779322636.000083) can0 1000A6A9#0C028813324A4A4A
(1779322636.001116) can0 1C00A6A9#0000000000030000
(1779322636.002128) can0 02018100#1003020C00000000
(1779322636.003128) can0 02028100#0000003264000000
(1779322636.004090) can0 02038100#0CCF010A0CCF0101
(1779322636.005103) can0 02048100#4A01014A01010000
(1779322636.006007) can0 1AD#7E14000059321818
(1779322636.007000) can0 2AD#CF0C800C7E140016
(1779322636.008033) can0 3AD#0000000000007E14
(1779322636.009026) can0 4AD#EB00000000000000
(1779322636.010026) can0 76A#7F00000000000000
(1779322636.072705) can0 0000E005#1702440003B60591
(1779322636.073268) can0 1806E5F4#13B3010003B6023A
(1779322636.074101) can0 0000E000#13B313B3020C0000
(1779322636.075101) can0 0000E004#181803B603B601DF
(1779322636.076082) can0 0000E006#0CCF0CCF0CCF0CCF
(1779322636.077083) can0 0000E007#0CCF0CCF0CCF0CCF
(1779322636.078082) can0 0000E008#0CCF0CCF0CCF0CCF
(1779322636.079082) can0 0000E009#0CCF0CCF0CCF0CCF
(1779322636.080120) can0 0000E010#0000000000000000
(1779322636.081128) can0 0000E011#0000000000000000
(1779322636.082108) can0 0000E012#0CCF000000000000
(1779322636.083121) can0 0000F001#0000000000000000
(1779322636.084103) can0 18FF28F4#10320000020C0000
(1779322636.085090) can0 18FE28F4#0CCF0CCF40400000
(1779322636.086102) can0 18FD28F4#1702FA6F00000000
(1779322636.087018) can0 4D4#000032007D0C0203
(1779322636.088000) can0 4D5#CF0CCF0C40400000
(1779322636.089096) can0 18914010#0CCF0A0CCF010000
(1779322636.090096) can0 18904010#020C020C753001F8
(1779322636.091095) can0 18FA28F4#123EA12C10270000
(1779322636.092090) can0 18FB28F4#CF0CCF0C40400000
(1779322636.093110) can0 18FC28F4#383200000C020000
(1779322636.094090) can0 18F810F3#0C02E80332640100
(1779322636.095121) can0 18F815F3#0000000010030000
(1779322636.096018) can0 273#000000000C023200
(1779322636.097020) can0 1E1#020C271001F801F8
(1779322636.098033) can0 1F5#0000000000000000
(1779322636.099116) can0 0800A6A9#0000000000000000
(1779322636.100083) can0 1000A6A9#0C028813324A4A4A
(1779322636.101110) can0 1C00A6A9#0000000000030000
(1779322636.102128) can0 02018100#1003020C00000000
(1779322636.103122) can0 02028100#0000003264000000
(1779322636.104085) can0 02038100#0CCF010A0CCF0101
(1779322636.105103) can0 02048100#4A01014A01010000
(1779322636.105989) can0 1AD#7E14000059321818
(1779322636.107002) can0 2AD#CF0C800C7E140016
(1779322636.108012) can0 3AD#0000000000007E14
(1779322636.109027) can0 4AD#EB00000000000000
(1779322636.110040) can0 76A#7F00000000000000
(1779322636.189719) can0 0000E005#1702440003B60591
(1779322636.190279) can0 1806E5F4#13B3010003B6023A
(1779322636.191097) can0 0000E000#13B313B3020C0000
(1779322636.192108) can0 0000E004#181803B603B601DF
(1779322636.193070) can0 0000E006#0CCF0CCF0CCF0CCF
(1779322636.194067) can0 0000E007#0CCF0CCF0CCF0CCF
(1779322636.195103) can0 0000E008#0CCF0CCF0CCF0CCF
(1779322636.196070) can0 0000E009#0CCF0CCF0CCF0CD0
(1779322636.197134) can0 0000E010#0000000000000000
(1779322636.198108) can0 0000E011#0000000000000000
(1779322636.199109) can0 0000E012#0CCF000100000000
(1779322636.200077) can0 0000E013#4542323630354C43
(1779322636.201091) can0 0000E014#3134323300000000
(1779322636.202122) can0 0000E015#0000000000000003
(1779322636.203155) can0 0000F000#0000000000000000
(1779322636.204122) can0 0000F001#0000000000000000
(1779322636.205103) can0 18FF28F4#10320000020C0000
(1779322636.206082) can0 18FE28F4#0CD00CCF40400000
(1779322636.207097) can0 18FD28F4#1702FA6F00000000
(1779322636.208014) can0 4D4#000032007D0C0203
(1779322636.209001) can0 4D5#CF0CD00C40400000
(1779322636.210086) can0 18914010#0CD0100CCF020000
(1779322636.211123) can0 18904010#020C020C753001F8
(1779322636.212103) can0 18924010#4001400100000000
(1779322636.213091) can0 18934010#000000600000BB2C
(1779322636.214104) can0 18944010#1003000000000000
(1779322636.215135) can0 18954010#0000000000000000
(1779322636.216135) can0 18954010#0100000000000000
(1779322636.217117) can0 18954010#0200000000000000
(1779322636.218106) can0 18954010#0300000000000000
(1779322636.219161) can0 18954010#0400000000000000
(1779322636.220111) can0 18954010#0500000000000000
(1779322636.221111) can0 18964010#0040404000000000
(1779322636.222121) can0 18974010#0000000000000000
(1779322636.223117) can0 18984010#0000000000000000
(1779322636.224085) can0 18FA28F4#123EA12C10270000
(1779322636.225082) can0 18FB28F4#D00CCF0C40400000
(1779322636.226094) can0 18FC28F4#383200000C020000
(1779322636.227093) can0 18F810F3#0C02E80332640100
(1779322636.228086) can0 18F811F3#D00C1001CF0C0201
(1779322636.229105) can0 18F812F3#4001014001010000
(1779322636.230113) can0 18F813F3#0101000000000000
(1779322636.231097) can0 18F814F3#3200EA1AA9015F00
(1779322636.232111) can0 18F815F3#0000000010030000
(1779322636.233009) can0 273#000000000C023200
(1779322636.234005) can0 1E1#020C271001F801F8
(1779322636.235022) can0 1F5#0000000000000000
(1779322636.236111) can0 0800A6A9#0000000000000000
(1779322636.237067) can0 1000A6A9#0C028813324A4A4A
(1779322636.238111) can0 1C00A6A9#0000000000030000
(1779322636.239112) can0 02018100#1003020C00000000
(1779322636.240106) can0 02028100#0000003264000000
(1779322636.241093) can0 02038100#0CD001100CCF0102
(1779322636.242084) can0 02048100#4A01014A01010000
(1779322636.242991) can0 1AD#7E14000059321818
(1779322636.244003) can0 2AD#D00C800C7E140016
(1779322636.245023) can0 3AD#0000000000007E14
(1779322636.246014) can0 4AD#EB00000000000000
(1779322636.247016) can0 76A#7F00000000000000
(1779322636.305650) can0 0000E005#1702440003B60591
(1779322636.306206) can0 1806E5F4#13B3010003B6023A
(1779322636.307091) can0 0000E000#13B313B3020C0000
(1779322636.308103) can0 0000E004#181803B603B601DF
(1779322636.309072) can0 0000E006#0CCF0CCF0CCF0CCF
(1779322636.310072) can0 0000E007#0CCF0CCF0CCF0CCF
(1779322636.311066) can0 0000E008#0CCF0CCF0CCF0CCF
(1779322636.312065) can0 0000E009#0CCF0CCF0CCF0CD0
(1779322636.313129) can0 0000E010#0000000000000000
(1779322636.314110) can0 0000E011#0000000000000000
(1779322636.315108) can0 0000E012#0CCF000100000000
(1779322636.316123) can0 0000F001#0000000000000000
(1779322636.317110) can0 18FF28F4#10320000020C0000
(1779322636.318091) can0 18FE28F4#0CD00CCF40400000
(1779322636.319103) can0 18FD28F4#1702FA6F00000000
(1779322636.320008) can0 4D4#000032007D0C0203
(1779322636.321002) can0 4D5#CF0CD00C40400000
(1779322636.322085) can0 18914010#0CD0100CCF020000
(1779322636.323075) can0 18904010#020C020C753001F8
(1779322636.324097) can0 18FA28F4#123EA12C10270000
(1779322636.325078) can0 18FB28F4#D00CCF0C40400000
(1779322636.326092) can0 18FC28F4#383200000C020000
(1779322636.327090) can0 18F810F3#0C02E80332640100
(1779322636.328124) can0 18F815F3#0000000010030000
(1779322636.329009) can0 273#000000000C023200
(1779322636.330002) can0 1E1#020C271001F801F8
(1779322636.331022) can0 1F5#0000000000000000
(1779322636.332118) can0 0800A6A9#0000000000000000
(1779322636.333079) can0 1000A6A9#0C028813324A4A4A
(1779322636.334092) can0 1C00A6A9#0000000000030000
(1779322636.335106) can0 02018100#1003020C00000000
(1779322636.336105) can0 02028100#0000003264000000
(1779322636.337092) can0 02038100#0CD001100CCF0102
(1779322636.338105) can0 02048100#4A01014A01010000
(1779322636.338982) can0 1AD#7E14000059321818
(1779322636.339997) can0 2AD#D00C800C7E140016
(1779322636.341029) can0 3AD#0000000000007E14
(1779322636.342029) can0 4AD#EB00000000000000
(1779322636.343022) can0 76A#7F00000000000000
(1779322636.405657) can0 0000E005#1702440003B60591
(1779322636.406213) can0 1806E5F4#13B3010003B6023A
(1779322636.407098) can0 0000E000#13B313B3020C0000
(1779322636.408088) can0 0000E004#181803B603B601DF
(1779322636.409078) can0 0000E006#0CCF0CCF0CCF0CCF
(1779322636.410077) can0 0000E007#0CCF0CCF0CCF0CCF
(1779322636.411071) can0 0000E008#0CCF0CCF0CCF0CCF
(1779322636.412069) can0 0000E009#0CCF0CCF0CCF0CD0
(1779322636.413116) can0 0000E010#0000000000000000
(1779322636.414116) can0 0000E011#0000000000000000
(1779322636.415097) can0 0000E012#0CCF000100000000
(1779322636.416116) can0 0000F001#0000000000000000
(1779322636.417098) can0 18FF28F4#10320000020C0000
(1779322636.418110) can0 18FE28F4#0CD00CCF40400000
(1779322636.419091) can0 18FD28F4#1702FA6F00000000
(1779322636.420004) can0 4D4#000032007D0C0203
(1779322636.420996) can0 4D5#CF0CD00C40400000
(1779322636.422091) can0 18914010#0CD0100CCF020000
(1779322636.423086) can0 18904010#020C020C753001F8
(1779322636.424079) can0 18FA28F4#123EA12C10270000
(1779322636.425085) can0 18FB28F4#D00CCF0C40400000
(1779322636.426117) can0 18FC28F4#383200000C020000
(1779322636.427079) can0 18F810F3#0C02E80332640100
(1779322636.428110) can0 18F815F3#0000000010030000
(1779322636.429015) can0 273#000000000C023200
(1779322636.430008) can0 1E1#020C271001F801F8
(1779322636.431027) can0 1F5#0000000000000000
(1779322636.432097) can0 0800A6A9#0000000000000000
(1779322636.433073) can0 1000A6A9#0C028813324A4A4A
(1779322636.434130) can0 1C00A6A9#0000000000030000
(1779322636.435117) can0 02018100#1003020C00000000
(1779322636.436111) can0 02028100#0000003264000000
(1779322636.437093) can0 02038100#0CD001100CCF0102
(1779322636.438092) can0 02048100#4A01014A01010000
(1779322636.438990) can0 1AD#7E14000059321818
(1779322636.440002) can0 2AD#D00C800C7E140016
(1779322636.441016) can0 3AD#0000000000007E14
(1779322636.442048) can0 4AD#EB00000000000000
(1779322636.443009) can0 76A#7F00000000000000
(1779322636.505683) can0 0000E005#1702440003B60591
(1779322636.506240) can0 1806E5F4#13B3010003B6023A
(1779322636.507090) can0 0000E000#13B313B3020C0000
(1779322636.508109) can0 0000E004#181803B603B601DF
(1779322636.509068) can0 0000E006#0CCF0CCF0CCF0CCF
(1779322636.510071) can0 0000E007#0CCF0CCF0CCF0CCF
(1779322636.511103) can0 0000E008#0CCF0CCF0CCF0CCF
(1779322636.512071) can0 0000E009#0CCF0CCF0CCF0CD0
(1779322636.513116) can0 0000E010#0000000000000000
(1779322636.514117) can0 0000E011#0000000000000000
(1779322636.515098) can0 0000E012#0CCF000100000000
(1779322636.516110) can0 0000F001#0000000000000000
(1779322636.517091) can0 18FF28F4#10320000020C0000
(1779322636.518102) can0 18FE28F4#0CD00CCF40400000
(1779322636.519144) can0 18FD28F4#1702FA6F00000000
(1779322636.520002) can0 4D4#000032007D0C0203
(1779322636.520991) can0 4D5#CF0CD00C40400000
(1779322636.522093) can0 18914010#0CD0100CCF010000
(1779322636.523087) can0 18904010#020C020C753001F8
(1779322636.524086) can0 18FA28F4#123EA12C10270000
(1779322636.525079) can0 18FB28F4#D00CCF0C40400000
(1779322636.526098) can0 18FC28F4#383200000C020000
(1779322636.527124) can0 18F810F3#0C02E80332640100
(1779322636.528103) can0 18F815F3#0000000010030000
(1779322636.529009) can0 273#000000000C023200
(1779322636.530011) can0 1E1#020C271001F801F8
(1779322636.531024) can0 1F5#0000000000000000
(1779322636.532102) can0 0800A6A9#0000000000000000
(1779322636.533067) can0 1000A6A9#0C028813324A4A4A
(1779322636.534099) can0 1C00A6A9#0000000000030000
(1779322636.535111) can0 02018100#1003020C00000000
(1779322636.536111) can0 02028100#0000003264000000
(1779322636.537092) can0 02038100#0CD001100CCF0101
(1779322636.538092) can0 02048100#4A01014A01010000
(1779322636.538990) can0 1AD#7E14000059321818
(1779322636.539997) can0 2AD#D00C800C7E140016
(1779322636.541016) can0 3AD#0000000000007E14
(1779322636.542016) can0 4AD#EB00000000000000
(1779322636.543009) can0 76A#7F00000000000000
(1779322636.605638) can0 0000E005#1702440003B60591
(1779322636.606202) can0 1806E5F4#13B3010003B6023A
(1779322636.607084) can0 0000E000#13B313B3020C0000
(1779322636.608103) can0 0000E004#181803B603B601DF
(1779322636.609065) can0 0000E006#0CCF0CCF0CCF0CCF
(1779322636.610065) can0 0000E007#0CCF0CCF0CCF0CCF
(1779322636.611065) can0 0000E008#0CCF0CCF0CCF0CCF
(1779322636.612059) can0 0000E009#0CCF0CCF0CCF0CD0
(1779322636.613109) can0 0000E010#0000000000000000
(1779322636.614105) can0 0000E011#0000000000000000
(1779322636.615104) can0 0000E012#0CCF000100000000
(1779322636.616116) can0 0000F001#0000000000000000
(1779322636.617098) can0 18FF28F4#10320000020C0000
(1779322636.618085) can0 18FE28F4#0CD00CCF40400000
(1779322636.619097) can0 18FD28F4#1702FA6F00000000
(1779322636.620002) can0 4D4#000032007D0C0203
(1779322636.620996) can0 4D5#CF0CD00C40400000
(1779322636.622091) can0 18914010#0CD0100CCF010000
(1779322636.623080) can0 18904010#020C020C753001F8
(1779322636.624093) can0 18FA28F4#123EA12C10270000
(1779322636.625071) can0 18FB28F4#D00CCF0C40400000
(1779322636.626086) can0 18FC28F4#383200000C020000
(1779322636.627066) can0 18F810F3#0C02E80332640100
(1779322636.628099) can0 18F815F3#0000000010030000
(1779322636.629001) can0 273#000000000C023200
(1779322636.630003) can0 1E1#020C271001F801F8
(1779322636.631015) can0 1F5#0000000000000000
(1779322636.632111) can0 0800A6A9#0000000000000000
(1779322636.633073) can0 1000A6A9#0C028813324A4A4A
(1779322636.634092) can0 1C00A6A9#0000000000030000
(1779322636.635104) can0 02018100#1003020C00000000
(1779322636.636105) can0 02028100#0000003264000000
(1779322636.637079) can0 02038100#0CD001100CCF0101
(1779322636.638079) can0 02048100#4A01014A01010000
(1779322636.638983) can0 1AD#7E14000059321818
(1779322636.639996) can0 2AD#D00C800C7E140016
(1779322636.641016) can0 3AD#0000000000007E14
(1779322636.642004) can0 4AD#EB00000000000000
(1779322636.643016) can0 76A#7F00000000000000
(1779322636.722658) can0 0000E005#1702440003B60591
(1779322636.723214) can0 1806E5F4#13B3010003B6023A
(1779322636.724078) can0 0000E000#13B313B3020C0000
(1779322636.725097) can0 0000E004#181803B603B601DF
(1779322636.726094) can0 0000E006#0CCF0CCF0CCF0CCF
(1779322636.727057) can0 0000E007#0CCF0CCF0CCF0CCF
(1779322636.728060) can0 0000E008#0CCF0CCF0CCF0CCF
(1779322636.729060) can0 0000E009#0CCF0CCF0CCF0CCF
(1779322636.730117) can0 0000E010#0000000000000000
(1779322636.731098) can0 0000E011#0000000000000000
(1779322636.732099) can0 0000E012#0CCF000000000000
(1779322636.733066) can0 0000E013#4542323630354C43
(1779322636.734111) can0 0000E014#3134323300000000
(1779322636.735112) can0 0000E015#0000000000000003
(1779322636.736111) can0 0000F000#0000000000000000
(1779322636.737112) can0 0000F001#0000000000000000
(1779322636.738093) can0 18FF28F4#10320000020C0000
(1779322636.739071) can0 18FE28F4#0CCF0CCF40400000
(1779322636.740086) can0 18FD28F4#1702FA6F00000000
(1779322636.741003) can0 4D4#000032007D0C0203
(1779322636.742022) can0 4D5#CF0CCF0C40400000
(1779322636.743082) can0 18914010#0CCF080CCF010000
(1779322636.744080) can0 18904010#020C020C753001F8
(1779322636.745099) can0 18924010#4001400100000000
(1779322636.746081) can0 18934010#000000610000BB2C
(1779322636.747093) can0 18944010#1003000000000000
(1779322636.748125) can0 18954010#0000000000000000
(1779322636.749106) can0 18954010#0100000000000000
(1779322636.750150) can0 18954010#0200000000000000
(1779322636.751101) can0 18954010#0300000000000000
(1779322636.752100) can0 18954010#0400000000000000
(1779322636.753100) can0 18954010#0500000000000000
(1779322636.754100) can0 18964010#0040404000000000
(1779322636.755110) can0 18974010#0000000000000000
(1779322636.756106) can0 18984010#0000000000000000
(1779322636.757075) can0 18FA28F4#123EA12C10270000
(1779322636.758119) can0 18FB28F4#CF0CCF0C40400000
(1779322636.759081) can0 18FC28F4#383200000C020000
(1779322636.760080) can0 18F810F3#0C02E80332640100
(1779322636.761081) can0 18F811F3#CF0C0801CF0C0101
(1779322636.762094) can0 18F812F3#4001014001010000
(1779322636.763101) can0 18F813F3#0101000000000000
(1779322636.764088) can0 18F814F3#3200EA1AA9015F00
(1779322636.765101) can0 18F815F3#0000000010030000
(1779322636.765998) can0 273#000000000C023200
(1779322636.766994) can0 1E1#020C271001F801F8
(1779322636.768024) can0 1F5#0000000000000000
(1779322636.769101) can0 0800A6A9#0000000000000000
(1779322636.770069) can0 1000A6A9#0C028813324A4A4A
(1779322636.771100) can0 1C00A6A9#0000000000030000
(1779322636.772101) can0 02018100#1003020C00000000
(1779322636.773094) can0 02028100#0000003264000000
(1779322636.774082) can0 02038100#0CCF01080CCF0101
(1779322636.775088) can0 02048100#4A01014A01010000
(1779322636.775980) can0 1AD#7E14000059321818
(1779322636.776980) can0 2AD#CF0C800C7E140016
(1779322636.778005) can0 3AD#0000000000007E14
(1779322636.779003) can0 4AD#EB00000000000000
(1779322636.780005) can0 76A#7F00000000000000
(1779322636.838651) can0 0000E005#1702440003B60591
(1779322636.839204) can0 1806E5F4#13B3010003B6023A
(1779322636.840088) can0 0000E000#13B313B3020C0000
(1779322636.841088) can0 0000E004#181803B603B601DF
(1779322636.842069) can0 0000E006#0CCF0CCF0CCF0CCF
(1779322636.843069) can0 0000E007#0CCF0CCF0CCF0CCF
(1779322636.844066) can0 0000E008#0CCF0CCF0CCF0CCF
(1779322636.845069) can0 0000E009#0CCF0CCF0CCF0CCF
(1779322636.846113) can0 0000E010#0000000000000000
(1779322636.847113) can0 0000E011#0000000000000000
(1779322636.848087) can0 0000E012#0CCF000000000000
(1779322636.849108) can0 0000F001#0000000000000000
(1779322636.850094) can0 18FF28F4#10320000020C0000
(1779322636.851075) can0 18FE28F4#0CCF0CCF40400000
(1779322636.852088) can0 18FD28F4#1702FA6F00000000
(1779322636.853005) can0 4D4#000032007D0C0203
(1779322636.853986) can0 4D5#CF0CCF0C40400000
(1779322636.855082) can0 18914010#0CCF080CCF010000
(1779322636.856075) can0 18904010#020C020C753001F8
(1779322636.857082) can0 18FA28F4#123EA12C10270000
(1779322636.858063) can0 18FB28F4#CF0CCF0C40400000
(1779322636.859096) can0 18FC28F4#383200000C020000
(1779322636.860074) can0 18F810F3#0C02E80332640100
(1779322636.861109) can0 18F815F3#0000000010030000
(1779322636.862005) can0 273#000000000C023200
(1779322636.862993) can0 1E1#020C271001F801F8
(1779322636.864019) can0 1F5#0000000000000000
(1779322636.865102) can0 0800A6A9#0000000000000000
(1779322636.866064) can0 1000A6A9#0C028813324A4A4A
(1779322636.867096) can0 1C00A6A9#0000000000030000
(1779322636.868105) can0 02018100#1003020C00000000
(1779322636.869096) can0 02028100#0000003264000000
(1779322636.870077) can0 02038100#0CCF01080CCF0101
(1779322636.871090) can0 02048100#4A01014A01010000
(1779322636.871988) can0 1AD#7E14000059321818
(1779322636.872989) can0 2AD#CF0C800C7E140016
(1779322636.874020) can0 3AD#0000000000007E14
(1779322636.875014) can0 4AD#EB00000000000000
(1779322636.876013) can0 76A#7F00000000000000
(1779322636.938692) can0 0000E005#1702440003B60591
(1779322636.939248) can0 1806E5F4#13B3010003B6023A
(1779322636.940088) can0 0000E000#13B313B3020C0000
(1779322636.941096) can0 0000E004#181803B603B601DF
(1779322636.942069) can0 0000E006#0CCF0CCF0CCF0CCF
(1779322636.943069) can0 0000E007#0CCF0CCF0CCF0CCF
(1779322636.944062) can0 0000E008#0CCF0CCF0CCF0CCF
(1779322636.945058) can0 0000E009#0CCF0CCF0CCF0CCF
(1779322636.946108) can0 0000E010#0000000000000000
(1779322636.947107) can0 0000E011#0000000000000000
(1779322636.948088) can0 0000E012#0CCF000000000000
(1779322636.949121) can0 0000F001#0000000000000000
(1779322636.950088) can0 18FF28F4#10320000020C0000
(1779322636.951069) can0 18FE28F4#0CCF0CCF40400000
(1779322636.952082) can0 18FD28F4#1702FA6F00000000
(1779322636.952997) can0 4D4#000032007D0C0203
(1779322636.953980) can0 4D5#CF0CCF0C40400000
(1779322636.955076) can0 18914010#0CCF080CCF010000
(1779322636.956076) can0 18904010#020C020C753001F8
(1779322636.957103) can0 18FA28F4#123EA12C10270000
(1779322636.958076) can0 18FB28F4#CF0CCF0C40400000
(1779322636.959089) can0 18FC28F4#383200000C020000
(1779322636.960070) can0 18F810F3#0C02E80332640100
(1779322636.961102) can0 18F815F3#0000000010030000
(1779322636.962000) can0 273#000000000C023200
(1779322636.963000) can0 1E1#020C271001F801F8
(1779322636.964012) can0 1F5#0000000000000000
(1779322636.965119) can0 0800A6A9#0000000000000000
(1779322636.966057) can0 1000A6A9#0C028813324A4A4A
(1779322636.967089) can0 1C00A6A9#0000000000030000
(1779322636.968102) can0 02018100#1003020C00000000
(1779322636.969098) can0 02028100#0000003264000000
(1779322636.970083) can0 02038100#0CCF01080CCF0101
(1779322636.971083) can0 02048100#4A01014A01010000
(1779322636.971981) can0 1AD#7E14000059321818
(1779322636.973026) can0 2AD#CF0C800C7E140016
(1779322636.974007) can0 3AD#0000000000007E14
(1779322636.975006) can0 4AD#EB00000000000000
(1779322636.976001) can0 76A#7F00000000000000
(1779322637.038655) can0 0000E005#1702440003B60591
(1779322637.039216) can0 1806E5F4#13B3010003B6023A
(1779322637.040082) can0 0000E000#13B313B3020C0000
(1779322637.041082) can0 0000E004#181803B603B601DF
(1779322637.042092) can0 0000E006#0CCF0CCF0CCF0CCF
(1779322637.043063) can0 0000E007#0CCF0CCF0CCF0CCF
(1779322637.044063) can0 0000E008#0CCF0CCF0CCF0CCF
(1779322637.045057) can0 0000E009#0CCF0CCF0CCF0CD0
(1779322637.046107) can0 0000E010#0000000000000000
(1779322637.047107) can0 0000E011#0000000000000000
(1779322637.048088) can0 0000E012#0CCF000100000000
(1779322637.049101) can0 0000F001#0000000000000000
(1779322637.050126) can0 18FF28F4#10320000020C0000
(1779322637.051083) can0 18FE28F4#0CD00CCF40400000
(1779322637.052082) can0 18FD28F4#1702FA6F00000000
(1779322637.053000) can0 4D4#000032007D0C0203
(1779322637.053974) can0 4D5#CF0CD00C40400000
(1779322637.055076) can0 18914010#0CD0100CCF010000
(1779322637.056076) can0 18904010#020C020C753001F8
(1779322637.057090) can0 18FA28F4#123EA12C10270000
(1779322637.058120) can0 18FB28F4#D00CCF0C40400000
(1779322637.059083) can0 18FC28F4#383200000C020000
(1779322637.060071) can0 18F810F3#0C02E80332640100
(1779322637.061096) can0 18F815F3#0000000010030000
(1779322637.061996) can0 273#000000000C023200
(1779322637.063000) can0 1E1#020C271001F801F8
(1779322637.064012) can0 1F5#0000000000000000
(1779322637.065090) can0 0800A6A9#0000000000000000
(1779322637.066056) can0 1000A6A9#0C028813324A4A4A
(1779322637.067089) can0 1C00A6A9#0000000000030000
(1779322637.068102) can0 02018100#1003020C00000000
(1779322637.069103) can0 02028100#0000003264000000
(1779322637.070083) can0 02038100#0CD001100CCF0101
(1779322637.071076) can0 02048100#4A01014A01010000
(1779322637.071981) can0 1AD#7F14000059321818
(1779322637.072995) can0 2AD#D00C800C7F140016
(1779322637.074005) can0 3AD#0000000000007F14
(1779322637.075001) can0 4AD#EB00000000000000
(1779322637.076001) can0 76A#7F00000000000000
(1779322637.138652) can0 0000E005#1702440003B60591
(1779322637.139204) can0 1806E5F4#13B3010003B6023A
(1779322637.140088) can0 0000E000#13B313B3020C0000
(1779322637.141087) can0 0000E004#181803B603B601DF
(1779322637.142069) can0 0000E006#0CCF0CCF0CCF0CCF
(1779322637.143063) can0 0000E007#0CCF0CCF0CCF0CCF
(1779322637.144062) can0 0000E008#0CCF0CCF0CCF0CCF
(1779322637.145064) can0 0000E009#0CCF0CCF0CCF0CD0
(1779322637.146108) can0 0000E010#0000000000000000
(1779322637.147100) can0 0000E011#0000000000000000
(1779322637.148088) can0 0000E012#0CCF000100000000
(1779322637.149102) can0 0000F001#0000000000000000
(1779322637.150089) can0 18FF28F4#10320000020C0000
(1779322637.151069) can0 18FE28F4#0CD00CCF40400000
(1779322637.152083) can0 18FD28F4#1702FA6F00000000
(1779322637.153000) can0 4D4#000032007D0C0203
(1779322637.153980) can0 4D5#CF0CD00C40400000
(1779322637.155076) can0 18914010#0CD0100CCF010000
(1779322637.156076) can0 18904010#020C020C753001F8
(1779322637.157076) can0 18FA28F4#123EA12C10270000
(1779322637.158071) can0 18FB28F4#D00CCF0C40400000
(1779322637.159089) can0 18FC28F4#383200000C020000
(1779322637.160070) can0 18F810F3#0C02E80332640100
(1779322637.161102) can0 18F815F3#0000000010030000
(1779322637.161995) can0 273#000000000C023200
(1779322637.163000) can0 1E1#020C271001F801F8
(1779322637.164013) can0 1F5#0000000000000000
(1779322637.165096) can0 0800A6A9#0000000000000000
(1779322637.166058) can0 1000A6A9#0C028813324A4A4A
(1779322637.167090) can0 1C00A6A9#0000000000030000
(1779322637.168103) can0 02018100#1003020C00000000
(1779322637.169102) can0 02028100#0000003264000000
(1779322637.170080) can0 02038100#0CD001100CCF0101
(1779322637.171083) can0 02048100#4A01014A01010000
(1779322637.171981) can0 1AD#7F14000059321818
(1779322637.172995) can0 2AD#D00C800C7F140016
(1779322637.174001) can0 3AD#0000000000007F14
(1779322637.175006) can0 4AD#EB00000000000000
(1779322637.176001) can0 76A#7F00000000000000
(1779322637.255647) can0 0000E005#1702440003B60591
(1779322637.256202) can0 1806E5F4#13B3010003B6023A
(1779322637.257103) can0 0000E000#13B313B3020C0000
(1779322637.258083) can0 0000E004#181803B603B601DF
(1779322637.259063) can0 0000E006#0CCF0CCF0CCF0CCF
(1779322637.260055) can0 0000E007#0CCF0CCF0CCF0CCF
(1779322637.261070) can0 0000E008#0CCF0CCF0CCF0CCF
(1779322637.262058) can0 0000E009#0CCF0CCF0CCF0CD0
(1779322637.263113) can0 0000E010#0000000000000000
(1779322637.264106) can0 0000E011#0000000000000000
(1779322637.265127) can0 0000E012#0CCF000100000000
(1779322637.266055) can0 0000E013#4542323630354C43
(1779322637.267088) can0 0000E014#3134323300000000
(1779322637.268101) can0 0000E015#0000000000000003
(1779322637.269121) can0 0000F000#0000000000000000
(1779322637.270101) can0 0000F001#0000000000000000
(1779322637.271101) can0 18FF28F4#10320000020C0000
(1779322637.272076) can0 18FE28F4#0CD00CCF40400000
(1779322637.273114) can0 18FD28F4#1702FA6F00000000
(1779322637.273999) can0 4D4#000032007D0C0203
(1779322637.274993) can0 4D5#CF0CD00C40400000
(1779322637.276074) can0 18914010#0CD0100CCF020000
(1779322637.277069) can0 18904010#020C020C753001F8
(1779322637.278088) can0 18924010#4001400100000000
(1779322637.279088) can0 18934010#000000620000BB2C
