(1779322320.083997) can0 0000E005#1702440003B60591
(1779322320.084538) can0 1806E5F4#13C9010003B6023A
(1779322320.085366) can0 0000E000#13C913C9020D0000
(1779322320.086358) can0 0000E004#181803B603B601E1
(1779322320.087346) can0 0000E006#0CD30CD30CD20CD2
(1779322320.088342) can0 0000E007#0CD20CD20CD30CD3
(1779322320.089359) can0 0000E008#0CD30CD30CD20CD2
(1779322320.090341) can0 0000E009#0CD30CD30CD30CD3
(1779322320.091385) can0 0000E010#0000000000000000
(1779322320.092387) can0 0000E011#0000000000000000
(1779322320.093357) can0 0000E012#0CD3000000000000
(1779322320.094320) can0 0000E013#4542323630354C43
(1779322320.095364) can0 0000E014#3134323300000000
(1779322320.096370) can0 0000E015#0000000000000003
(1779322320.097388) can0 0000F000#0000000000000000
(1779322320.098382) can0 0000F001#0000000000000000
(1779322320.099367) can0 18FF28F4#10320000020D0000
(1779322320.100345) can0 18FE28F4#0CD30CD240400000
(1779322320.101365) can0 18FD28F4#1702FA6F00000000
(1779322320.102278) can0 4D4#000032007D0D0203
(1779322320.103261) can0 4D5#D20CD30C40400000
(1779322320.104339) can0 18914010#0CD3010CD2030000
(1779322320.105342) can0 18904010#020D020D753001FA
(1779322320.106374) can0 18924010#4001400100000000
(1779322320.107370) can0 18934010#000000100000BBF7
(1779322320.108369) can0 18944010#1003000000000000
(1779322320.109385) can0 18954010#0000000000000000
(1779322320.110398) can0 18954010#0100000000000000
(1779322320.111383) can0 18954010#0200000000000000
(1779322320.112389) can0 18954010#0300000000000000
(1779322320.113380) can0 18954010#0400000000000000
(1779322320.114380) can0 18954010#0500000000000000
(1779322320.115372) can0 18964010#0040404000000000
(1779322320.116385) can0 18974010#0000000000000000
(1779322320.117367) can0 18984010#0000000000000000
(1779322320.118373) can0 18FA28F4#123EA12C10270000
(1779322320.119340) can0 18FB28F4#D30CD20C40400000
(1779322320.120371) can0 18FC28F4#383200000D020000
(1779322320.121335) can0 18F810F3#0D02E80332640100
(1779322320.122349) can0 18F811F3#D30C0101D20C0301
(1779322320.123360) can0 18F812F3#4001014001010000
(1779322320.124374) can0 18F813F3#0101000000000000
(1779322320.125339) can0 18F814F3#3200EA1AA9015F00
(1779322320.126406) can0 18F815F3#0000000010030000
(1779322320.127269) can0 273#000000000D023200
(1779322320.128267) can0 1E1#020D271001FA01FA
(1779322320.129279) can0 1F5#0000000000000000
(1779322320.130370) can0 0800A6A9#0000000000000000
(1779322320.131343) can0 1000A6A9#0D028813324A4A4A
(1779322320.132373) can0 1C00A6A9#0000000000030000
(1779322320.133369) can0 02018100#1003020D00000000
(1779322320.134410) can0 02028100#0000003264000000
(1779322320.135346) can0 02038100#0CD301010CD20103
(1779322320.136350) can0 02048100#4A01014A01010000
(1779322320.137245) can0 1AD#8514000059321818
(1779322320.138247) can0 2AD#D30C800C85140016
(1779322320.139279) can0 3AD#0000000000008514
(1779322320.140277) can0 4AD#EB00000000000000
(1779322320.141271) can0 76A#7F00000000000000
(1779322320.199962) can0 0000E005#1702440003B60591
(1779322320.200509) can0 1806E5F4#13C9010003B6023A
(1779322320.201357) can0 0000E000#13C913C9020D0000
(1779322320.202360) can0 0000E004#181803B603B601E1
(1779322320.203364) can0 0000E006#0CD30CD30CD20CD2
(1779322320.204341) can0 0000E007#0CD20CD20CD30CD3
(1779322320.205338) can0 0000E008#0CD30CD30CD20CD2
(1779322320.206322) can0 0000E009#0CD30CD30CD30CD3
(1779322320.207382) can0 0000E010#0000000000000000
(1779322320.208378) can0 0000E011#0000000000000000
(1779322320.209357) can0 0000E012#0CD3000000000000
(1779322320.210376) can0 0000F001#0000000000000000
(1779322320.211404) can0 18FF28F4#10320000020D0000
(1779322320.212339) can0 18FE28F4#0CD30CD240400000
(1779322320.213351) can0 18FD28F4#1702FA6F00000000
(1779322320.214268) can0 4D4#000032007D0D0203
(1779322320.215251) can0 4D5#D20CD30C40400000
(1779322320.216348) can0 18914010#0CD3010CD2030000
(1779322320.217348) can0 18904010#020D020D753001FA
(1779322320.218345) can0 18FA28F4#123EA12C10270000
(1779322320.219394) can0 18FB28F4#D30CD20C40400000
(1779322320.220371) can0 18FC28F4#383200000D020000
(1779322320.221339) can0 18F810F3#0D02E80332640100
(1779322320.222373) can0 18F815F3#0000000010030000
(1779322320.223267) can0 273#000000000D023200
(1779322320.224253) can0 1E1#020D271001FA01FA
(1779322320.225282) can0 1F5#0000000000000000
(1779322320.226368) can0 0800A6A9#0000000000000000
(1779322320.227323) can0 1000A6A9#0D028813324A4A4A
(1779322320.228359) can0 1C00A6A9#0000000000030000
(1779322320.229374) can0 02018100#1003020D00000000
(1779322320.230374) can0 02028100#0000003264000000
(1779322320.231355) can0 02038100#0CD301010CD20103
(1779322320.232355) can0 02048100#4A01014A01010000
(1779322320.233250) can0 1AD#8514000059321818
(1779322320.234254) can0 2AD#D30C800C85140016
(1779322320.235277) can0 3AD#0000000000008514
(1779322320.236273) can0 4AD#EB00000000000000
(1779322320.237269) can0 76A#7F00000000000000
(1779322320.299928) can0 0000E005#1702440003B60591
(1779322320.300482) can0 1806E5F4#13C9010003B6023A
(1779322320.301350) can0 0000E000#13C913C9020D0000
(1779322320.302348) can0 0000E004#181803B603B601E1
(1779322320.303325) can0 0000E006#0CD30CD30CD20CD2
(1779322320.304347) can0 0000E007#0CD20CD20CD30CD3
(1779322320.305337) can0 0000E008#0CD30CD30CD20CD2
(1779322320.306328) can0 0000E009#0CD30CD30CD30CD3
(1779322320.307389) can0 0000E010#0000000000000000
(1779322320.308365) can0 0000E011#0000000000000000
(1779322320.309364) can0 0000E012#0CD3000000000000
(1779322320.310385) can0 0000F001#0000000000000000
(1779322320.311366) can0 18FF28F4#10320000020D0000
(1779322320.312340) can0 18FE28F4#0CD30CD240400000
(1779322320.313361) can0 18FD28F4#1702FA6F00000000
(1779322320.314264) can0 4D4#000032007D0D0203
(1779322320.315244) can0 4D5#D20CD30C40400000
(1779322320.316337) can0 18914010#0CD3010CD2030000
(1779322320.317341) can0 18904010#020D020D753001FA
(1779322320.318351) can0 18FA28F4#123EA12C10270000
(1779322320.319354) can0 18FB28F4#D30CD20C40400000
(1779322320.320365) can0 18FC28F4#383200000D020000
(1779322320.321341) can0 18F810F3#0D02E80332640100
(1779322320.322359) can0 18F815F3#0000000010030000
(1779322320.323265) can0 273#000000000D023200
(1779322320.324245) can0 1E1#020D271001FA01FA
(1779322320.325289) can0 1F5#0000000000000000
(1779322320.326373) can0 0800A6A9#0000000000000000
(1779322320.327320) can0 1000A6A9#0D028813324A4A4A
(1779322320.328352) can0 1C00A6A9#0000000000030000
(1779322320.329364) can0 02018100#1003020D00000000
(1779322320.330365) can0 02028100#0000003264000000
(1779322320.331347) can0 02038100#0CD301010CD20103
(1779322320.332334) can0 02048100#4A01014A01010000
(1779322320.333260) can0 1AD#8514000059321818
(1779322320.334240) can0 2AD#D30C800C85140016
(1779322320.335266) can0 3AD#0000000000008514
(1779322320.336276) can0 4AD#EB00000000000000
(1779322320.337276) can0 76A#7F00000000000000
(1779322320.399972) can0 0000E005#1702440003B60591
(1779322320.400538) can0 1806E5F4#13C9010003B6023A
(1779322320.401350) can0 0000E000#13C913C9020D0000
(1779322320.402358) can0 0000E004#181803B603B601E1
(1779322320.403332) can0 0000E006#0CD30CD20CD20CD2
(1779322320.404333) can0 0000E007#0CD20CD20CD20CD3
(1779322320.405324) can0 0000E008#0CD30CD30CD30CD2
(1779322320.406315) can0 0000E009#0CD30CD30CD30CD5
(1779322320.407377) can0 0000E010#0000000000000000
(1779322320.408371) can0 0000E011#0000000000000000
(1779322320.409349) can0 0000E012#0CD3000200000000
(1779322320.410386) can0 0000F001#0000000000000000
(1779322320.411352) can0 18FF28F4#10320000020D0000
(1779322320.412333) can0 18FE28F4#0CD50CD240400000
(1779322320.413346) can0 18FD28F4#1702FA6F00000000
(1779322320.414265) can0 4D4#000032007D0D0203
(1779322320.415250) can0 4D5#D20CD50C40400000
(1779322320.416345) can0 18914010#0CD5100CD2020000
(1779322320.417340) can0 18904010#020D020D753001FA
(1779322320.418371) can0 18FA28F4#123EA12C10270000
(1779322320.419339) can0 18FB28F4#D50CD20C40400000
(1779322320.420365) can0 18FC28F4#383200000D020000
(1779322320.421326) can0 18F810F3#0D02E80332640100
(1779322320.422365) can0 18F815F3#0000000010030000
(1779322320.423265) can0 273#000000000D023200
(1779322320.424245) can0 1E1#020D271001FA01FA
(1779322320.425276) can0 1F5#0000000000000000
(1779322320.426383) can0 0800A6A9#0000000000000000
(1779322320.427319) can0 1000A6A9#0D028813324A4A4A
(1779322320.428354) can0 1C00A6A9#0000000000030000
(1779322320.429363) can0 02018100#1003020D00000000
(1779322320.430368) can0 02028100#0000003264000000
(1779322320.431349) can0 02038100#0CD501100CD20102
(1779322320.432341) can0 02048100#4A01014A01010000
(1779322320.433236) can0 1AD#8514000059321818
(1779322320.434270) can0 2AD#D50C800C85140016
(1779322320.435262) can0 3AD#0000000000008514
(1779322320.436262) can0 4AD#EB00000000000000
(1779322320.437278) can0 76A#7F00000000000000
(1779322320.499940) can0 0000E005#1702440003B60591
(1779322320.500487) can0 1806E5F4#13C9010003B6023A
(1779322320.501337) can0 0000E000#13C913C9020D0000
(1779322320.502335) can0 0000E004#181803B603B601E1
(1779322320.503368) can0 0000E006#0CD30CD20CD20CD2
(1779322320.504330) can0 0000E007#0CD20CD20CD20CD3
(1779322320.505330) can0 0000E008#0CD30CD30CD30CD2
(1779322320.506305) can0 0000E009#0CD30CD30CD30CD5
(1779322320.507374) can0 0000E010#0000000000000000
(1779322320.508377) can0 0000E011#0000000000000000
(1779322320.509349) can0 0000E012#0CD3000200000000
(1779322320.510377) can0 0000F001#0000000000000000
(1779322320.511393) can0 18FF28F4#10320000020D0000
(1779322320.512339) can0 18FE28F4#0CD50CD240400000
(1779322320.513353) can0 18FD28F4#1702FA6F00000000
(1779322320.514261) can0 4D4#000032007D0D0203
(1779322320.515250) can0 4D5#D20CD50C40400000
(1779322320.516346) can0 18914010#0CD5100CD2020000
(1779322320.517345) can0 18904010#020D020D753001FA
(1779322320.518341) can0 18FA28F4#123EA12C10270000
(1779322320.519371) can0 18FB28F4#D50CD20C40400000
(1779322320.520360) can0 18FC28F4#383200000D020000
(1779322320.521325) can0 18F810F3#0D02E80332640100
(1779322320.522375) can0 18F815F3#0000000010030000
(1779322320.523257) can0 273#000000000D023200
(1779322320.524251) can0 1E1#020D271001FA01FA
(1779322320.525283) can0 1F5#0000000000000000
(1779322320.526363) can0 0800A6A9#0000000000000000
(1779322320.527379) can0 1000A6A9#0D028813324A4A4A
(1779322320.528359) can0 1C00A6A9#0000000000030000
(1779322320.529357) can0 02018100#1003020D00000000
(1779322320.530353) can0 02028100#0000003264000000
(1779322320.531354) can0 02038100#0CD501100CD20102
(1779322320.532354) can0 02048100#4A01014A01010000
(1779322320.533231) can0 1AD#8514000059321818
(1779322320.534233) can0 2AD#D50C800C85140016
(1779322320.535257) can0 3AD#0000000000008514
(1779322320.536277) can0 4AD#EB00000000000000
(1779322320.537272) can0 76A#7F00000000000000
(1779322320.616965) can0 0000E005#1702440003B60591
(1779322320.617525) can0 1806E5F4#13C9010003B6023A
(1779322320.618344) can0 0000E000#13C913C9020D0000
(1779322320.619344) can0 0000E004#181803B603B601E1
(1779322320.620336) can0 0000E006#0CD30CD20CD20CD2
(1779322320.621319) can0 0000E007#0CD30CD20CD30CD3
(1779322320.622318) can0 0000E008#0CD30CD30CD30CD2
(1779322320.623318) can0 0000E009#0CD20CD30CD30CD5
(1779322320.624377) can0 0000E010#0000000000000000
(1779322320.625362) can0 0000E011#0000000000000000
(1779322320.626351) can0 0000E012#0CD3000200000000
(1779322320.627332) can0 0000E013#4542323630354C43
(1779322320.628352) can0 0000E014#3134323300000000
(1779322320.629375) can0 0000E015#0000000000000003
(1779322320.630367) can0 0000F000#0000000000000000
(1779322320.631374) can0 0000F001#0000000000000000
(1779322320.632349) can0 18FF28F4#10320000020D0000
(1779322320.633346) can0 18FE28F4#0CD50CD240400000
(1779322320.634344) can0 18FD28F4#1702FA6F00000000
(1779322320.635266) can0 4D4#000032007D0D0203
(1779322320.636247) can0 4D5#D20CD50C40400000
(1779322320.637342) can0 18914010#0CD5100CD2020000
(1779322320.638342) can0 18904010#020D020D753001FA
(1779322320.639353) can0 18924010#4001400100000000
(1779322320.640347) can0 18934010#000000110000BBF7
(1779322320.641368) can0 18944010#1003000000000000
(1779322320.642380) can0 18954010#0000000000000000
(1779322320.643380) can0 18954010#0100000000000000
(1779322320.644356) can0 18954010#0200000000000000
(1779322320.645362) can0 18954010#0300000000000000
(1779322320.646362) can0 18954010#0400000000000000
(1779322320.647356) can0 18954010#0500000000000000
(1779322320.648362) can0 18964010#0040404000000000
(1779322320.649380) can0 18974010#0000000000000000
(1779322320.650360) can0 18984010#0000000000000000
(1779322320.651343) can0 18FA28F4#123EA12C10270000
(1779322320.652342) can0 18FB28F4#D50CD20C40400000
(1779322320.653355) can0 18FC28F4#383200000D020000
(1779322320.654336) can0 18F810F3#0D02E80332640100
(1779322320.655343) can0 18F811F3#D50C1001D20C0201
(1779322320.656343) can0 18F812F3#4001014001010000
(1779322320.657395) can0 18F813F3#0101000000000000
(1779322320.658338) can0 18F814F3#3200EA1AA9015F00
(1779322320.659370) can0 18F815F3#0000000010030000
(1779322320.660267) can0 273#000000000D023200
(1779322320.661251) can0 1E1#020D271001FA01FA
(1779322320.662281) can0 1F5#0000000000000000
(1779322320.663354) can0 0800A6A9#0000000000000000
(1779322320.664326) can0 1000A6A9#0D028813324A4A4A
(1779322320.665390) can0 1C00A6A9#0000000000030000
(1779322320.666368) can0 02018100#1003020D00000000
(1779322320.667359) can0 02028100#0000003264000000
(1779322320.668350) can0 02038100#0CD501100CD20102
(1779322320.669343) can0 02048100#4A01014A01010000
(1779322320.670247) can0 1AD#8514000059321818
(1779322320.671241) can0 2AD#D50C800C85140016
(1779322320.672260) can0 3AD#0000000000008514
(1779322320.673305) can0 4AD#EB00000000000000
(1779322320.674273) can0 76A#7F00000000000000
(1779322320.732916) can0 0000E005#1702440003B60591
(1779322320.733471) can0 1806E5F4#13C9010003B6023A
(1779322320.734364) can0 0000E000#13C913C9020D0000
(1779322320.735331) can0 0000E004#181803B603B601E1
(1779322320.736319) can0 0000E006#0CD30CD20CD20CD2
(1779322320.737324) can0 0000E007#0CD30CD20CD30CD3
(1779322320.738326) can0 0000E008#0CD30CD30CD30CD2
(1779322320.739325) can0 0000E009#0CD20CD30CD30CD5
(1779322320.740371) can0 0000E010#0000000000000000
(1779322320.741371) can0 0000E011#0000000000000000
(1779322320.742383) can0 0000E012#0CD3000200000000
(1779322320.743367) can0 0000F001#0000000000000000
(1779322320.744342) can0 18FF28F4#10320000020D0000
(1779322320.745325) can0 18FE28F4#0CD50CD240400000
(1779322320.746344) can0 18FD28F4#1702FA6F00000000
(1779322320.747261) can0 4D4#000032007D0D0203
(1779322320.748236) can0 4D5#D20CD50C40400000
(1779322320.749337) can0 18914010#0CD5100CD2020000
(1779322320.750383) can0 18904010#020D020D753001FA
(1779322320.751331) can0 18FA28F4#123EA12C10270000
(1779322320.752334) can0 18FB28F4#D50CD20C40400000
(1779322320.753375) can0 18FC28F4#383200000D020000
(1779322320.754329) can0 18F810F3#0D02E80332640100
(1779322320.755358) can0 18F815F3#0000000010030000
(1779322320.756243) can0 273#000000000D023200
(1779322320.757246) can0 1E1#020D271001FA01FA
(1779322320.758276) can0 1F5#0000000000000000
(1779322320.759351) can0 0800A6A9#0000000000000000
(1779322320.760312) can0 1000A6A9#0D028813324A4A4A
(1779322320.761354) can0 1C00A6A9#0000000000030000
(1779322320.762345) can0 02018100#1003020D00000000
(1779322320.763348) can0 02028100#0000003264000000
(1779322320.764340) can0 02038100#0CD501100CD20102
(1779322320.765344) can0 02048100#4A01014A01010000
(1779322320.766239) can0 1AD#8514000059321818
(1779322320.767217) can0 2AD#D50C800C85140016
(1779322320.768243) can0 3AD#0000000000008514
(1779322320.769266) can0 4AD#EB00000000000000
(1779322320.770257) can0 76A#7F00000000000000
(1779322320.832968) can0 0000E005#1702440003B60591
(1779322320.833541) can0 1806E5F4#13C9010003B6023A
(1779322320.834360) can0 0000E000#13C913C9020D0000
(1779322320.835349) can0 0000E004#181803B603B601E1
(1779322320.836325) can0 0000E006#0CD30CD20CD20CD2
(1779322320.837347) can0 0000E007#0CD30CD20CD30CD3
(1779322320.838333) can0 0000E008#0CD30CD30CD30CD2
(1779322320.839328) can0 0000E009#0CD20CD30CD30CD5
(1779322320.840381) can0 0000E010#0000000000000000
(1779322320.841375) can0 0000E011#0000000000000000
(1779322320.842354) can0 0000E012#0CD3000200000000
(1779322320.843373) can0 0000F001#0000000000000000
(1779322320.844370) can0 18FF28F4#10320000020D0000
(1779322320.845329) can0 18FE28F4#0CD50CD240400000
(1779322320.846350) can0 18FD28F4#1702FA6F00000000
(1779322320.847258) can0 4D4#000032007D0D0203
(1779322320.848252) can0 4D5#D20CD50C40400000
(1779322320.849345) can0 18914010#0CD5100CD2020000
(1779322320.850346) can0 18904010#020D020D753001FA
(1779322320.851361) can0 18FA28F4#123EA12C10270000
(1779322320.852347) can0 18FB28F4#D50CD20C40400000
(1779322320.853377) can0 18FC28F4#383200000D020000
(1779322320.854344) can0 18F810F3#0D02E80332640100
(1779322320.855366) can0 18F815F3#0000000010030000
(1779322320.856267) can0 273#000000000D023200
(1779322320.857247) can0 1E1#020D271001FA01FA
(1779322320.858286) can0 1F5#0000000000000000
(1779322320.859371) can0 0800A6A9#0000000000000000
(1779322320.860327) can0 1000A6A9#0D028813324A4A4A
(1779322320.861354) can0 1C00A6A9#0000000000030000
(1779322320.862369) can0 02018100#1003020D00000000
(1779322320.863374) can0 02028100#0000003264000000
(1779322320.864377) can0 02038100#0CD501100CD20102
(1779322320.865355) can0 02048100#4A01014A01010000
(1779322320.866245) can0 1AD#8514000059321818
(1779322320.867243) can0 2AD#D50C800C85140016
(1779322320.868273) can0 3AD#0000000000008514
(1779322320.869260) can0 4AD#EB00000000000000
(1779322320.870263) can0 76A#7F00000000000000
(1779322320.932954) can0 0000E005#1702440003B60591
(1779322320.933502) can0 1806E5F4#13C9010003B6023A
(1779322320.934343) can0 0000E000#13C913C9020D0000
(1779322320.935335) can0 0000E004#181803B603B601E1
(1779322320.936343) can0 0000E006#0CD30CD20CD20CD2
(1779322320.937345) can0 0000E007#0CD20CD20CD30CD3
(1779322320.938329) can0 0000E008#0CD30CD30CD20CD2
(1779322320.939316) can0 0000E009#0CD20CD30CD30CD5
(1779322320.940360) can0 0000E010#0000000000000000
(1779322320.941371) can0 0000E011#0000000000000000
(1779322320.942335) can0 0000E012#0CD3000200000000
(1779322320.943373) can0 0000F001#0000000000000000
(1779322320.944353) can0 18FF28F4#10320000020D0000
(1779322320.945335) can0 18FE28F4#0CD50CD240400000
(1779322320.946341) can0 18FD28F4#1702FA6F00000000
(1779322320.947251) can0 4D4#000032007D0D0203
(1779322320.948233) can0 4D5#D20CD50C40400000
(1779322320.949348) can0 18914010#0CD5100CD2020000
(1779322320.950320) can0 18904010#020D020D753001FA
(1779322320.951325) can0 18FA28F4#123EA12C10270000
(1779322320.952326) can0 18FB28F4#D50CD20C40400000
(1779322320.953359) can0 18FC28F4#383200000D020000
(1779322320.954318) can0 18F810F3#0D02E80332640100
(1779322320.955353) can0 18F815F3#0000000010030000
(1779322320.956252) can0 273#000000000D023200
(1779322320.957265) can0 1E1#020D271001FA01FA
(1779322320.958263) can0 1F5#0000000000000000
(1779322320.959372) can0 0800A6A9#0000000000000000
(1779322320.960313) can0 1000A6A9#0D028813324A4A4A
(1779322320.961348) can0 1C00A6A9#0000000000030000
(1779322320.962353) can0 02018100#1003020D00000000
(1779322320.963356) can0 02028100#0000003264000000
(1779322320.964339) can0 02038100#0CD501100CD20102
(1779322320.965381) can0 02048100#4A01014A01010000
(1779322320.966233) can0 1AD#8514000059321818
(1779322320.967234) can0 2AD#D50C800C85140016
(1779322320.968259) can0 3AD#0000000000008514
(1779322320.969254) can0 4AD#EB00000000000000
(1779322320.970270) can0 76A#7F00000000000000
(1779322321.032903) can0 0000E005#1702440003B60591
(1779322321.033452) can0 1806E5F4#13C9010003B6023A
(1779322321.034358) can0 0000E000#13C913C9020D0000
(1779322321.035335) can0 0000E004#181803B603B601E1
(1779322321.036312) can0 0000E006#0CD30CD20CD20CD2
(1779322321.037329) can0 0000E007#0CD20CD20CD30CD3
(1779322321.038332) can0 0000E008#0CD30CD30CD20CD2
(1779322321.039305) can0 0000E009#0CD20CD30CD30CD5
(1779322321.040362) can0 0000E010#0000000000000000
(1779322321.041354) can0 0000E011#0000000000000000
(1779322321.042373) can0 0000E012#0CD3000200000000
(1779322321.043365) can0 0000F001#0000000000000000
(1779322321.044352) can0 18FF28F4#10320000020D0000
(1779322321.045333) can0 18FE28F4#0CD50CD240400000
(1779322321.046334) can0 18FD28F4#1702FA6F00000000
(1779322321.047241) can0 4D4#000032007D0D0203
(1779322321.048236) can0 4D5#D20CD50C40400000
(1779322321.049329) can0 18914010#0CD5100CD2020000
(1779322321.050372) can0 18904010#020D020D753001FA
(1779322321.051334) can0 18FA28F4#123EA12C10270000
(1779322321.052321) can0 18FB28F4#D50CD20C40400000
(1779322321.053353) can0 18FC28F4#383200000D020000
(1779322321.054313) can0 18F810F3#0D02E80332640100
(1779322321.055345) can0 18F815F3#0000000010030000
(1779322321.056250) can0 273#000000000D023200
(1779322321.057231) can0 1E1#020D271001FA01FA
(1779322321.058327) can0 1F5#0000000000000000
(1779322321.059354) can0 0800A6A9#0000000000000000
(1779322321.060305) can0 1000A6A9#0D028813324A4A4A
(1779322321.061333) can0 1C00A6A9#0000000000030000
(1779322321.062352) can0 02018100#1003020D00000000
(1779322321.063348) can0 02028100#0000003264000000
(1779322321.064334) can0 02038100#0CD501100CD20102
(1779322321.065327) can0 02048100#4A01014A01010000
(1779322321.066224) can0 1AD#8514000059321818
(1779322321.067226) can0 2AD#D50C800C85140016
(1779322321.068251) can0 3AD#0000000000008514
(1779322321.069251) can0 4AD#EB00000000000000
(1779322321.070263) can0 76A#7F00000000000000
(1779322321.149904) can0 0000E005#1702440003B60591
(1779322321.150462) can0 1806E5F4#13C9010003B6023A
(1779322321.151325) can0 0000E000#13C913C9020D0000
(1779322321.152326) can0 0000E004#181803B603B601E1
(1779322321.153322) can0 0000E006#0CD30CD20CD20CD2
(1779322321.154318) can0 0000E007#0CD20CD20CD30CD3
(1779322321.155318) can0 0000E008#0CD30CD30CD20CD2
(1779322321.156298) can0 0000E009#0CD30CD30CD30CD5
(1779322321.157363) can0 0000E010#0000000000000000
(1779322321.158344) can0 0000E011#0000000000000000
(1779322321.159331) can0 0000E012#0CD3000200000000
(1779322321.160312) can0 0000E013#4542323630354C43
(1779322321.161337) can0 0000E014#3134323300000000
(1779322321.162357) can0 0000E015#0000000000000003
(1779322321.163357) can0 0000F000#0000000000000000
(1779322321.164351) can0 0000F001#0000000000000000
(1779322321.165330) can0 18FF28F4#10320000020D0000
(1779322321.166319) can0 18FE28F4#0CD50CD240400000
(1779322321.167331) can0 18FD28F4#1702FA6F00000000
(1779322321.168249) can0 4D4#000032007D0D0203
(1779322321.169230) can0 4D5#D20CD50C40400000
(1779322321.170325) can0 18914010#0CD5100CD2020000
(1779322321.171326) can0 18904010#020D020D753001FA
(1779322321.172361) can0 18924010#4001400100000000
(1779322321.173334) can0 18934010#000000120000BBF7
(1779322321.174340) can0 18944010#1003000000000000
(1779322321.175353) can0 18954010#0000000000000000
(1779322321.176365) can0 18954010#0100000000000000
(1779322321.177349) can0 18954010#0200000000000000
(1779322321.178346) can0 18954010#0300000000000000
(1779322321.179346) can0 18954010#0400000000000000
(1779322321.180358) can0 18954010#0500000000000000
(1779322321.181340) can0 18964010#0040404000000000
(1779322321.182352) can0 18974010#0000000000000000
(1779322321.183352) can0 18984010#0000000000000000
(1779322321.184314) can0 18FA28F4#123EA12C10270000
(1779322321.185323) can0 18FB28F4#D50CD20C40400000
(1779322321.186340) can0 18FC28F4#383200000D020000
(1779322321.187308) can0 18F810F3#0D02E80332640100
(1779322321.188353) can0 18F811F3#D50C1001D20C0201
(1779322321.189326) can0 18F812F3#4001014001010000
(1779322321.190347) can0 18F813F3#0101000000000000
(1779322321.191309) can0 18F814F3#3200EA1AA9015F00
(1779322321.192340) can0 18F815F3#0000000010030000
(1779322321.193239) can0 273#000000000D023200
(1779322321.194238) can0 1E1#020D271001FA01FA
(1779322321.195251) can0 1F5#0000000000000000
(1779322321.196378) can0 0800A6A9#0000000000000000
(1779322321.197310) can0 1000A6A9#0D028813324A4A4A
(1779322321.198340) can0 1C00A6A9#0000000000030000
(1779322321.199341) can0 02018100#1003020D00000000
(1779322321.200340) can0 02028100#0000003264000000
(1779322321.201318) can0 02038100#0CD501100CD20102
(1779322321.202317) can0 02048100#4A01014A01010000
(1779322321.203220) can0 1AD#8514000059321818
(1779322321.204266) can0 2AD#D50C800C85140016
(1779322321.205246) can0 3AD#0000000000008514
(1779322321.206245) can0 4AD#EB00000000000000
(1779322321.207245) can0 76A#7F00000000000000
(1779322321.265892) can0 0000E005#1702440003B60591
(1779322321.266462) can0 1806E5F4#13C9010003B6023A
(1779322321.267334) can0 0000E000#13C913C9020D0000
(1779322321.268326) can0 0000E004#181803B603B601E1
(1779322321.269315) can0 0000E006#0CD30CD20CD20CD2
(1779322321.270308) can0 0000E007#0CD20CD20CD30CD3
(1779322321.271307) can0 0000E008#0CD30CD30CD20CD2
(1779322321.272307) can0 0000E009#0CD30CD30CD30CD5
(1779322321.273383) can0 0000E010#0000000000000000
(1779322321.274352) can0 0000E011#0000000000000000
(1779322321.275332) can0 0000E012#0CD3000200000000
(1779322321.276346) can0 0000F001#0000000000000000
(1779322321.277349) can0 18FF28F4#10320000020D0000
(1779322321.278318) can0 18FE28F4#0CD50CD240400000
(1779322321.279329) can0 18FD28F4#1702FA6F00000000
(1779322321.280247) can0 4D4#000032007D0D0203
(1779322321.281271) can0 4D5#D20CD50C40400000
(1779322321.282323) can0 18914010#0CD5100CD2020000
(1779322321.283321) can0 18904010#020D020D753001FA
(1779322321.284335) can0 18FA28F4#123EA12C10270000
(1779322321.285316) can0 18FB28F4#D50CD20C40400000
(1779322321.286346) can0 18FC28F4#383200000D020000
(1779322321.287308) can0 18F810F3#0D02E80332640100
(1779322321.288340) can0 18F815F3#0000000010030000
(1779322321.289285) can0 273#000000000D023200
(1779322321.290225) can0 1E1#020D271001FA01FA
(1779322321.291257) can0 1F5#0000000000000000
(1779322321.292334) can0 0800A6A9#0000000000000000
(1779322321.293292) can0 1000A6A9#0D028813324A4A4A
(1779322321.294327) can0 1C00A6A9#0000000000030000
(1779322321.295346) can0 02018100#1003020D00000000
(1779322321.296346) can0 02028100#0000003264000000
(1779322321.297328) can0 02038100#0CD501100CD20102
(1779322321.298321) can0 02048100#4A01014A01010000
(1779322321.299219) can0 1AD#8514000059321818
(1779322321.300219) can0 2AD#D50C800C85140016
(1779322321.301248) can0 3AD#0000000000008514
(1779322321.302244) can0 4AD#EB00000000000000
(1779322321.303244) can0 76A#7F00000000000000
(1779322321.365945) can0 0000E005#1702440003B60591
(1779322321.366510) can0 1806E5F4#13C9010003B6023A
(1779322321.367327) can0 0000E000#13C913C9020D0000
(1779322321.368326) can0 0000E004#181803B603B601E1
(1779322321.369307) can0 0000E006#0CD30CD20CD20CD2
(1779322321.370306) can0 0000E007#0CD20CD20CD30CD3
(1779322321.371306) can0 0000E008#0CD30CD30CD20CD2
(1779322321.372287) can0 0000E009#0CD30CD30CD30CD5
(1779322321.373351) can0 0000E010#0000000000000000
(1779322321.374342) can0 0000E011#0000000000000000
(1779322321.375331) can0 0000E012#0CD3000200000000
(1779322321.376345) can0 0000F001#0000000000000000
(1779322321.377325) can0 18FF28F4#10320000020D0000
(1779322321.378305) can0 18FE28F4#0CD50CD240400000
(1779322321.379326) can0 18FD28F4#1702FA6F00000000
(1779322321.380243) can0 4D4#000032007D0D0203
(1779322321.381223) can0 4D5#D20CD50C40400000
(1779322321.382320) can0 18914010#0CD5100CD2020000
(1779322321.383319) can0 18904010#020D020D753001FA
(1779322321.384313) can0 18FA28F4#123EA12C10270000
(1779322321.385313) can0 18FB28F4#D50CD20C40400000
(1779322321.386343) can0 18FC28F4#383200000D020000
(1779322321.387313) can0 18F810F3#0D02E80332640100
(1779322321.388339) can0 18F815F3#0000000010030000
(1779322321.389243) can0 273#000000000D023200
(1779322321.390222) can0 1E1#020D271001FA01FA
(1779322321.391256) can0 1F5#0000000000000000
(1779322321.392333) can0 0800A6A9#0000000000000000
(1779322321.393301) can0 1000A6A9#0D028813324A4A4A
(1779322321.394333) can0 1C00A6A9#0000000000030000
(1779322321.395345) can0 02018100#1003020D00000000
(1779322321.396345) can0 02028100#0000003264000000
(1779322321.397327) can0 02038100#0CD501100CD20102
(1779322321.398321) can0 02048100#4A01014A01010000
(1779322321.399225) can0 1AD#8514000059321818
(1779322321.400218) can0 2AD#D50C800C85140016
(1779322321.401251) can0 3AD#0000000000008514
(1779322321.402238) can0 4AD#EB00000000000000
(1779322321.403256) can0 76A#7F00000000000000
(1779322321.465909) can0 0000E005#1702440003B60591
(1779322321.466458) can0 1806E5F4#13C9010003B6023A
(1779322321.467327) can0 0000E000#13C913C9020D0000
(1779322321.468323) can0 0000E004#181803B603B601E1
(1779322321.469333) can0 0000E006#0CD30CD20CD20CD2
(1779322321.470329) can0 0000E007#0CD20CD20CD30CD3
(1779322321.471323) can0 0000E008#0CD30CD30CD20CD2
(1779322321.472312) can0 0000E009#0CD30CD30CD30CD5
(1779322321.473384) can0 0000E010#0000000000000000
(1779322321.474365) can0 0000E011#0000000000000000
(1779322321.475336) can0 0000E012#0CD3000200000000
(1779322321.476358) can0 0000F001#0000000000000000
(1779322321.477334) can0 18FF28F4#10320000020D0000
(1779322321.478315) can0 18FE28F4#0CD50CD240400000
(1779322321.479333) can0 18FD28F4#1702FA6F00000000
(1779322321.480248) can0 4D4#000032007D0D0203
(1779322321.481229) can0 4D5#D20CD50C40400000
(1779322321.482325) can0 18914010#0CD5100CD2020000
(1779322321.483303) can0 18904010#020D020D753001FA
(1779322321.484319) can0 18FA28F4#123EA12C10270000
(1779322321.485319) can0 18FB28F4#D50CD20C40400000
(1779322321.486332) can0 18FC28F4#383200000D020000
(1779322321.487306) can0 18F810F3#0D02E80332640100
(1779322321.488372) can0 18F815F3#0000000010030000
(1779322321.489255) can0 273#000000000D023200
(1779322321.490235) can0 1E1#020D271001FA01FA
(1779322321.491268) can0 1F5#0000000000000000
(1779322321.492344) can0 0800A6A9#0000000000000000
(1779322321.493293) can0 1000A6A9#0D028813324A4A4A
(1779322321.494325) can0 1C00A6A9#0000000000030000
(1779322321.495340) can0 02018100#1003020D00000000
(1779322321.496376) can0 02028100#0000003264000000
(1779322321.497320) can0 02038100#0CD501100CD20102
(1779322321.498327) can0 02048100#4A01014A01010000
(1779322321.499227) can0 1AD#8514000059321818
(1779322321.500207) can0 2AD#D50C800C85140016
(1779322321.501236) can0 3AD#0000000000008514
(1779322321.502251) can0 4AD#EB00000000000000
(1779322321.503251) can0 76A#7F00000000000000
(1779322321.565898) can0 0000E005#1702440003B60591
(1779322321.566454) can0 1806E5F4#13C9010003B6023A
(1779322321.567321) can0 0000E000#13C913C9020D0000
(1779322321.568316) can0 0000E004#181803B603B601E1
(1779322321.569319) can0 0000E006#0CD30CD20CD20CD2
(1779322321.570310) can0 0000E007#0CD20CD20CD30CD3
(1779322321.571312) can0 0000E008#0CD30CD30CD20CD2
(1779322321.572285) can0 0000E009#0CD30CD30CD30CD5
(1779322321.573376) can0 0000E010#0000000000000000
(1779322321.574335) can0 0000E011#0000000000000000
(1779322321.575319) can0 0000E012#0CD3000200000000
(1779322321.576349) can0 0000F001#0000000000000000
(1779322321.577333) can0 18FF28F4#10320000020D0000
(1779322321.578317) can0 18FE28F4#0CD50CD240400000
(1779322321.579332) can0 18FD28F4#1702FA6F00000000
(1779322321.580239) can0 4D4#000032007D0D0203
(1779322321.581262) can0 4D5#D20CD50C40400000
(1779322321.582304) can0 18914010#0CD5100CD2020000
(1779322321.583307) can0 18904010#020D020D753001FA
(1779322321.584316) can0 18FA28F4#123EA12C10270000
(1779322321.585319) can0 18FB28F4#D50CD20C40400000
(1779322321.586330) can0 18FC28F4#383200000D020000
(1779322321.587300) can0 18F810F3#0D02E80332640100
(1779322321.588331) can0 18F815F3#0000000010030000
(1779322321.589280) can0 273#000000000D023200
(1779322321.590227) can0 1E1#020D271001FA01FA
(1779322321.591240) can0 1F5#0000000000000000
(1779322321.592330) can0 0800A6A9#0000000000000000
(1779322321.593286) can0 1000A6A9#0D028813324A4A4A
(1779322321.594317) can0 1C00A6A9#0000000000030000
(1779322321.595330) can0 02018100#1003020D00000000
(1779322321.596324) can0 02028100#0000003264000000
(1779322321.597312) can0 02038100#0CD501100CD20102
(1779322321.598311) can0 02048100#4A01014A01010000
(1779322321.599209) can0 1AD#8514000059321818
(1779322321.600208) can0 2AD#D50C800C85140016
(1779322321.601237) can0 3AD#0000000000008514
(1779322321.602246) can0 4AD#EB00000000000000
(1779322321.603248) can0 76A#7F00000000000000
(1779322321.682870) can0 0000E005#1702440003B60591
(1779322321.683452) can0 1806E5F4#13C9010003B6023A
(1779322321.684322) can0 0000E000#13C913C9020D0000
(1779322321.685304) can0 0000E004#181803B603B601E1
(1779322321.686299) can0 0000E006#0CD30CD20CD20CD2
(1779322321.687297) can0 0000E007#0CD20CD20CD30CD2
(1779322321.688296) can0 0000E008#0CD20CD30CD30CD2
(1779322321.689297) can0 0000E009#0CD20CD30CD20CD3
(1779322321.690342) can0 0000E010#0000000000000000
(1779322321.691342) can0 0000E011#0000000000000000
(1779322321.692322) can0 0000E012#0CD3000000000000
(1779322321.693294) can0 0000E013#4542323630354C43
(1779322321.694313) can0 0000E014#3134323300000000
(1779322321.695336) can0 0000E015#0000000000000003
(1779322321.696348) can0 0000F000#0000000000000000
(1779322321.697330) can0 0000F001#0000000000000000
(1779322321.698321) can0 18FF28F4#10320000020D0000
(1779322321.699298) can0 18FE28F4#0CD30CD240400000
(1779322321.700311) can0 18FD28F4#1702FA6F00000000
(1779322321.701229) can0 4D4#000032007D0D0203
(1779322321.702214) can0 4D5#D20CD30C40400000
(1779322321.703304) can0 18914010#0CD3010CD2020000
(1779322321.704304) can0 18904010#020D020D753001FA
(1779322321.705319) can0 18924010#4001400100000000
(1779322321.706314) can0 18934010#000000130000BBF7
(1779322321.707331) can0 18944010#1003000000000000
(1779322321.708342) can0 18954010#0000000000000000
(1779322321.709345) can0 18954010#0100000000000000
(1779322321.710337) can0 18954010#0200000000000000
(1779322321.711345) can0 18954010#0300000000000000
(1779322321.712337) can0 18954010#0400000000000000
(1779322321.713318) can0 18954010#0500000000000000
(1779322321.714330) can0 18964010#0040404000000000
(1779322321.715331) can0 18974010#0000000000000000
(1779322321.716330) can0 18984010#0000000000000000
(1779322321.717312) can0 18FA28F4#123EA12C10270000
(1779322321.718300) can0 18FB28F4#D30CD20C40400000
(1779322321.719353) can0 18FC28F4#383200000D020000
(1779322321.720300) can0 18F810F3#0D02E80332640100
(1779322321.721301) can0 18F811F3#D30C0101D20C0201
(1779322321.722308) can0 18F812F3#4001014001010000
(1779322321.723338) can0 18F813F3#0101000000000000
(1779322321.724305) can0 18F814F3#3200EA1AA9015F00
(1779322321.725332) can0 18F815F3#0000000010030000
(1779322321.726235) can0 273#000000000D023200
(1779322321.727249) can0 1E1#020D271001FA01FA
(1779322321.728241) can0 1F5#0000000000000000
(1779322321.729327) can0 0800A6A9#0000000000000000
(1779322321.730285) can0 1000A6A9#0D028813324A4A4A
(1779322321.731319) can0 1C00A6A9#0000000000030000
(1779322321.732331) can0 02018100#1003020D00000000
(1779322321.733334) can0 02028100#0000003264000000
(1779322321.734309) can0 02038100#0CD301010CD20102
(1779322321.735344) can0 02048100#4A01014A01010000
(1779322321.736216) can0 1AD#8514000059321818
(1779322321.737219) can0 2AD#D30C800C85140016
(1779322321.738229) can0 3AD#0000000000008514
(1779322321.739243) can0 4AD#EB00000000000000
(1779322321.740242) can0 76A#7F00000000000000
(1779322321.798930) can0 0000E005#1702440003B60591
(1779322321.799487) can0 1806E5F4#13C9010003B6023A
(1779322321.800311) can0 0000E000#13C913C9020D0000
(1779322321.801310) can0 0000E004#181803B603B601E1
(1779322321.802291) can0 0000E006#0CD30CD20CD20CD2
(1779322321.803305) can0 0000E007#0CD20CD20CD30CD2
(1779322321.804335) can0 0000E008#0CD20CD30CD30CD2
(1779322321.805284) can0 0000E009#0CD20CD30CD20CD3
(1779322321.806336) can0 0000E010#0000000000000000
(1779322321.807335) can0 0000E011#0000000000000000
(1779322321.808317) can0 0000E012#0CD3000000000000
(1779322321.809348) can0 0000F001#0000000000000000
(1779322321.810332) can0 18FF28F4#10320000020D0000
(1779322321.811289) can0 18FE28F4#0CD30CD240400000
(1779322321.812355) can0 18FD28F4#1702FA6F00000000
(1779322321.813221) can0 4D4#000032007D0D0203
(1779322321.814222) can0 4D5#D20CD30C40400000
(1779322321.815298) can0 18914010#0CD3010CD2020000
(1779322321.816298) can0 18904010#020D020D753001FA
(1779322321.817298) can0 18FA28F4#123EA12C10270000
(1779322321.818298) can0 18FB28F4#D30CD20C40400000
(1779322321.819330) can0 18FC28F4#383200000D020000
(1779322321.820344) can0 18F810F3#0D02E80332640100
(1779322321.821324) can0 18F815F3#0000000010030000
(1779322321.822222) can0 273#000000000D023200
(1779322321.823222) can0 1E1#020D271001FA01FA
(1779322321.824241) can0 1F5#0000000000000000
(1779322321.825330) can0 0800A6A9#0000000000000000
(1779322321.826288) can0 1000A6A9#0D028813324A4A4A
(1779322321.827306) can0 1C00A6A9#0000000000030000
(1779322321.828333) can0 02018100#1003020D00000000
(1779322321.829324) can0 02028100#0000003264000000
(1779322321.830313) can0 02038100#0CD301010CD20102
(1779322321.831305) can0 02048100#4A01014A01010000
(1779322321.832223) can0 1AD#8514000059321818
(1779322321.833222) can0 2AD#D30C800C85140016
(1779322321.834225) can0 3AD#0000000000008514
(1779322321.835239) can0 4AD#EB00000000000000
(1779322321.836237) can0 76A#7F00000000000000
(1779322321.898880) can0 0000E005#1702440003B60591
(1779322321.899446) can0 1806E5F4#13C9010003B6023A
(1779322321.900304) can0 0000E000#13C913C9020D0000
(1779322321.901311) can0 0000E004#181803B603B601E1
(1779322321.902291) can0 0000E006#0CD30CD20CD20CD2
(1779322321.903304) can0 0000E007#0CD20CD20CD30CD2
(1779322321.904291) can0 0000E008#0CD20CD30CD30CD2
(1779322321.905287) can0 0000E009#0CD20CD30CD20CD3
(1779322321.906336) can0 0000E010#0000000000000000
(1779322321.907330) can0 0000E011#0000000000000000
(1779322321.908312) can0 0000E012#0CD3000000000000
(1779322321.909343) can0 0000F001#0000000000000000
(1779322321.910330) can0 18FF28F4#10320000020D0000
(1779322321.911292) can0 18FE28F4#0CD30CD240400000
(1779322321.912311) can0 18FD28F4#1702FA6F00000000
(1779322321.913228) can0 4D4#000032007D0D0203
(1779322321.914228) can0 4D5#D20CD30C40400000
(1779322321.915305) can0 18914010#0CD3010CD2020000
(1779322321.916298) can0 18904010#020D020D753001FA
(1779322321.917299) can0 18FA28F4#123EA12C10270000
(1779322321.918298) can0 18FB28F4#D30CD20C40400000
(1779322321.919320) can0 18FC28F4#383200000D020000
(1779322321.920292) can0 18F810F3#0D02E80332640100
(1779322321.921325) can0 18F815F3#0000000010030000
(1779322321.922228) can0 273#000000000D023200
(1779322321.923229) can0 1E1#020D271001FA01FA
(1779322321.924236) can0 1F5#0000000000000000
(1779322321.925331) can0 0800A6A9#0000000000000000
(1779322321.926286) can0 1000A6A9#0D028813324A4A4A
(1779322321.927312) can0 1C00A6A9#0000000000030000
(1779322321.928331) can0 02018100#1003020D00000000
(1779322321.929325) can0 02028100#0000003264000000
(1779322321.930306) can0 02038100#0CD301010CD20102
(1779322321.931298) can0 02048100#4A01014A01010000
(1779322321.932229) can0 1AD#8514000059321818
(1779322321.933230) can0 2AD#D30C800C85140016
(1779322321.934242) can0 3AD#0000000000008514
(1779322321.935237) can0 4AD#EB00000000000000
(1779322321.936229) can0 76A#7F00000000000000
(1779322321.998873) can0 0000E005#1702440003B60591
(1779322321.999437) can0 1806E5F4#13C9010003B6023A
(1779322322.000304) can0 0000E000#13C913C9020D0000
(1779322322.001303) can0 0000E004#181803B603B601E1
(1779322322.002304) can0 0000E006#0CD20CD20CD20CD2
(1779322322.003297) can0 0000E007#0CD20CD20CD20CD2
(1779322322.004279) can0 0000E008#0CD30CD20CD30CD3
(1779322322.005279) can0 0000E009#0CD30CD30CD30CD5
(1779322322.006343) can0 0000E010#0000000000000000
(1779322322.007323) can0 0000E011#0000000000000000
(1779322322.008304) can0 0000E012#0CD3000200000000
(1779322322.009342) can0 0000F001#0000000000000000
(1779322322.010324) can0 18FF28F4#10320000020D0000
(1779322322.011304) can0 18FE28F4#0CD50CD240400000
(1779322322.012317) can0 18FD28F4#1702FA6F00000000
(1779322322.013234) can0 4D4#000032007D0D0203
(1779322322.014234) can0 4D5#D20CD50C40400000
(1779322322.015298) can0 18914010#0CD5100CD2010000
(1779322322.016288) can0 18904010#020D020D753001FA
(1779322322.017311) can0 18FA28F4#123EA12C10270000
(1779322322.018311) can0 18FB28F4#D50CD20C40400000
(1779322322.019336) can0 18FC28F4#383200000D020000
(1779322322.020282) can0 18F810F3#0D02E80332640100
(1779322322.021317) can0 18F815F3#0000000010030000
(1779322322.022235) can0 273#000000000D023200
(1779322322.023235) can0 1E1#020D271001FA01FA
(1779322322.024248) can0 1F5#0000000000000000
(1779322322.025324) can0 0800A6A9#0000000000000000
(1779322322.026273) can0 1000A6A9#0D028813324A4A4A
(1779322322.027337) can0 1C00A6A9#0000000000030000
(1779322322.028319) can0 02018100#1003020D00000000
(1779322322.029319) can0 02028100#0000003264000000
(1779322322.030299) can0 02038100#0CD501100CD20101
(1779322322.031312) can0 02048100#4A01014A01010000
(1779322322.032235) can0 1AD#8514000059321818
(1779322322.033235) can0 2AD#D50C800C85140016
(1779322322.034235) can0 3AD#0000000000008514
(1779322322.035267) can0 4AD#EB00000000000000
(1779322322.036236) can0 76A#7F00000000000000
(1779322322.098917) can0 0000E005#1702440003B60591
(1779322322.099482) can0 1806E5F4#13C9010003B6023A
(1779322322.100296) can0 0000E000#13C913C9020D0000
(1779322322.101293) can0 0000E004#181803B603B601E1
(1779322322.102296) can0 0000E006#0CD20CD20CD20CD2
(1779322322.103296) can0 0000E007#0CD20CD20CD20CD2
(1779322322.104309) can0 0000E008#0CD30CD20CD30CD3
(1779322322.105271) can0 0000E009#0CD30CD30CD30CD5
(1779322322.106334) can0 0000E010#0000000000000000
(1779322322.107322) can0 0000E011#0000000000000000
(1779322322.108303) can0 0000E012#0CD3000200000000
(1779322322.109336) can0 0000F001#0000000000000000
(1779322322.110316) can0 18FF28F4#10320000020D0000
(1779322322.111297) can0 18FE28F4#0CD50CD240400000
(1779322322.112341) can0 18FD28F4#1702FA6F00000000
(1779322322.113240) can0 4D4#000032007D0D0203
(1779322322.114239) can0 4D5#D20CD50C40400000
(1779322322.115304) can0 18914010#0CD5100CD2010000
(1779322322.116297) can0 18904010#020D020D753001FA
(1779322322.117294) can0 18FA28F4#123EA12C10270000
(1779322322.118297) can0 18FB28F4#D50CD20C40400000
(1779322322.119311) can0 18FC28F4#383200000D020000
(1779322322.120323) can0 18F810F3#0D02E80332640100
(1779322322.121324) can0 18F815F3#0000000010030000
(1779322322.122240) can0 273#000000000D023200
(1779322322.123241) can0 1E1#020D271001FA01FA
(1779322322.124241) can0 1F5#0000000000000000
(1779322322.125310) can0 0800A6A9#0000000000000000
(1779322322.126278) can0 1000A6A9#0D028813324A4A4A
(1779322322.127311) can0 1C00A6A9#0000000000030000
(1779322322.128368) can0 02018100#1003020D00000000
(1779322322.129318) can0 02028100#0000003264000000
(1779322322.130304) can0 02038100#0CD501100CD20101
(1779322322.131299) can0 02048100#4A01014A01010000
(1779322322.132240) can0 1AD#8514000059321818
(1779322322.133241) can0 2AD#D50C800C85140016
(1779322322.134240) can0 3AD#0000000000008514
(1779322322.135241) can0 4AD#EB00000000000000
(1779322322.136241) can0 76A#7F00000000000000
(1779322322.215908) can0 0000E005#1702440003B60591
(1779322322.216476) can0 1806E5F4#13C9010003B6023A
(1779322322.217298) can0 0000E000#13C913C9020D0000
(1779322322.218298) can0 0000E004#181803B603B601E1
(1779322322.219294) can0 0000E006#0CD20CD20CD20CD2
(1779322322.220292) can0 0000E007#0CD20CD30CD30CD2
(1779322322.221290) can0 0000E008#0CD30CD30CD30CD2
(1779322322.222272) can0 0000E009#0CD30CD30CD30CD5
(1779322322.223338) can0 0000E010#0000000000000000
(1779322322.224316) can0 0000E011#0000000000000000
(1779322322.225297) can0 0000E012#0CD3000200000000
(1779322322.226284) can0 0000E013#4542323630354C43
(1779322322.227307) can0 0000E014#3134323300000000
(1779322322.228323) can0 0000E015#0000000000000003
(1779322322.229323) can0 0000F000#0000000000000000
(1779322322.230322) can0 0000F001#0000000000000000
(1779322322.231300) can0 18FF28F4#10320000020D0000
(1779322322.232285) can0 18FE28F4#0CD50CD240400000
(1779322322.233304) can0 18FD28F4#1702FA6F00000000
(1779322322.234246) can0 4D4#000032007D0D0203
(1779322322.235247) can0 4D5#D20CD50C40400000
(1779322322.236291) can0 18914010#0CD5100CD2010000
(1779322322.237285) can0 18904010#020D020D753001FA
(1779322322.238317) can0 18924010#4001400100000000
(1779322322.239293) can0 18934010#000000140000BBF7
(1779322322.240317) can0 18944010#1003000000000000
(1779322322.241331) can0 18954010#0000000000000000
(1779322322.242343) can0 18954010#0100000000000000
(1779322322.243324) can0 18954010#0200000000000000
(1779322322.244323) can0 18954010#0300000000000000
(1779322322.245324) can0 18954010#0400000000000000
(1779322322.246324) can0 18954010#0500000000000000
(1779322322.247318) can0 18964010#0040404000000000
(1779322322.248317) can0 18974010#0000000000000000
(1779322322.249311) can0 18984010#0000000000000000
(1779322322.250311) can0 18FA28F4#123EA12C10270000
(1779322322.251286) can0 18FB28F4#D50CD20C40400000
(1779322322.252318) can0 18FC28F4#383200000D020000
(1779322322.253287) can0 18F810F3#0D02E80332640100
(1779322322.254298) can0 18F811F3#D50C1001D20C0101
(1779322322.255294) can0 18F812F3#4001014001010000
(1779322322.256324) can0 18F813F3#0101000000000000
(1779322322.257287) can0 18F814F3#3200EA1AA9015F00
(1779322322.258350) can0 18F815F3#0000000010030000
(1779322322.259249) can0 273#000000000D023200
(1779322322.260248) can0 1E1#020D271001FA01FA
(1779322322.261249) can0 1F5#0000000000000000
(1779322322.262318) can0 0800A6A9#0000000000000000
(1779322322.263279) can0 1000A6A9#0D028813324A4A4A
(1779322322.264312) can0 1C00A6A9#0000000000030000
(1779322322.265313) can0 02018100#1003020D00000000
(1779322322.266357) can0 02028100#0000003264000000
(1779322322.267287) can0 02038100#0CD501100CD20101
(1779322322.268305) can0 02048100#4A01014A01010000
(1779322322.269190) can0 1AD#8514000059321818
(1779322322.270188) can0 2AD#D50C800C85140016
(1779322322.271249) can0 3AD#0000000000008514
(1779322322.272249) can0 4AD#EB00000000000000
(1779322322.273249) can0 76A#7F00000000000000
(1779322322.331879) can0 0000E005#1702440003B60591
(1779322322.332436) can0 1806E5F4#13C9010003B6023A
(1779322322.333290) can0 0000E000#13C913C9020D0000
(1779322322.334291) can0 0000E004#181803B603B601E1
(1779322322.335322) can0 0000E006#0CD20CD20CD20CD2
(1779322322.336284) can0 0000E007#0CD20CD30CD30CD2
(1779322322.337284) can0 0000E008#0CD30CD30CD30CD2
(1779322322.338266) can0 0000E009#0CD30CD30CD30CD5
(1779322322.339329) can0 0000E010#0000000000000000
(1779322322.340330) can0 0000E011#0000000000000000
(1779322322.341311) can0 0000E012#0CD3000200000000
(1779322322.342324) can0 0000F001#0000000000000000
(1779322322.343336) can0 18FF28F4#10320000020D0000
(1779322322.344284) can0 18FE28F4#0CD50CD240400000
(1779322322.345305) can0 18FD28F4#1702FA6F00000000
(1779322322.346253) can0 4D4#000032007D0D0203
(1779322322.347193) can0 4D5#D20CD50C40400000
(1779322322.348292) can0 18914010#0CD5100CD2010000
(1779322322.349292) can0 18904010#020D020D753001FA
(1779322322.350291) can0 18FA28F4#123EA12C10270000
(1779322322.351336) can0 18FB28F4#D50CD20C40400000
(1779322322.352318) can0 18FC28F4#383200000D020000
(1779322322.353286) can0 18F810F3#0D02E80332640100
(1779322322.354318) can0 18F815F3#0000000010030000
(1779322322.355253) can0 273#000000000D023200
(1779322322.356254) can0 1E1#020D271001FA01FA
(1779322322.357253) can0 1F5#0000000000000000
(1779322322.358318) can0 0800A6A9#0000000000000000
(1779322322.359279) can0 1000A6A9#0D028813324A4A4A
(1779322322.360308) can0 1C00A6A9#0000000000030000
(1779322322.361311) can0 02018100#1003020D00000000
(1779322322.362305) can0 02028100#0000003264000000
(1779322322.363286) can0 02038100#0CD501100CD20101
(1779322322.364299) can0 02048100#4A01014A01010000
(1779322322.365195) can0 1AD#8514000059321818
(1779322322.366194) can0 2AD#D50C800C85140016
(1779322322.367254) can0 3AD#0000000000008514
(1779322322.368254) can0 4AD#EB00000000000000
(1779322322.369255) can0 76A#7F00000000000000
(1779322322.431860) can0 0000E005#1702440003B60591
(1779322322.432418) can0 1806E5F4#13C9010003B6023A
(1779322322.433305) can0 0000E000#13C913C9020D0000
(1779322322.434303) can0 0000E004#181803B603B601E1
(1779322322.435284) can0 0000E006#0CD20CD20CD20CD2
(1779322322.436284) can0 0000E007#0CD20CD30CD30CD2
(1779322322.437285) can0 0000E008#0CD30CD30CD30CD2
(1779322322.438278) can0 0000E009#0CD30CD30CD30CD5
(1779322322.439329) can0 0000E010#0000000000000000
(1779322322.440322) can0 0000E011#0000000000000000
(1779322322.441306) can0 0000E012#0CD3000200000000
(1779322322.442322) can0 0000F001#0000000000000000
(1779322322.443304) can0 18FF28F4#10320000020D0000
(1779322322.444303) can0 18FE28F4#0CD50CD240400000
(1779322322.445298) can0 18FD28F4#1702FA6F00000000
(1779322322.446259) can0 4D4#000032007D0D0203
(1779322322.447259) can0 4D5#D20CD50C40400000
(1779322322.448285) can0 18914010#0CD5100CD2010000
(1779322322.449298) can0 18904010#020D020D753001FA
(1779322322.450298) can0 18FA28F4#123EA12C10270000
(1779322322.451298) can0 18FB28F4#D50CD20C40400000
(1779322322.452310) can0 18FC28F4#383200000D020000
(1779322322.453291) can0 18F810F3#0D02E80332640100
(1779322322.454304) can0 18F815F3#0000000010030000
(1779322322.455260) can0 273#000000000D023200
(1779322322.456201) can0 1E1#020D271001FA01FA
(1779322322.457261) can0 1F5#0000000000000000
(1779322322.458310) can0 0800A6A9#0000000000000000
(1779322322.459279) can0 1000A6A9#0D028813324A4A4A
(1779322322.460304) can0 1C00A6A9#0000000000030000
(1779322322.461306) can0 02018100#1003020D00000000
(1779322322.462317) can0 02028100#0000003264000000
(1779322322.463298) can0 02038100#0CD501100CD20101
(1779322322.464298) can0 02048100#4A01014A01010000
(1779322322.465193) can0 1AD#8514000059321818
(1779322322.466192) can0 2AD#D50C800C85140016
(1779322322.467260) can0 3AD#0000000000008514
(1779322322.468259) can0 4AD#EB00000000000000
(1779322322.469260) can0 76A#7F00000000000000
(1779322322.531903) can0 0000E005#1702440003B60591
(1779322322.532465) can0 1806E5F4#13C9010003B6023A
(1779322322.533297) can0 0000E000#13C913C9020D0000
(1779322322.534297) can0 0000E004#181803B603B601E1
(1779322322.535276) can0 0000E006#0CD30CD20CD20CD2
(1779322322.536290) can0 0000E007#0CD20CD20CD30CD2
(1779322322.537289) can0 0000E008#0CD30CD30CD20CD2
(1779322322.538272) can0 0000E009#0CD30CD20CD30CD5
(1779322322.539321) can0 0000E010#0000000000000000
(1779322322.540316) can0 0000E011#0000000000000000
(1779322322.541296) can0 0000E012#0CD3000200000000
(1779322322.542325) can0 0000F001#0000000000000000
(1779322322.543296) can0 18FF28F4#10320000020D0000
(1779322322.544296) can0 18FE28F4#0CD50CD240400000
(1779322322.545290) can0 18FD28F4#1702FA6F00000000
(1779322322.546204) can0 4D4#000032007D0D0203
(1779322322.547204) can0 4D5#D20CD50C40400000
(1779322322.548303) can0 18914010#0CD5100CD2020000
(1779322322.549284) can0 18904010#020D020D753001FA
(1779322322.550297) can0 18FA28F4#123EA12C10270000
(1779322322.551277) can0 18FB28F4#D50CD20C40400000
(1779322322.552310) can0 18FC28F4#383200000D020000
(1779322322.553273) can0 18F810F3#0D02E80332640100
(1779322322.554310) can0 18F815F3#0000000010030000
(1779322322.555205) can0 273#000000000D023200
(1779322322.556205) can0 1E1#020D271001FA01FA
(1779322322.557265) can0 1F5#0000000000000000
(1779322322.558329) can0 0800A6A9#0000000000000000
(1779322322.559278) can0 1000A6A9#0D028813324A4A4A
(1779322322.560310) can0 1C00A6A9#0000000000030000
(1779322322.561304) can0 02018100#1003020D00000000
(1779322322.562304) can0 02028100#0000003264000000
(1779322322.563304) can0 02038100#0CD501100CD20102
(1779322322.564297) can0 02048100#4A01014A01010000
(1779322322.565191) can0 1AD#8514000059321818
(1779322322.566266) can0 2AD#D50C800C85140016
(1779322322.567265) can0 3AD#0000000000008514
(1779322322.568206) can0 4AD#EB00000000000000
(1779322322.569266) can0 76A#7F00000000000000
(1779322322.631871) can0 0000E005#1702440003B60591
(1779322322.632430) can0 1806E5F4#13C9010003B6023A
(1779322322.633302) can0 0000E000#13C913C9020D0000
(1779322322.634277) can0 0000E004#181803B603B601E1
(1779322322.635315) can0 0000E006#0CD30CD20CD20CD2
(1779322322.636276) can0 0000E007#0CD20CD20CD30CD2
(1779322322.637270) can0 0000E008#0CD30CD30CD20CD2
(1779322322.638269) can0 0000E009#0CD30CD20CD30CD5
(1779322322.639321) can0 0000E010#0000000000000000
(1779322322.640321) can0 0000E011#0000000000000000
(1779322322.641302) can0 0000E012#0CD3000200000000
(1779322322.642314) can0 0000F001#0000000000000000
(1779322322.643327) can0 18FF28F4#10320000020D0000
(1779322322.644276) can0 18FE28F4#0CD50CD240400000
(1779322322.645296) can0 18FD28F4#1702FA6F00000000
(1779322322.646199) can0 4D4#000032007D0D0203
(1779322322.647186) can0 4D5#D20CD50C40400000
(1779322322.648289) can0 18914010#0CD5100CD2020000
(1779322322.649291) can0 18904010#020D020D753001FA
(1779322322.650293) can0 18FA28F4#123EA12C10270000
(1779322322.651315) can0 18FB28F4#D50CD20C40400000
(1779322322.652315) can0 18FC28F4#383200000D020000
(1779322322.653278) can0 18F810F3#0D02E80332640100
(1779322322.654309) can0 18F815F3#0000000010030000
(1779322322.655205) can0 273#000000000D023200
(1779322322.656186) can0 1E1#020D271001FA01FA
(1779322322.657271) can0 1F5#0000000000000000
(1779322322.658309) can0 0800A6A9#0000000000000000
(1779322322.659316) can0 1000A6A9#0D028813324A4A4A
(1779322322.660296) can0 1C00A6A9#0000000000030000
(1779322322.661309) can0 02018100#1003020D00000000
(1779322322.662303) can0 02028100#0000003264000000
(1779322322.663291) can0 02038100#0CD501100CD20102
(1779322322.664283) can0 02048100#4A01014A01010000
(1779322322.665176) can0 1AD#8514000059321818
(1779322322.666174) can0 2AD#D50C800C85140016
(1779322322.667205) can0 3AD#0000000000008514
(1779322322.668271) can0 4AD#EB00000000000000
(1779322322.669213) can0 76A#7F00000000000000
(1779322322.748902) can0 0000E005#1702440003B60591
(1779322322.749469) can0 1806E5F4#13C9010003B6023A
(1779322322.750289) can0 0000E000#13C913C9020D0000
(1779322322.751290) can0 0000E004#181803B603B601E1
(1779322322.752276) can0 0000E006#0CD30CD20CD20CD3
(1779322322.753277) can0 0000E007#0CD20CD20CD30CD2
(1779322322.754276) can0 0000E008#0CD30CD30CD20CD2
(1779322322.755277) can0 0000E009#0CD30CD30CD30CD5
(1779322322.756309) can0 0000E010#0000000000000000
(1779322322.757322) can0 0000E011#0000000000000000
(1779322322.758289) can0 0000E012#0CD3000200000000
(1779322322.759277) can0 0000E013#4542323630354C43
(1779322322.760292) can0 0000E014#3134323300000000
(1779322322.761316) can0 0000E015#0000000000000003
(1779322322.762308) can0 0000F000#0000000000000000
(1779322322.763309) can0 0000F001#0000000000000000
(1779322322.764308) can0 18FF28F4#10320000020D0000
(1779322322.765291) can0 18FE28F4#0CD50CD240400000
(1779322322.766290) can0 18FD28F4#1702FA6F00000000
(1779322322.767194) can0 4D4#000032007D0D0203
(1779322322.768180) can0 4D5#D20CD50C40400000
(1779322322.769278) can0 18914010#0CD5100CD2020000
(1779322322.770277) can0 18904010#020D020D753001FA
(1779322322.771297) can0 18924010#4001400100000000
(1779322322.772293) can0 18934010#000000150000BBF7
(1779322322.773309) can0 18944010#1003000000000000
(1779322322.774322) can0 18954010#0000000000000000
(1779322322.775323) can0 18954010#0100000000000000
(1779322322.776302) can0 18954010#0200000000000000
(1779322322.777317) can0 18954010#0300000000000000
(1779322322.778316) can0 18954010#0400000000000000
(1779322322.779316) can0 18954010#0500000000000000
(1779322322.780297) can0 18964010#0040404000000000
(1779322322.781324) can0 18974010#0000000000000000
(1779322322.782303) can0 18984010#0000000000000000
(1779322322.783285) can0 18FA28F4#123EA12C10270000
(1779322322.784278) can0 18FB28F4#D50CD20C40400000
(1779322322.785311) can0 18FC28F4#383200000D020000
(1779322322.786278) can0 18F810F3#0D02E80332640100
(1779322322.787292) can0 18F811F3#D50C1001D20C0201
(1779322322.788286) can0 18F812F3#4001014001010000
(1779322322.789336) can0 18F813F3#0101000000000000
(1779322322.790278) can0 18F814F3#3200EA1AA9015F00
(1779322322.791311) can0 18F815F3#0000000010030000
(1779322322.792206) can0 273#000000000D023200
(1779322322.793183) can0 1E1#020D271001FA01FA
(1779322322.794219) can0 1F5#0000000000000000
(1779322322.795298) can0 0800A6A9#0000000000000000
(1779322322.796278) can0 1000A6A9#0D028813324A4A4A
(1779322322.797330) can0 1C00A6A9#0000000000030000
(1779322322.798310) can0 02018100#1003020D00000000
(1779322322.799311) can0 02028100#0000003264000000
(1779322322.800286) can0 02038100#0CD501100CD20102
(1779322322.801285) can0 02048100#4A01014A01010000
(1779322322.802182) can0 1AD#8514000059321818
(1779322322.803177) can0 2AD#D50C800C85140016
(1779322322.804212) can0 3AD#0000000000008514
(1779322322.805279) can0 4AD#EB00000000000000
(1779322322.806208) can0 76A#7F00000000000000
(1779322322.864852) can0 0000E005#1702440003B60591
(1779322322.865404) can0 1806E5F4#13C9010003B6023A
(1779322322.866315) can0 0000E000#13C913C9020D0000
(1779322322.867283) can0 0000E004#181803B603B601E1
(1779322322.868283) can0 0000E006#0CD30CD20CD20CD3
(1779322322.869282) can0 0000E007#0CD20CD20CD30CD2
(1779322322.870284) can0 0000E008#0CD30CD30CD20CD2
(1779322322.871283) can0 0000E009#0CD30CD30CD30CD5
(1779322322.872316) can0 0000E010#0000000000000000
(1779322322.873315) can0 0000E011#0000000000000000
(1779322322.874328) can0 0000E012#0CD3000200000000
(1779322322.875308) can0 0000F001#0000000000000000
(1779322322.876309) can0 18FF28F4#10320000020D0000
(1779322322.877285) can0 18FE28F4#0CD50CD240400000
(1779322322.878284) can0 18FD28F4#1702FA6F00000000
(1779322322.879193) can0 4D4#000032007D0D0203
(1779322322.880180) can0 4D5#D20CD50C40400000
(1779322322.881284) can0 18914010#0CD5100CD2020000
(1779322322.882329) can0 18904010#020D020D753001FA
(1779322322.883284) can0 18FA28F4#123EA12C10270000
(1779322322.884284) can0 18FB28F4#D50CD20C40400000
(1779322322.885303) can0 18FC28F4#383200000D020000
(1779322322.886284) can0 18F810F3#0D02E80332640100
(1779322322.887304) can0 18F815F3#0000000010030000
(1779322322.888194) can0 273#000000000D023200
(1779322322.889193) can0 1E1#020D271001FA01FA
(1779322322.890284) can0 1F5#0000000000000000
(1779322322.891310) can0 0800A6A9#0000000000000000
(1779322322.892284) can0 1000A6A9#0D028813324A4A4A
(1779322322.893300) can0 1C00A6A9#0000000000030000
(1779322322.894298) can0 02018100#1003020D00000000
(1779322322.895297) can0 02028100#0000003264000000
(1779322322.896291) can0 02038100#0CD501100CD20102
(1779322322.897292) can0 02048100#4A01014A01010000
(1779322322.898182) can0 1AD#8514000059321818
(1779322322.899166) can0 2AD#D50C800C85140016
(1779322322.900194) can0 3AD#0000000000008514
(1779322322.901205) can0 4AD#EB00000000000000
(1779322322.902201) can0 76A#7F00000000000000
(1779322322.964908) can0 0000E005#1702440003B60591
(1779322322.965488) can0 1806E5F4#13C9010003B6023A
(1779322322.966288) can0 0000E000#13C913C9020D0000
(1779322322.967333) can0 0000E004#181803B603B601E1
(1779322322.968289) can0 0000E006#0CD30CD20CD20CD3
(1779322322.969289) can0 0000E007#0CD20CD20CD30CD2
(1779322322.970289) can0 0000E008#0CD30CD30CD20CD2
(1779322322.971289) can0 0000E009#0CD30CD30CD30CD5
(1779322322.972302) can0 0000E010#0000000000000000
(1779322322.973302) can0 0000E011#0000000000000000
(1779322322.974288) can0 0000E012#0CD3000200000000
(1779322322.975314) can0 0000F001#0000000000000000
(1779322322.976296) can0 18FF28F4#10320000020D0000
(1779322322.977290) can0 18FE28F4#0CD50CD240400000
(1779322322.978289) can0 18FD28F4#1702FA6F00000000
(1779322322.979187) can0 4D4#000032007D0D0203
(1779322322.980179) can0 4D5#D20CD50C40400000
(1779322322.981290) can0 18914010#0CD5100CD2020000
(1779322322.982289) can0 18904010#020D020D753001FA
(1779322322.983290) can0 18FA28F4#123EA12C10270000
(1779322322.984290) can0 18FB28F4#D50CD20C40400000
(1779322322.985310) can0 18FC28F4#383200000D020000
(1779322322.986289) can0 18F810F3#0D02E80332640100
(1779322322.987303) can0 18F815F3#0000000010030000
(1779322322.988196) can0 273#000000000D023200
(1779322322.989175) can0 1E1#020D271001FA01FA
(1779322322.990209) can0 1F5#0000000000000000
(1779322322.991290) can0 0800A6A9#0000000000000000
(1779322322.992290) can0 1000A6A9#0D028813324A4A4A
(1779322322.993291) can0 1C00A6A9#0000000000030000
(1779322322.994296) can0 02018100#1003020D00000000
(1779322322.995297) can0 02028100#0000003264000000
(1779322322.996290) can0 02038100#0CD501100CD20102
(1779322322.997291) can0 02048100#4A01014A01010000
(1779322322.998168) can0 1AD#8514000059321818
(1779322322.999166) can0 2AD#D50C800C85140016
(1779322323.000193) can0 3AD#0000000000008514
(1779322323.001207) can0 4AD#EB00000000000000
(1779322323.002203) can0 76A#7F00000000000000
(1779322323.025091) can0 00000E00#00354C4331343233
(1779322323.064920) can0 0000E005#1702440003B60591
(1779322323.065464) can0 1806E5F4#13C9010003B6023A
(1779322323.066303) can0 0000E000#13C913C9020D0000
(1779322323.067314) can0 0000E004#181803B603B601E1
(1779322323.068308) can0 0000E006#0CD30CD20CD20CD2
(1779322323.069310) can0 0000E007#0CD20CD20CD20CD2
(1779322323.070310) can0 0000E008#0CD30CD30CD20CD2
(1779322323.071309) can0 0000E009#0CD30CD30CD30CD5
(1779322323.072318) can0 0000E010#0000000000000000
(1779322323.073318) can0 0000E011#0000000000000000
(1779322323.074317) can0 0000E012#0CD3000200000000
(1779322323.075327) can0 0000F001#0000000000000000
(1779322323.076307) can0 18FF28F4#10320000020D0000
(1779322323.077305) can0 18FE28F4#0CD50CD240400000
(1779322323.078304) can0 18FD28F4#1702FA6F00000000
(1779322323.079190) can0 4D4#000032007D0D0203
(1779322323.080190) can0 4D5#D20CD50C40400000
(1779322323.081301) can0 18914010#0CD5100CD2020000
(1779322323.082300) can0 18904010#020D020D753001FA
(1779322323.083296) can0 18FA28F4#123EA12C10270000
(1779322323.084296) can0 18FB28F4#D50CD20C40400000
(1779322323.085308) can0 18FC28F4#383200000D020000
(1779322323.086300) can0 18F810F3#0D02E80332640100
(1779322323.087300) can0 18F815F3#0000000010030000
(1779322323.088196) can0 273#000000000D023200
(1779322323.089208) can0 1E1#020D271001FA01FA
(1779322323.090207) can0 1F5#0000000000000000
(1779322323.091297) can0 0800A6A9#0000000000000000
(1779322323.092297) can0 1000A6A9#0D028813324A4A4A
(1779322323.093295) can0 1C00A6A9#0000000000030000
(1779322323.094293) can0 02018100#1003020D00000000
(1779322323.095294) can0 02028100#0000003264000000
(1779322323.096293) can0 02038100#0CD501100CD20102
(1779322323.097301) can0 02048100#4A01014A01010000
(1779322323.098164) can0 1AD#8514000059321818
(1779322323.099170) can0 2AD#D50C800C85140016
(1779322323.100199) can0 3AD#0000000000008514
(1779322323.101196) can0 4AD#EB00000000000000
(1779322323.102190) can0 76A#7F00000000000000
(1779322323.164851) can0 0000E005#1702440003B60591
(1779322323.165400) can0 1806E5F4#13C9010003B6023A
(1779322323.166299) can0 0000E000#13C913C9020D0000
(1779322323.167298) can0 0000E004#181803B603B601E1
(1779322323.168300) can0 0000E006#0CD30CD20CD20CD2
(1779322323.169299) can0 0000E007#0CD20CD20CD20CD2
(1779322323.170298) can0 0000E008#0CD30CD30CD20CD2
(1779322323.171299) can0 0000E009#0CD30CD30CD30CD5
(1779322323.172299) can0 0000E010#0000000000000000
(1779322323.173298) can0 0000E011#0000000000000000
(1779322323.174318) can0 0000E012#0CD3000200000000
(1779322323.175298) can0 0000F001#0000000000000000
(1779322323.176301) can0 18FF28F4#10320000020D0000
(1779322323.177300) can0 18FE28F4#0CD50CD240400000
(1779322323.178298) can0 18FD28F4#1702FA6F00000000
(1779322323.179185) can0 4D4#000032007D0D0203
(1779322323.180182) can0 4D5#D20CD50C40400000
(1779322323.181301) can0 18914010#0CD5100CD2020000
(1779322323.182308) can0 18904010#020D020D753001FA
(1779322323.183298) can0 18FA28F4#123EA12C10270000
(1779322323.184300) can0 18FB28F4#D50CD20C40400000
(1779322323.185301) can0 18FC28F4#383200000D020000
(1779322323.186299) can0 18F810F3#0D02E80332640100
(1779322323.187300) can0 18F815F3#0000000010030000
(1779322323.188189) can0 273#000000000D023200
(1779322323.189176) can0 1E1#020D271001FA01FA
(1779322323.190300) can0 1F5#0000000000000000
(1779322323.191299) can0 0800A6A9#0000000000000000
(1779322323.192301) can0 1000A6A9#0D028813324A4A4A
(1779322323.193301) can0 1C00A6A9#0000000000030000
(1779322323.194299) can0 02018100#1003020D00000000
(1779322323.195300) can0 02028100#0000003264000000
(1779322323.196301) can0 02038100#0CD501100CD20102
(1779322323.197300) can0 02048100#4A01014A01010000
(1779322323.198171) can0 1AD#8514000059321818
(1779322323.199169) can0 2AD#D50C800C85140016
(1779322323.200191) can0 3AD#0000000000008514
(1779322323.201191) can0 4AD#EB00000000000000
(1779322323.202183) can0 76A#7F00000000000000
(1779322323.281867) can0 0000E005#1702440003B60591
(1779322323.282414) can0 1806E5F4#13C9010003B6023A
(1779322323.283306) can0 0000E000#13C913C9020D0000
(1779322323.284305) can0 0000E004#181803B603B601E1
(1779322323.285306) can0 0000E006#0CD30CD20CD20CD2
(1779322323.286247) can0 0000E007#0CD20CD30CD30CD3
(1779322323.287244) can0 0000E008#0CD30CD30CD30CD2
(1779322323.288246) can0 0000E009#0CD30CD30CD30CD3
(1779322323.289306) can0 0000E010#0000000000000000
(1779322323.290307) can0 0000E011#0000000000000000
(1779322323.291307) can0 0000E012#0CD3000000000000
(1779322323.292305) can0 0000E013#4542323630354C43
(1779322323.293307) can0 0000E014#3134323300000000
(1779322323.294306) can0 0000E015#0000000000000003
(1779322323.295305) can0 0000F000#0000000000000000
(1779322323.296307) can0 0000F001#0000000000000000
(1779322323.297306) can0 18FF28F4#10320000020D0000
(1779322323.298308) can0 18FE28F4#0CD30CD240400000
(1779322323.299306) can0 18FD28F4#1702FA6F00000000
(1779322323.300188) can0 4D4#000032007D0D0203
(1779322323.301176) can0 4D5#D20CD30C40400000
(1779322323.302307) can0 18914010#0CD3010CD2020000
(1779322323.303305) can0 18904010#020D020D753001FA
(1779322323.304307) can0 18924010#4001400100000000
(1779322323.305307) can0 18934010#000000160000BBF7
(1779322323.306307) can0 18944010#1003000000000000
(1779322323.307307) can0 18954010#0000000000000000
(1779322323.308305) can0 18954010#0100000000000000
(1779322323.309307) can0 18954010#0200000000000000
(1779322323.310307) can0 18954010#0300000000000000
(1779322323.311306) can0 18954010#0400000000000000
(1779322323.312307) can0 18954010#0500000000000000
(1779322323.313306) can0 18964010#0040404000000000
(1779322323.314307) can0 18974010#0000000000000000
(1779322323.315308) can0 18984010#0000000000000000
(1779322323.316306) can0 18FA28F4#123EA12C10270000
(1779322323.317307) can0 18FB28F4#D30CD20C40400000
(1779322323.318308) can0 18FC28F4#383200000D020000
(1779322323.319306) can0 18F810F3#0D02E80332640100
(1779322323.320308) can0 18F811F3#D30C0101D20C0201
(1779322323.321307) can0 18F812F3#4001014001010000
(1779322323.322308) can0 18F813F3#0101000000000000
(1779322323.323308) can0 18F814F3#3200EA1AA9015F00
(1779322323.324306) can0 18F815F3#0000000010030000
(1779322323.325194) can0 273#000000000D023200
(1779322323.326176) can0 1E1#020D271001FA01FA
(1779322323.327206) can0 1F5#0000000000000000
(1779322323.328316) can0 0800A6A9#0000000000000000
(1779322323.329307) can0 1000A6A9#0D028813324A4A4A
(1779322323.330309) can0 1C00A6A9#0000000000030000
(1779322323.331309) can0 02018100#1003020D00000000
(1779322323.332307) can0 02028100#0000003264000000
(1779322323.333309) can0 02038100#0CD301010CD20102
(1779322323.334308) can0 02048100#4A01014A01010000
(1779322323.335171) can0 1AD#8514000059321818
(1779322323.336199) can0 2AD#D30C800C85140016
(1779322323.337184) can0 3AD#0000000000008514
(1779322323.338194) can0 4AD#EB00000000000000
(1779322323.339194) can0 76A#7F00000000000000
(1779322323.397851) can0 0000E005#1702440003B60591
(1779322323.398403) can0 1806E5F4#13C9010003B6023A
(1779322323.399311) can0 0000E000#13C913C9020D0000
(1779322323.400314) can0 0000E004#181803B603B601E1
(1779322323.401314) can0 0000E006#0CD30CD20CD20CD2
(1779322323.402252) can0 0000E007#0CD20CD30CD30CD3
(1779322323.403245) can0 0000E008#0CD30CD30CD30CD2
(1779322323.404247) can0 0000E009#0CD30CD30CD30CD3
(1779322323.405333) can0 0000E010#0000000000000000
(1779322323.406312) can0 0000E011#0000000000000000
(1779322323.407313) can0 0000E012#0CD3000000000000
(1779322323.408312) can0 0000F001#0000000000000000
(1779322323.409312) can0 18FF28F4#10320000020D0000
(1779322323.410311) can0 18FE28F4#0CD30CD240400000
(1779322323.411314) can0 18FD28F4#1702FA6F00000000
(1779322323.412182) can0 4D4#000032007D0D0203
(1779322323.413214) can0 4D5#D20CD30C40400000
(1779322323.414316) can0 18914010#0CD3010CD2020000
(1779322323.415253) can0 18904010#020D020D753001FA
(1779322323.416314) can0 18FA28F4#123EA12C10270000
(1779322323.417314) can0 18FB28F4#D30CD20C40400000
(1779322323.418312) can0 18FC28F4#383200000D020000
(1779322323.419254) can0 18F810F3#0D02E80332640100
(1779322323.420313) can0 18F815F3#0000000010030000
(1779322323.421226) can0 273#000000000D023200
(1779322323.422162) can0 1E1#020D271001FA01FA
(1779322323.423195) can0 1F5#0000000000000000
(1779322323.424315) can0 0800A6A9#0000000000000000
(1779322323.425230) can0 1000A6A9#0D028813324A4A4A
(1779322323.426314) can0 1C00A6A9#0000000000030000
(1779322323.427312) can0 02018100#1003020D00000000
(1779322323.428316) can0 02028100#0000003264000000
(1779322323.429314) can0 02038100#0CD301010CD20102
(1779322323.430312) can0 02048100#4A01014A01010000
(1779322323.431159) can0 1AD#8514000059321818
(1779322323.432150) can0 2AD#D30C800C85140016
(1779322323.433185) can0 3AD#0000000000008514
(1779322323.434197) can0 4AD#EB00000000000000
(1779322323.435195) can0 76A#7F00000000000000
(1779322323.497880) can0 0000E005#1702440003B60591
(1779322323.498424) can0 1806E5F4#13C9010003B6023A
(1779322323.499318) can0 0000E000#13C913C9020D0000
(1779322323.500251) can0 0000E004#181803B603B601E1
(1779322323.501253) can0 0000E006#0CD30CD20CD20CD2
(1779322323.502250) can0 0000E007#0CD20CD30CD30CD3
(1779322323.503252) can0 0000E008#0CD30CD30CD30CD2
(1779322323.504226) can0 0000E009#0CD30CD30CD30CD3
(1779322323.505319) can0 0000E010#0000000000000000
(1779322323.506319) can0 0000E011#0000000000000000
(1779322323.507317) can0 0000E012#0CD3000000000000
(1779322323.508319) can0 0000F001#0000000000000000
(1779322323.509318) can0 18FF28F4#10320000020D0000
(1779322323.510248) can0 18FE28F4#0CD30CD240400000
(1779322323.511318) can0 18FD28F4#1702FA6F00000000
(1779322323.512184) can0 4D4#000032007D0D0203
(1779322323.513168) can0 4D5#D20CD30C40400000
(1779322323.514248) can0 18914010#0CD3010CD2020000
(1779322323.515257) can0 18904010#020D020D753001FA
(1779322323.516257) can0 18FA28F4#123EA12C10270000
(1779322323.517258) can0 18FB28F4#D30CD20C40400000
(1779322323.518330) can0 18FC28F4#383200000D020000
(1779322323.519246) can0 18F810F3#0D02E80332640100
(1779322323.520318) can0 18F815F3#0000000010030000
(1779322323.521176) can0 273#000000000D023200
(1779322323.522173) can0 1E1#020D271001FA01FA
(1779322323.523191) can0 1F5#0000000000000000
(1779322323.524318) can0 0800A6A9#0000000000000000
(1779322323.525228) can0 1000A6A9#0D028813324A4A4A
(1779322323.526320) can0 1C00A6A9#0000000000030000
(1779322323.527318) can0 02018100#1003020D00000000
(1779322323.528318) can0 02028100#0000003264000000
(1779322323.529320) can0 02038100#0CD301010CD20102
(1779322323.530321) can0 02048100#4A01014A01010000
(1779322323.531163) can0 1AD#8514000059321818
(1779322323.532162) can0 2AD#D30C800C85140016
(1779322323.533175) can0 3AD#0000000000008514
(1779322323.534189) can0 4AD#EB00000000000000
(1779322323.535201) can0 76A#7F00000000000000
(1779322323.597840) can0 0000E005#1702440003B60591
(1779322323.598387) can0 1806E5F4#13C9010003B6023A
(1779322323.599272) can0 0000E000#13C913C9020D0000
(1779322323.600264) can0 0000E004#181803B603B601E1
(1779322323.601239) can0 0000E006#0CD30CD20CD20CD2
(1779322323.602238) can0 0000E007#0CD20CD20CD30CD3
(1779322323.603235) can0 0000E008#0CD30CD30CD30CD2
(1779322323.604235) can0 0000E009#0CD30CD30CD30CD5
(1779322323.605326) can0 0000E010#0000000000000000
(1779322323.606323) can0 0000E011#0000000000000000
(1779322323.607254) can0 0000E012#0CD3000200000000
(1779322323.608322) can0 0000F001#0000000000000000
(1779322323.609324) can0 18FF28F4#10320000020D0000
(1779322323.610241) can0 18FE28F4#0CD50CD240400000
(1779322323.611266) can0 18FD28F4#1702FA6F00000000
(1779322323.612196) can0 4D4#000032007D0D0203
(1779322323.613167) can0 4D5#D20CD50C40400000
(1779322323.614258) can0 18914010#0CD5100CD2020000
(1779322323.615254) can0 18904010#020D020D753001FA
(1779322323.616247) can0 18FA28F4#123EA12C10270000
(1779322323.617245) can0 18FB28F4#D50CD20C40400000
(1779322323.618324) can0 18FC28F4#383200000D020000
(1779322323.619241) can0 18F810F3#0D02E80332640100
(1779322323.620324) can0 18F815F3#0000000010030000
(1779322323.621175) can0 273#000000000D023200
(1779322323.622168) can0 1E1#020D271001FA01FA
(1779322323.623201) can0 1F5#0000000000000000
(1779322323.624325) can0 0800A6A9#0000000000000000
(1779322323.625236) can0 1000A6A9#0D028813324A4A4A
(1779322323.626325) can0 1C00A6A9#0000000000030000
(1779322323.627324) can0 02018100#1003020D00000000
(1779322323.628324) can0 02028100#0000003264000000
(1779322323.629253) can0 02038100#0CD501100CD20102
(1779322323.630326) can0 02048100#4A01014A01010000
(1779322323.631155) can0 1AD#8514000059321818
(1779322323.632162) can0 2AD#D50C800C85140016
(1779322323.633187) can0 3AD#0000000000008514
(1779322323.634186) can0 4AD#EB00000000000000
(1779322323.635181) can0 76A#7F00000000000000
(1779322323.697817) can0 0000E005#1702440003B60591
(1779322323.698386) can0 1806E5F4#13C9010003B6023A
(1779322323.699262) can0 0000E000#13C913C9020D0000
(1779322323.700258) can0 0000E004#181803B603B601E1
(1779322323.701238) can0 0000E006#0CD30CD20CD20CD2
(1779322323.702239) can0 0000E007#0CD20CD20CD30CD3
(1779322323.703237) can0 0000E008#0CD30CD30CD30CD2
(1779322323.704234) can0 0000E009#0CD30CD30CD30CD5
(1779322323.705330) can0 0000E010#0000000000000000
(1779322323.706328) can0 0000E011#0000000000000000
(1779322323.707262) can0 0000E012#0CD3000200000000
(1779322323.708330) can0 0000F001#0000000000000000
(1779322323.709270) can0 18FF28F4#10320000020D0000
(1779322323.710244) can0 18FE28F4#0CD50CD240400000
(1779322323.711268) can0 18FD28F4#1702FA6F00000000
(1779322323.712176) can0 4D4#000032007D0D0203
(1779322323.713201) can0 4D5#D20CD50C40400000
(1779322323.714262) can0 18914010#0CD5100CD2020000
(1779322323.715263) can0 18904010#020D020D753001FA
(1779322323.716254) can0 18FA28F4#123EA12C10270000
(1779322323.717258) can0 18FB28F4#D50CD20C40400000
(1779322323.718269) can0 18FC28F4#383200000D020000
(1779322323.719232) can0 18F810F3#0D02E80332640100
(1779322323.720331) can0 18F815F3#0000000010030000
(1779322323.721215) can0 273#000000000D023200
(1779322323.722161) can0 1E1#020D271001FA01FA
(1779322323.723192) can0 1F5#0000000000000000
(1779322323.724270) can0 0800A6A9#0000000000000000
(1779322323.725233) can0 1000A6A9#0D028813324A4A4A
(1779322323.726269) can0 1C00A6A9#0000000000030000
(1779322323.727330) can0 02018100#1003020D00000000
(1779322323.728329) can0 02028100#0000003264000000
(1779322323.729331) can0 02038100#0CD501100CD20102
(1779322323.730264) can0 02048100#4A01014A01010000
(1779322323.731148) can0 1AD#8514000059321818
(1779322323.732142) can0 2AD#D50C800C85140016
(1779322323.733173) can0 3AD#0000000000008514
(1779322323.734186) can0 4AD#EB00000000000000
(1779322323.735187) can0 76A#7F00000000000000
(1779322323.814827) can0 0000E005#1702440003B60591
(1779322323.815386) can0 1806E5F4#13C9010003B6023A
(1779322323.816245) can0 0000E000#13C913C9020D0000
(1779322323.817244) can0 0000E004#181803B603B601E1
(1779322323.818240) can0 0000E006#0CD30CD20CD20CD2
(1779322323.819238) can0 0000E007#0CD20CD20CD30CD2
(1779322323.820225) can0 0000E008#0CD30CD30CD30CD2
(1779322323.821221) can0 0000E009#0CD30CD30CD30CD5
(1779322323.822335) can0 0000E010#0000000000000000
(1779322323.823335) can0 0000E011#0000000000000000
(1779322323.824258) can0 0000E012#0CD3000200000000
(1779322323.825221) can0 0000E013#4542323630354C43
(1779322323.826250) can0 0000E014#3134323300000000
(1779322323.827269) can0 0000E015#0000000000000003
(1779322323.828338) can0 0000F000#0000000000000000
(1779322323.829336) can0 0000F001#0000000000000000
(1779322323.830270) can0 18FF28F4#10320000020D0000
(1779322323.831232) can0 18FE28F4#0CD50CD240400000
(1779322323.832246) can0 18FD28F4#1702FA6F00000000
(1779322323.833173) can0 4D4#000032007D0D0203
(1779322323.834154) can0 4D5#D20CD50C40400000
(1779322323.835245) can0 18914010#0CD5100CD2020000
(1779322323.836239) can0 18904010#020D020D753001FA
(1779322323.837258) can0 18924010#4001400100000000
(1779322323.838252) can0 18934010#000000170000BBF7
(1779322323.839275) can0 18944010#1003000000000000
(1779322323.840338) can0 18954010#0000000000000000
(1779322323.841337) can0 18954010#0100000000000000
(1779322323.842279) can0 18954010#0200000000000000
(1779322323.843337) can0 18954010#0300000000000000
(1779322323.844337) can0 18954010#0400000000000000
(1779322323.845278) can0 18954010#0500000000000000
(1779322323.846276) can0 18964010#0040404000000000
(1779322323.847270) can0 18974010#0000000000000000
(1779322323.848269) can0 18984010#0000000000000000
(1779322323.849247) can0 18FA28F4#123EA12C10270000
(1779322323.850240) can0 18FB28F4#D50CD20C40400000
(1779322323.851337) can0 18FC28F4#383200000D020000
(1779322323.852235) can0 18F810F3#0D02E80332640100
(1779322323.853243) can0 18F811F3#D50C1001D20C0201
(1779322323.854240) can0 18F812F3#4001014001010000
(1779322323.855277) can0 18F813F3#0101000000000000
(1779322323.856233) can0 18F814F3#3200EA1AA9015F00
(1779322323.857274) can0 18F815F3#0000000010030000
(1779322323.858170) can0 273#000000000D023200
(1779322323.859181) can0 1E1#020D271001FA01FA
(1779322323.860182) can0 1F5#0000000000000000
(1779322323.861269) can0 0800A6A9#0000000000000000
(1779322323.862226) can0 1000A6A9#0D028813324A4A4A
(1779322323.863255) can0 1C00A6A9#0000000000030000
(1779322323.864271) can0 02018100#1003020D00000000
(1779322323.865261) can0 02028100#0000003264000000
(1779322323.866249) can0 02038100#0CD501100CD20102
(1779322323.867338) can0 02048100#4A01014A01010000
(1779322323.868146) can0 1AD#8514000059321818
(1779322323.869144) can0 2AD#D50C800C85140016
(1779322323.870175) can0 3AD#0000000000008514
(1779322323.871176) can0 4AD#EB00000000000000
(1779322323.872169) can0 76A#7F00000000000000
(1779322323.930856) can0 0000E005#1702440003B60591
(1779322323.931418) can0 1806E5F4#13C9010003B6023A
(1779322323.932245) can0 0000E000#13C913C9020D0000
(1779322323.933245) can0 0000E004#181803B603B601E1
(1779322323.934243) can0 0000E006#0CD30CD20CD20CD2
(1779322323.935238) can0 0000E007#0CD20CD20CD30CD2
(1779322323.936257) can0 0000E008#0CD30CD30CD30CD2
(1779322323.937225) can0 0000E009#0CD30CD30CD30CD5
(1779322323.938276) can0 0000E010#0000000000000000
(1779322323.939275) can0 0000E011#0000000000000000
(1779322323.940253) can0 0000E012#0CD3000200000000
(1779322323.941282) can0 0000F001#0000000000000000
(1779322323.942266) can0 18FF28F4#10320000020D0000
(1779322323.943245) can0 18FE28F4#0CD50CD240400000
(1779322323.944345) can0 18FD28F4#1702FA6F00000000
(1779322323.945163) can0 4D4#000032007D0D0203
(1779322323.946158) can0 4D5#D20CD50C40400000
(1779322323.947252) can0 18914010#0CD5100CD2020000
(1779322323.948246) can0 18904010#020D020D753001FA
(1779322323.949246) can0 18FA28F4#123EA12C10270000
(1779322323.950245) can0 18FB28F4#D50CD20C40400000
(1779322323.951258) can0 18FC28F4#383200000D020000
(1779322323.952275) can0 18F810F3#0D02E80332640100
(1779322323.953276) can0 18F815F3#0000000010030000
(1779322323.954154) can0 273#000000000D023200
(1779322323.955162) can0 1E1#020D271001FA01FA
(1779322323.956187) can0 1F5#0000000000000000
(1779322323.957272) can0 0800A6A9#0000000000000000
(1779322323.958233) can0 1000A6A9#0D028813324A4A4A
(1779322323.959260) can0 1C00A6A9#0000000000030000
(1779322323.960344) can0 02018100#1003020D00000000
(1779322323.961272) can0 02028100#0000003264000000
(1779322323.962253) can0 02038100#0CD501100CD20102
(1779322323.963247) can0 02048100#4A01014A01010000
(1779322323.964155) can0 1AD#8514000059321818
(1779322323.965150) can0 2AD#D50C800C85140016
(1779322323.966174) can0 3AD#0000000000008514
(1779322323.967176) can0 4AD#EB00000000000000
(1779322323.968175) can0 76A#7F00000000000000
(1779322324.030825) can0 0000E005#1702440003B60591
(1779322324.031364) can0 1806E5F4#13C9010003B6023A
(1779322324.032243) can0 0000E000#13C913C9020D0000
(1779322324.033244) can0 0000E004#181803B603B601E1
(1779322324.034247) can0 0000E006#0CD30CD20CD20CD2
(1779322324.035238) can0 0000E007#0CD20CD20CD30CD2
(1779322324.036223) can0 0000E008#0CD30CD30CD30CD2
(1779322324.037224) can0 0000E009#0CD30CD30CD30CD5
(1779322324.038267) can0 0000E010#0000000000000000
(1779322324.039270) can0 0000E011#0000000000000000
(1779322324.040246) can0 0000E012#0CD3000200000000
(1779322324.041281) can0 0000F001#0000000000000000
(1779322324.042257) can0 18FF28F4#10320000020D0000
(1779322324.043241) can0 18FE28F4#0CD50CD240400000
(1779322324.044260) can0 18FD28F4#1702FA6F00000000
(1779322324.045166) can0 4D4#000032007D0D0203
(1779322324.046160) can0 4D5#D20CD50C40400000
(1779322324.047238) can0 18914010#0CD5100CD2020000
(1779322324.048234) can0 18904010#020D020D753001FA
(1779322324.049245) can0 18FA28F4#123EA12C10270000
(1779322324.050245) can0 18FB28F4#D50CD20C40400000
(1779322324.051265) can0 18FC28F4#383200000D020000
(1779322324.052231) can0 18F810F3#0D02E80332640100
(1779322324.053278) can0 18F815F3#0000000010030000
(1779322324.054161) can0 273#000000000D023200
(1779322324.055160) can0 1E1#020D271001FA01FA
(1779322324.056194) can0 1F5#0000000000000000
(1779322324.057265) can0 0800A6A9#0000000000000000
(1779322324.058221) can0 1000A6A9#0D028813324A4A4A
(1779322324.059259) can0 1C00A6A9#0000000000030000
(1779322324.060258) can0 02018100#1003020D00000000
(1779322324.061259) can0 02028100#0000003264000000
(1779322324.062239) can0 02038100#0CD501100CD20102
(1779322324.063249) can0 02048100#4A01014A01010000
(1779322324.064142) can0 1AD#8514000059321818
(1779322324.065138) can0 2AD#D50C800C85140016
(1779322324.066181) can0 3AD#0000000000008514
(1779322324.067177) can0 4AD#EB00000000000000
(1779322324.068177) can0 76A#7F00000000000000
(1779322324.130839) can0 0000E005#1702440003B60591
(1779322324.131373) can0 1806E5F4#13C9010003B6023A
(1779322324.132259) can0 0000E000#13C913C9020D0000
(1779322324.133287) can0 0000E004#181803B603B601E1
(1779322324.134268) can0 0000E006#0CD30CD20CD20CD3
(1779322324.135262) can0 0000E007#0CD20CD30CD30CD3
(1779322324.136251) can0 0000E008#0CD30CD30CD30CD2
(1779322324.137239) can0 0000E009#0CD30CD30CD30CD5
(1779322324.138285) can0 0000E010#0000000000000000
(1779322324.139280) can0 0000E011#0000000000000000
(1779322324.140259) can0 0000E012#0CD3000200000000
(1779322324.141276) can0 0000F001#0000000000000000
(1779322324.142259) can0 18FF28F4#10320000020D0000
(1779322324.143259) can0 18FE28F4#0CD50CD240400000
(1779322324.144248) can0 18FD28F4#1702FA6F00000000
(1779322324.145172) can0 4D4#000032007D0D0203
(1779322324.146156) can0 4D5#D20CD50C40400000
(1779322324.147249) can0 18914010#0CD5100CD2020000
(1779322324.148247) can0 18904010#020D020D753001FA
(1779322324.149245) can0 18FA28F4#123EA12C10270000
(1779322324.150245) can0 18FB28F4#D50CD20C40400000
(1779322324.151277) can0 18FC28F4#383200000D020000
(1779322324.152241) can0 18F810F3#0D02E80332640100
(1779322324.153271) can0 18F815F3#0000000010030000
(1779322324.154192) can0 273#000000000D023200
(1779322324.155187) can0 1E1#020D271001FA01FA
(1779322324.156204) can0 1F5#0000000000000000
(1779322324.157288) can0 0800A6A9#0000000000000000
(1779322324.158261) can0 1000A6A9#0D028813324A4A4A
(1779322324.159292) can0 1C00A6A9#0000000000030000
(1779322324.160302) can0 02018100#1003020D00000000
(1779322324.161295) can0 02028100#0000003264000000
(1779322324.162280) can0 02038100#0CD501100CD20102
(1779322324.163275) can0 02048100#4A01014A01010000
(1779322324.164152) can0 1AD#8614000059321818
(1779322324.165168) can0 2AD#D50C800C86140016
(1779322324.166185) can0 3AD#0000000000008614
(1779322324.167227) can0 4AD#EB00000000000000
(1779322324.168193) can0 76A#7F00000000000000
(1779322324.230860) can0 0000E005#1702440003B60591
(1779322324.231410) can0 1806E5F4#13C9010003B6023A
(1779322324.232244) can0 0000E000#13C913C9020D0000
(1779322324.233235) can0 0000E004#181803B603B601E1
(1779322324.234223) can0 0000E006#0CD30CD20CD20CD3
(1779322324.235223) can0 0000E007#0CD20CD30CD30CD3
(1779322324.236244) can0 0000E008#0CD30CD30CD30CD2
(1779322324.237208) can0 0000E009#0CD30CD30CD30CD5
(1779322324.238275) can0 0000E010#0000000000000000
(1779322324.239255) can0 0000E011#0000000000000000
(1779322324.240241) can0 0000E012#0CD3000200000000
(1779322324.241269) can0 0000F001#0000000000000000
(1779322324.242250) can0 18FF28F4#10320000020D0000
(1779322324.243235) can0 18FE28F4#0CD50CD240400000
(1779322324.244290) can0 18FD28F4#1702FA6F00000000
(1779322324.245155) can0 4D4#000032007D0D0203
(1779322324.246156) can0 4D5#D20CD50C40400000
(1779322324.247245) can0 18914010#0CD5100CD2020000
(1779322324.248231) can0 18904010#020D020D753001FA
(1779322324.249241) can0 18FA28F4#123EA12C10270000
(1779322324.250243) can0 18FB28F4#D50CD20C40400000
(1779322324.251250) can0 18FC28F4#383200000D020000
(1779322324.252269) can0 18F810F3#0D02E80332640100
(1779322324.253263) can0 18F815F3#0000000010030000
(1779322324.254153) can0 273#000000000D023200
(1779322324.255153) can0 1E1#020D271001FA01FA
(1779322324.256167) can0 1F5#0000000000000000
(1779322324.257261) can0 0800A6A9#0000000000000000
(1779322324.258214) can0 1000A6A9#0D028813324A4A4A
(1779322324.259259) can0 1C00A6A9#0000000000030000
(1779322324.260362) can0 02018100#1003020D00000000
(1779322324.261271) can0 02028100#0000003264000000
(1779322324.262250) can0 02038100#0CD501100CD20102
(1779322324.263245) can0 02048100#4A01014A01010000
(1779322324.264128) can0 1AD#8614000059321818
(1779322324.265141) can0 2AD#D50C800C86140016
(1779322324.266155) can0 3AD#0000000000008614
(1779322324.267167) can0 4AD#EB00000000000000
(1779322324.268167) can0 76A#7F00000000000000
(1779322324.347869) can0 0000E005#1702440003B60591
(1779322324.348418) can0 1806E5F4#13C9010003B6023A
(1779322324.349236) can0 0000E000#13C913C9020D0000
(1779322324.350238) can0 0000E004#181803B603B601E1
(1779322324.351230) can0 0000E006#0CD20CD20CD20CD3
(1779322324.352230) can0 0000E007#0CD20CD20CD20CD2
(1779322324.353231) can0 0000E008#0CD30CD30CD30CD2
(1779322324.354210) can0 0000E009#0CD20CD30CD30CD5
(1779322324.355271) can0 0000E010#0000000000000000
(1779322324.356273) can0 0000E011#0000000000000000
(1779322324.357236) can0 0000E012#0CD3000200000000
(1779322324.358223) can0 0000E013#4542323630354C43
(1779322324.359251) can0 0000E014#3134323300000000
(1779322324.360263) can0 0000E015#0000000000000003
(1779322324.361262) can0 0000F000#0000000000000000
(1779322324.362259) can0 0000F001#0000000000000000
(1779322324.363241) can0 18FF28F4#10320000020D0000
(1779322324.364232) can0 18FE28F4#0CD50CD240400000
(1779322324.365247) can0 18FD28F4#1702FA6F00000000
(1779322324.366159) can0 4D4#000032007D0D0203
(1779322324.367142) can0 4D5#D20CD50C40400000
(1779322324.368236) can0 18914010#0CD5100CD2010000
(1779322324.369238) can0 18904010#020D020D753001FA
(1779322324.370251) can0 18924010#4001400100000000
(1779322324.371244) can0 18934010#000000180000BBF7
(1779322324.372252) can0 18944010#1003000000000000
(1779322324.373271) can0 18954010#0000000000000000
(1779322324.374275) can0 18954010#0100000000000000
(1779322324.375251) can0 18954010#0200000000000000
(1779322324.376252) can0 18954010#0300000000000000
(1779322324.377264) can0 18954010#0400000000000000
(1779322324.378253) can0 18954010#0500000000000000
(1779322324.379250) can0 18964010#0040404000000000
(1779322324.380258) can0 18974010#0000000000000000
(1779322324.381262) can0 18984010#0000000000000000
(1779322324.382253) can0 18FA28F4#123EA12C10270000
(1779322324.383239) can0 18FB28F4#D50CD20C40400000
(1779322324.384250) can0 18FC28F4#383200000D020000
(1779322324.385220) can0 18F810F3#0D02E80332640100
(1779322324.386231) can0 18F811F3#D50C1001D20C0101
(1779322324.387242) can0 18F812F3#4001014001010000
(1779322324.388253) can0 18F813F3#0101000000000000
(1779322324.389238) can0 18F814F3#3200EA1AA9015F00
(1779322324.390278) can0 18F815F3#0000000010030000
(1779322324.391154) can0 273#000000000D023200
(1779322324.392148) can0 1E1#020D271001FA01FA
(1779322324.393180) can0 1F5#0000000000000000
(1779322324.394253) can0 0800A6A9#0000000000000000
(1779322324.395222) can0 1000A6A9#0D028813324A4A4A
(1779322324.396253) can0 1C00A6A9#0000000000030000
(1779322324.397251) can0 02018100#1003020D00000000
(1779322324.398279) can0 02028100#0000003264000000
(1779322324.399229) can0 02038100#0CD501100CD20101
(1779322324.400249) can0 02048100#4A01014A01010000
(1779322324.401133) can0 1AD#8514000059321818
(1779322324.402130) can0 2AD#D50C800C85140016
(1779322324.403164) can0 3AD#0000000000008514
(1779322324.404161) can0 4AD#EB00000000000000
(1779322324.405155) can0 76A#7F00000000000000
(1779322324.463825) can0 0000E005#1702440003B60591
(1779322324.464373) can0 1806E5F4#13C9010003B6023A
(1779322324.465247) can0 0000E000#13C913C9020D0000
(1779322324.466242) can0 0000E004#181803B603B601E1
(1779322324.467252) can0 0000E006#0CD20CD20CD20CD3
(1779322324.468242) can0 0000E007#0CD20CD20CD20CD2
(1779322324.469223) can0 0000E008#0CD30CD30CD30CD2
(1779322324.470223) can0 0000E009#0CD20CD30CD30CD5
(1779322324.471263) can0 0000E010#0000000000000000
(1779322324.472265) can0 0000E011#0000000000000000
(1779322324.473251) can0 0000E012#0CD3000200000000
(1779322324.474260) can0 0000F001#0000000000000000
(1779322324.475275) can0 18FF28F4#10320000020D0000
(1779322324.476229) can0 18FE28F4#0CD50CD240400000
(1779322324.477243) can0 18FD28F4#1702FA6F00000000
(1779322324.478160) can0 4D4#000032007D0D0203
(1779322324.479134) can0 4D5#D20CD50C40400000
(1779322324.480219) can0 18914010#0CD5100CD2010000
(1779322324.481237) can0 18904010#020D020D753001FA
(1779322324.482236) can0 18FA28F4#123EA12C10270000
(1779322324.483258) can0 18FB28F4#D50CD20C40400000
(1779322324.484259) can0 18FC28F4#383200000D020000
(1779322324.485230) can0 18F810F3#0D02E80332640100
(1779322324.486255) can0 18F815F3#0000000010030000
(1779322324.487158) can0 273#000000000D023200
(1779322324.488140) can0 1E1#020D271001FA01FA
(1779322324.489173) can0 1F5#0000000000000000
(1779322324.490249) can0 0800A6A9#0000000000000000
(1779322324.491263) can0 1000A6A9#0D028813324A4A4A
(1779322324.492249) can0 1C00A6A9#0000000000030000
(1779322324.493259) can0 02018100#1003020D00000000
(1779322324.494259) can0 02028100#0000003264000000
(1779322324.495243) can0 02038100#0CD501100CD20101
(1779322324.496237) can0 02048100#4A01014A01010000
(1779322324.497141) can0 1AD#8514000059321818
(1779322324.498139) can0 2AD#D50C800C85140016
(1779322324.499159) can0 3AD#0000000000008514
(1779322324.500163) can0 4AD#EB00000000000000
(1779322324.501163) can0 76A#7F00000000000000
(1779322324.563821) can0 0000E005#1702440003B60591
(1779322324.564379) can0 1806E5F4#13C9010003B6023A
(1779322324.565233) can0 0000E000#13C913C9020D0000
(1779322324.566229) can0 0000E004#181803B603B601E1
(1779322324.567228) can0 0000E006#0CD20CD20CD20CD3
(1779322324.568269) can0 0000E007#0CD20CD20CD20CD2
(1779322324.569223) can0 0000E008#0CD30CD30CD30CD2
(1779322324.570211) can0 0000E009#0CD20CD30CD30CD5
(1779322324.571266) can0 0000E010#0000000000000000
(1779322324.572265) can0 0000E011#0000000000000000
(1779322324.573236) can0 0000E012#0CD3000200000000
(1779322324.574264) can0 0000F001#0000000000000000
(1779322324.575248) can0 18FF28F4#10320000020D0000
(1779322324.576223) can0 18FE28F4#0CD50CD240400000
(1779322324.577242) can0 18FD28F4#1702FA6F00000000
(1779322324.578149) can0 4D4#000032007D0D0203
(1779322324.579146) can0 4D5#D20CD50C40400000
(1779322324.580225) can0 18914010#0CD5100CD2010000
(1779322324.581223) can0 18904010#020D020D753001FA
(1779322324.582238) can0 18FA28F4#123EA12C10270000
(1779322324.583238) can0 18FB28F4#D50CD20C40400000
(1779322324.584241) can0 18FC28F4#383200000D020000
(1779322324.585217) can0 18F810F3#0D02E80332640100
(1779322324.586249) can0 18F815F3#0000000010030000
(1779322324.587150) can0 273#000000000D023200
(1779322324.588142) can0 1E1#020D271001FA01FA
(1779322324.589179) can0 1F5#0000000000000000
(1779322324.590258) can0 0800A6A9#0000000000000000
(1779322324.591225) can0 1000A6A9#0D028813324A4A4A
(1779322324.592249) can0 1C00A6A9#0000000000030000
(1779322324.593249) can0 02018100#1003020D00000000
(1779322324.594248) can0 02028100#0000003264000000
(1779322324.595230) can0 02038100#0CD501100CD20101
(1779322324.596240) can0 02048100#4A01014A01010000
(1779322324.597128) can0 1AD#8514000059321818
(1779322324.598121) can0 2AD#D50C800C85140016
(1779322324.599153) can0 3AD#0000000000008514
(1779322324.600163) can0 4AD#EB00000000000000
(1779322324.601160) can0 76A#7F00000000000000
(1779322324.663852) can0 0000E005#1702440003B60591
(1779322324.664418) can0 1806E5F4#13C9010003B6023A
(1779322324.665229) can0 0000E000#13C913C9020D0000
(1779322324.666227) can0 0000E004#181803B603B601E1
(1779322324.667215) can0 0000E006#0CD30CD20CD20CD2
(1779322324.668227) can0 0000E007#0CD20CD20CD30CD2
(1779322324.669208) can0 0000E008#0CD30CD30CD30CD2
(1779322324.670210) can0 0000E009#0CD30CD30CD30CD5
(1779322324.671254) can0 0000E010#0000000000000000
(1779322324.672253) can0 0000E011#0000000000000000
(1779322324.673228) can0 0000E012#0CD3000200000000
(1779322324.674266) can0 0000F001#0000000000000000
(1779322324.675247) can0 18FF28F4#10320000020D0000
(1779322324.676228) can0 18FE28F4#0CD50CD240400000
(1779322324.677241) can0 18FD28F4#1702FA6F00000000
(1779322324.678145) can0 4D4#000032007D0D0203
(1779322324.679145) can0 4D5#D20CD50C40400000
(1779322324.680241) can0 18914010#0CD5100CD2020000
(1779322324.681214) can0 18904010#020D020D753001FA
(1779322324.682235) can0 18FA28F4#123EA12C10270000
(1779322324.683215) can0 18FB28F4#D50CD20C40400000
(1779322324.684247) can0 18FC28F4#383200000D020000
(1779322324.685210) can0 18F810F3#0D02E80332640100
(1779322324.686241) can0 18F815F3#0000000010030000
(1779322324.687146) can0 273#000000000D023200
(1779322324.688126) can0 1E1#020D271001FA01FA
(1779322324.689159) can0 1F5#0000000000000000
(1779322324.690267) can0 0800A6A9#0000000000000000
(1779322324.691203) can0 1000A6A9#0D028813324A4A4A
(1779322324.692236) can0 1C00A6A9#0000000000030000
(1779322324.693247) can0 02018100#1003020D00000000
(1779322324.694248) can0 02028100#0000003264000000
(1779322324.695229) can0 02038100#0CD501100CD20102
(1779322324.696223) can0 02048100#4A01014A01010000
(1779322324.697123) can0 1AD#8514000059321818
(1779322324.698155) can0 2AD#D50C800C85140016
(1779322324.699153) can0 3AD#0000000000008514
(1779322324.700147) can0 4AD#EB00000000000000
(1779322324.701163) can0 76A#7F00000000000000
(1779322324.763821) can0 0000E005#1702440003B60591
(1779322324.764390) can0 1806E5F4#13C9010003B6023A
(1779322324.765234) can0 0000E000#13C913C9020D0000
(1779322324.766228) can0 0000E004#181803B603B601E1
(1779322324.767246) can0 0000E006#0CD30CD20CD20CD2
(1779322324.768228) can0 0000E007#0CD20CD20CD30CD2
(1779322324.769218) can0 0000E008#0CD30CD30CD30CD2
(1779322324.770204) can0 0000E009#0CD30CD30CD30CD5
(1779322324.771253) can0 0000E010#0000000000000000
(1779322324.772253) can0 0000E011#0000000000000000
(1779322324.773234) can0 0000E012#0CD3000200000000
(1779322324.774253) can0 0000F001#0000000000000000
(1779322324.775266) can0 18FF28F4#10320000020D0000
(1779322324.776215) can0 18FE28F4#0CD50CD240400000
(1779322324.777229) can0 18FD28F4#1702FA6F00000000
(1779322324.778145) can0 4D4#000032007D0D0203
(1779322324.779134) can0 4D5#D20CD50C40400000
(1779322324.780231) can0 18914010#0CD5100CD2020000
(1779322324.781223) can0 18904010#020D020D753001FA
(1779322324.782220) can0 18FA28F4#123EA12C10270000
(1779322324.783258) can0 18FB28F4#D50CD20C40400000
(1779322324.784254) can0 18FC28F4#383200000D020000
(1779322324.785219) can0 18F810F3#0D02E80332640100
(1779322324.786251) can0 18F815F3#0000000010030000
(1779322324.787151) can0 273#000000000D023200
(1779322324.788133) can0 1E1#020D271001FA01FA
(1779322324.789159) can0 1F5#0000000000000000
(1779322324.790236) can0 0800A6A9#0000000000000000
(1779322324.791253) can0 1000A6A9#0D028813324A4A4A
(1779322324.792234) can0 1C00A6A9#0000000000030000
(1779322324.793253) can0 02018100#1003020D00000000
(1779322324.794244) can0 02028100#0000003264000000
(1779322324.795229) can0 02038100#0CD501100CD20102
(1779322324.796229) can0 02048100#4A01014A01010000
(1779322324.797129) can0 1AD#8514000059321818
(1779322324.798127) can0 2AD#D50C800C85140016
(1779322324.799203) can0 3AD#0000000000008514
(1779322324.800152) can0 4AD#EB00000000000000
(1779322324.801147) can0 76A#7F00000000000000
(1779322324.880848) can0 0000E005#1702440003B60591
(1779322324.881398) can0 1806E5F4#13C9010003B6023A
(1779322324.882229) can0 0000E000#13C913C9020D0000
(1779322324.883227) can0 0000E004#181803B603B601E1
(1779322324.884203) can0 0000E006#0CD30CD30CD20CD3
(1779322324.885221) can0 0000E007#0CD20CD20CD30CD3
(1779322324.886202) can0 0000E008#0CD30CD30CD30CD2
(1779322324.887202) can0 0000E009#0CD30CD30CD30CD5
(1779322324.888253) can0 0000E010#0000000000000000
(1779322324.889250) can0 0000E011#0000000000000000
(1779322324.890227) can0 0000E012#0CD3000200000000
(1779322324.891196) can0 0000E013#4542323630354C43
(1779322324.892219) can0 0000E014#3134323300000000
(1779322324.893240) can0 0000E015#0000000000000003
(1779322324.894253) can0 0000F000#0000000000000000
(1779322324.895253) can0 0000F001#0000000000000000
(1779322324.896232) can0 18FF28F4#10320000020D0000
(1779322324.897215) can0 18FE28F4#0CD50CD240400000
(1779322324.898238) can0 18FD28F4#1702FA6F00000000
(1779322324.899152) can0 4D4#000032007D0D0203
(1779322324.900132) can0 4D5#D20CD50C40400000
(1779322324.901230) can0 18914010#0CD5100CD2030000
(1779322324.902229) can0 18904010#020D020D753001FA
(1779322324.903242) can0 18924010#4001400100000000
(1779322324.904234) can0 18934010#000000190000BBF7
(1779322324.905237) can0 18944010#1003000000000000
(1779322324.906268) can0 18954010#0000000000000000
(1779322324.907248) can0 18954010#0100000000000000
(1779322324.908242) can0 18954010#0200000000000000
(1779322324.909248) can0 18954010#0300000000000000
(1779322324.910248) can0 18954010#0400000000000000
(1779322324.911242) can0 18954010#0500000000000000
(1779322324.912243) can0 18964010#0040404000000000
(1779322324.913255) can0 18974010#0000000000000000
(1779322324.914249) can0 18984010#0000000000000000
(1779322324.915216) can0 18FA28F4#123EA12C10270000
(1779322324.916207) can0 18FB28F4#D50CD20C40400000
(1779322324.917242) can0 18FC28F4#383200000D020000
(1779322324.918204) can0 18F810F3#0D02E80332640100
(1779322324.919223) can0 18F811F3#D50C1001D20C0301
(1779322324.920227) can0 18F812F3#4001014001010000
(1779322324.921262) can0 18F813F3#0101000000000000
(1779322324.922229) can0 18F814F3#3200EA1AA9015F00
(1779322324.923243) can0 18F815F3#0000000010030000
(1779322324.924144) can0 273#000000000D023200
(1779322324.925141) can0 1E1#020D271001FA01FA
(1779322324.926166) can0 1F5#0000000000000000
(1779322324.927243) can0 0800A6A9#0000000000000000
(1779322324.928191) can0 1000A6A9#0D028813324A4A4A
(1779322324.929262) can0 1C00A6A9#0000000000030000
(1779322324.930243) can0 02018100#1003020D00000000
(1779322324.931236) can0 02028100#0000003264000000
(1779322324.932220) can0 02038100#0CD501100CD20103
(1779322324.933218) can0 02048100#4A01014A01010000
(1779322324.934124) can0 1AD#8614000059321818
(1779322324.935126) can0 2AD#D50C800C86140016
(1779322324.936149) can0 3AD#0000000000008614
(1779322324.937182) can0 4AD#EB00000000000000
(1779322324.938148) can0 76A#7F00000000000000
(1779322324.996803) can0 0000E005#1702440003B60591
(1779322324.997341) can0 1806E5F4#13C9010003B6023A
(1779322324.998247) can0 0000E000#13C913C9020D0000
(1779322324.999228) can0 0000E004#181803B603B601E1
(1779322325.000214) can0 0000E006#0CD30CD30CD20CD3
(1779322325.001210) can0 0000E007#0CD20CD20CD30CD3
(1779322325.002208) can0 0000E008#0CD30CD30CD30CD2
(1779322325.003190) can0 0000E009#0CD30CD30CD30CD5
(1779322325.004254) can0 0000E010#0000000000000000
(1779322325.005255) can0 0000E011#0000000000000000
