(1779320128.433778) can0 0000E009#0CD60CD60CD60CD8
(1779320128.434827) can0 0000E010#0000000000000000
(1779320128.435823) can0 0000E011#0000000000000000
(1779320128.436856) can0 0000E012#0CD6000200000000
(1779320128.437817) can0 0000F001#0000000000000000
(1779320128.441759) can0 4D4#000033007D0D0203
(1779320128.442762) can0 4D5#D60CD80C40400000
(1779320128.443798) can0 18914010#0CD8100CD6010000
(1779320128.444794) can0 18904010#020D020D753001FE
(1779320128.449821) can0 18F815F3#0000000010030000
(1779320128.450760) can0 273#000000000D023300
(1779320128.451762) can0 1E1#020D271001FE01FE
(1779320128.452760) can0 1F5#0000000000000000
(1779320128.453815) can0 0800A6A9#0000000000000000
(1779320128.454814) can0 1000A6A9#0D028813334A4A4A
(1779320128.455812) can0 1C00A6A9#3000000000030000
(1779320128.456811) can0 02018100#1003020D00000000
(1779320128.457811) can0 02028100#0000003364000000
(1779320128.458792) can0 02038100#0CD801100CD60101
(1779320128.459792) can0 02048100#4A01014A01010000
(1779320128.460685) can0 1AD#8A14000059331818
(1779320128.461677) can0 2AD#D80C800C8A140016
(1779320128.463761) can0 4AD#EB00000000000000
(1779320128.464760) can0 76A#7F00000000000000
(1779320128.545807) can0 0000E000#13EC13EC020D0000
(1779320128.546823) can0 0000E004#181803B603B601E4
(1779320128.547791) can0 0000E006#0CD60CD60CD60CD6
(1779320128.548783) can0 0000E007#0CD60CD60CD60CD6
(1779320128.550814) can0 0000E009#0CD60CD60CD60CD8
(1779320128.551818) can0 0000E010#0000000000000000
(1779320128.552816) can0 0000E011#0000000000000000
(1779320128.553797) can0 0000E012#0CD6000200000000
(1779320128.554809) can0 0000F001#0000000000000000
(1779320128.558765) can0 4D4#000033007D0D0203
(1779320128.559700) can0 4D5#D60CD80C40400000
(1779320128.560813) can0 18914010#0CD8100CD6010000
(1779320128.561786) can0 18904010#020D020D753001FE
(1779320128.566848) can0 18F815F3#0000000010030000
(1779320128.567765) can0 273#000000000D023300
(1779320128.568701) can0 1E1#020D271001FE01FE
(1779320128.569764) can0 1F5#0000000000000000
(1779320128.570804) can0 0800A6A9#0000000000000000
(1779320128.571766) can0 1000A6A9#0D028813334A4A4A
(1779320128.572796) can0 1C00A6A9#3000000000030000
(1779320128.573798) can0 02018100#1003020D00000000
(1779320128.574829) can0 02028100#0000003364000000
(1779320128.575797) can0 02038100#0CD801100CD60101
(1779320128.576792) can0 02048100#4A01014A01010000
(1779320128.577670) can0 1AD#8A14000059331818
(1779320128.578682) can0 2AD#D80C800C8A140016
(1779320128.580764) can0 4AD#EB00000000000000
(1779320128.581765) can0 76A#7F00000000000000
(1779320128.641805) can0 0000E000#13EC13EC020D0000
(1779320128.642823) can0 0000E004#181803B603B601E4
(1779320128.643806) can0 0000E006#0CD60CD60CD60CD6
(1779320128.644766) can0 0000E007#0CD60CD60CD60CD6
(1779320128.646815) can0 0000E009#0CD60CD60CD60CD6
(1779320128.647818) can0 0000E010#0000000000000000
(1779320128.648817) can0 0000E011#0000000000000000
(1779320128.649798) can0 0000E012#0CD6000000000000
(1779320128.650805) can0 0000F001#0000000000000000
(1779320128.654690) can0 4D4#000033007D0D0203
(1779320128.655712) can0 4D5#D60CD60C40400000
(1779320128.656823) can0 18914010#0CD6080CD6010000
(1779320128.657779) can0 18904010#020D020D753001FE
(1779320128.662804) can0 18F815F3#0000000010030000
(1779320128.663702) can0 273#000000000D023300
(1779320128.664693) can0 1E1#020D271001FE01FE
(1779320128.665769) can0 1F5#0000000000000000
(1779320128.666797) can0 0800A6A9#0000000000000000
(1779320128.667766) can0 1000A6A9#0D028813334A4A4A
(1779320128.668791) can0 1C00A6A9#0000000000030000
(1779320128.669810) can0 02018100#1003020D00000000
(1779320128.670791) can0 02028100#0000003364000000
(1779320128.671781) can0 02038100#0CD601080CD60101
(1779320128.672785) can0 02048100#4A01014A01010000
(1779320128.673677) can0 1AD#8A14000059331818
(1779320128.676765) can0 4AD#EB00000000000000
(1779320128.677708) can0 76A#7F00000000000000
(1779320128.741790) can0 0000E000#13EC13EC020D0000
(1779320128.742817) can0 0000E004#181803B603B601E4
(1779320128.743772) can0 0000E006#0CD60CD60CD60CD6
(1779320128.744770) can0 0000E007#0CD60CD60CD60CD6
(1779320128.746828) can0 0000E009#0CD60CD60CD60CD6
(1779320128.747816) can0 0000E010#0000000000000000
(1779320128.748809) can0 0000E011#0000000000000000
(1779320128.749795) can0 0000E012#0CD6000000000000
(1779320128.750808) can0 0000F001#0000000000000000
(1779320128.754685) can0 4D4#000033007D0D0203
(1779320128.755683) can0 4D5#D60CD60C40400000
(1779320128.756818) can0 18914010#0CD6080CD6010000
(1779320128.757771) can0 18904010#020D020D753001FE
(1779320128.762801) can0 18F815F3#0000000010030000
(1779320128.763702) can0 273#000000000D023300
(1779320128.764675) can0 1E1#020D271001FE01FE
(1779320128.765768) can0 1F5#0000000000000000
(1779320128.766796) can0 0800A6A9#0000000000000000
(1779320128.767770) can0 1000A6A9#0D028813334A4A4A
(1779320128.768785) can0 1C00A6A9#0000000000030000
(1779320128.769789) can0 02018100#1003020D00000000
(1779320128.770789) can0 02028100#0000003364000000
(1779320128.771771) can0 02038100#0CD601080CD60101
(1779320128.772782) can0 02048100#4A01014A01010000
(1779320128.773676) can0 1AD#8A14000059331818
(1779320128.776769) can0 4AD#EB00000000000000
(1779320128.777707) can0 76A#7F00000000000000
(1779320128.858812) can0 0000E000#13EC13EC020D0000
(1779320128.859831) can0 0000E004#181803B603B601E4
(1779320128.860774) can0 0000E006#0CD60CD60CD60CD6
(1779320128.861772) can0 0000E007#0CD60CD60CD60CD6
(1779320128.863770) can0 0000E009#0CD60CD60CD60CD8
(1779320128.864805) can0 0000E010#0000000000000000
(1779320128.865804) can0 0000E011#0000000000000000
(1779320128.866804) can0 0000E012#0CD6000200000000
(1779320128.867773) can0 0000E013#4542323630354C43
(1779320128.868778) can0 0000E014#3134323300000000
(1779320128.869797) can0 0000E015#0000000000000003
(1779320128.870798) can0 0000F000#0000000000000000
(1779320128.871792) can0 0000F001#0000000000000000
(1779320128.875678) can0 4D4#000033007D0D0203
(1779320128.876664) can0 4D5#D60CD80C40400000
(1779320128.877831) can0 18914010#0CD8100CD6010000
(1779320128.878774) can0 18904010#020D020D753001FE
(1779320128.879772) can0 18924010#4001400100000000
(1779320128.880773) can0 18934010#000000010000BD42
(1779320128.883818) can0 18954010#0100000000000000
(1779320128.884788) can0 18954010#0200000000000000
(1779320128.885792) can0 18954010#0300000000000000
(1779320128.886805) can0 18954010#0400000000000000
(1779320128.887787) can0 18954010#0500000000000000
(1779320128.888781) can0 18964010#0040404000000000
(1779320128.889798) can0 18974010#0000000000000000
(1779320128.890830) can0 18984010#0000000000000000
(1779320128.895775) can0 18F811F3#D80C1001D60C0101
(1779320128.896774) can0 18F812F3#4001014001010000
(1779320128.898774) can0 18F814F3#3200EA1AA9015F00
(1779320128.899819) can0 18F815F3#0000000010030000
(1779320128.900680) can0 273#000000000D023300
(1779320128.901679) can0 1E1#020D271001FE01FE
(1779320128.902693) can0 1F5#0000000000000000
(1779320128.903794) can0 0800A6A9#0000000000000000
(1779320128.904775) can0 1000A6A9#0D028813334A4A4A
(1779320128.905773) can0 1C00A6A9#0000000000030000
(1779320128.906786) can0 02018100#1003020D00000000
(1779320128.907787) can0 02028100#0000003364000000
(1779320128.908774) can0 02038100#0CD801100CD60101
(1779320128.909774) can0 02048100#4A01014A01010000
(1779320128.910662) can0 1AD#8A14000059331818
(1779320128.911662) can0 2AD#D80C800C8A140016
(1779320128.913708) can0 4AD#EB00000000000000
(1779320128.914685) can0 76A#7F00000000000000
(1779320128.974783) can0 0000E000#13EC13EC020D0000
(1779320128.975819) can0 0000E004#181803B603B601E4
(1779320128.976778) can0 0000E006#0CD60CD60CD60CD6
(1779320128.977778) can0 0000E007#0CD60CD60CD60CD6
(1779320128.979774) can0 0000E009#0CD60CD60CD60CD8
(1779320128.980796) can0 0000E010#0000000000000000
(1779320128.981795) can0 0000E011#0000000000000000
(1779320128.982776) can0 0000E012#0CD6000200000000
(1779320128.983787) can0 0000F001#0000000000000000
(1779320128.987666) can0 4D4#000033007D0D0203
(1779320128.988665) can0 4D5#D60CD80C40400000
(1779320128.989774) can0 18914010#0CD8100CD6010000
(1779320128.990776) can0 18904010#020D020D753001FE
(1779320128.995776) can0 18F815F3#0000000010030000
(1779320128.996674) can0 273#000000000D023300
(1779320128.997674) can0 1E1#020D271001FE01FE
(1779320128.998703) can0 1F5#0000000000000000
(1779320128.999775) can0 0800A6A9#0000000000000000
(1779320129.000773) can0 1000A6A9#0D028813334A4A4A
(1779320129.001774) can0 1C00A6A9#0000000000030000
(1779320129.002781) can0 02018100#1003020D00000000
(1779320129.003775) can0 02028100#0000003364000000
(1779320129.004774) can0 02038100#0CD801100CD60101
(1779320129.005773) can0 02048100#4A01014A01010000
(1779320129.006652) can0 1AD#8A14000059331818
(1779320129.007650) can0 2AD#D80C800C8A140016
(1779320129.009692) can0 4AD#EB00000000000000
(1779320129.010673) can0 76A#7F00000000000000
(1779320129.074776) can0 0000E000#13EC13EC020D0000
(1779320129.075775) can0 0000E004#181803B603B601E4
(1779320129.076776) can0 0000E006#0CD60CD60CD60CD6
(1779320129.077775) can0 0000E007#0CD60CD60CD60CD6
(1779320129.079775) can0 0000E009#0CD60CD60CD60CD8
(1779320129.080785) can0 0000E010#0000000000000000
(1779320129.081785) can0 0000E011#0000000000000000
(1779320129.082778) can0 0000E012#0CD6000200000000
(1779320129.083798) can0 0000F001#0000000000000000
(1779320129.087664) can0 4D4#000033007D0D0203
(1779320129.088666) can0 4D5#D60CD80C40400000
(1779320129.089822) can0 18914010#0CD8100CD6010000
(1779320129.090778) can0 18904010#020D020D753001FE
(1779320129.095777) can0 18F815F3#0000000010030000
(1779320129.096667) can0 273#000000000D023300
(1779320129.097683) can0 1E1#020D271001FE01FE
(1779320129.098703) can0 1F5#0000000000000000
(1779320129.099779) can0 0800A6A9#0000000000000000
(1779320129.100778) can0 1000A6A9#0D028813334A4A4A
(1779320129.101777) can0 1C00A6A9#0000000000030000
(1779320129.102778) can0 02018100#1003020D00000000
(1779320129.103778) can0 02028100#0000003364000000
(1779320129.104778) can0 02038100#0CD801100CD60101
(1779320129.105785) can0 02048100#4A01014A01010000
(1779320129.106650) can0 1AD#8A14000059331818
(1779320129.107647) can0 2AD#D80C800C8A140016
(1779320129.109711) can0 4AD#EB00000000000000
(1779320129.110670) can0 76A#7F00000000000000
(1779320129.174805) can0 0000E000#13EC13EC020D0000
(1779320129.175779) can0 0000E004#181803B603B601E4
(1779320129.176788) can0 0000E006#0CD60CD60CD60CD6
(1779320129.177788) can0 0000E007#0CD60CD60CD60CD6
(1779320129.179778) can0 0000E009#0CD60CD60CD60CD8
(1779320129.180788) can0 0000E010#0000000000000000
(1779320129.181787) can0 0000E011#0000000000000000
(1779320129.182800) can0 0000E012#0CD6000200000000
(1779320129.183783) can0 0000F001#0000000000000000
(1779320129.187663) can0 4D4#000033007D0D0203
(1779320129.188647) can0 4D5#D60CD80C40400000
(1779320129.189776) can0 18914010#0CD8100CD6020000
(1779320129.190781) can0 18904010#020D020D753001FE
(1779320129.195778) can0 18F815F3#0000000010030000
(1779320129.196669) can0 273#000000000D023300
(1779320129.197651) can0 1E1#020D271001FE01FE
(1779320129.198783) can0 1F5#0000000000000000
(1779320129.199782) can0 0800A6A9#0000000000000000
(1779320129.200780) can0 1000A6A9#0D028813334A4A4A
(1779320129.201781) can0 1C00A6A9#0000000000030000
(1779320129.202780) can0 02018100#1003020D00000000
(1779320129.203781) can0 02028100#0000003364000000
(1779320129.204781) can0 02038100#0CD801100CD60102
(1779320129.205784) can0 02048100#4A01014A01010000
(1779320129.206638) can0 1AD#8A14000059331818
(1779320129.207655) can0 2AD#D80C800C8A140016
(1779320129.209685) can0 4AD#EB00000000000000
(1779320129.210691) can0 76A#7F00000000000000
(1779320129.274779) can0 0000E000#13EC13EC020D0000
(1779320129.275825) can0 0000E004#181803B603B601E4
(1779320129.276781) can0 0000E006#0CD60CD60CD60CD6
(1779320129.277779) can0 0000E007#0CD60CD60CD60CD6
(1779320129.279778) can0 0000E009#0CD60CD60CD60CD8
(1779320129.280778) can0 0000E010#0000000000000000
(1779320129.281778) can0 0000E011#0000000000000000
(1779320129.282778) can0 0000E012#0CD6000200000000
(1779320129.283778) can0 0000F001#0000000000000000
(1779320129.287644) can0 4D4#000033007D0D0203
(1779320129.288649) can0 4D5#D60CD80C40400000
(1779320129.289778) can0 18914010#0CD8100CD6020000
(1779320129.290778) can0 18904010#020D020D753001FE
(1779320129.295779) can0 18F815F3#0000000010030000
(1779320129.296656) can0 273#000000000D023300
(1779320129.297656) can0 1E1#020D271001FE01FE
(1779320129.298680) can0 1F5#0000000000000000
(1779320129.299779) can0 0800A6A9#0000000000000000
(1779320129.300714) can0 1000A6A9#0D028813334A4A4A
(1779320129.301778) can0 1C00A6A9#0000000000030000
(1779320129.302778) can0 02018100#1003020D00000000
(1779320129.303779) can0 02028100#0000003364000000
(1779320129.304779) can0 02038100#0CD801100CD60102
(1779320129.305778) can0 02048100#4A01014A01010000
(1779320129.306626) can0 1AD#8A14000059331818
(1779320129.307637) can0 2AD#D80C800C8A140016
(1779320129.309682) can0 4AD#EB00000000000000
(1779320129.310667) can0 76A#7F00000000000000
(1779320129.391782) can0 0000E000#13EC13EC020D0000
(1779320129.392781) can0 0000E004#181803B603B601E4
(1779320129.393728) can0 0000E006#0CD60CD60CD60CD6
(1779320129.394725) can0 0000E007#0CD60CD60CD60CD6
(1779320129.396781) can0 0000E009#0CD60CD60CD60CD8
(1779320129.397781) can0 0000E010#0000000000000000
(1779320129.398781) can0 0000E011#0000000000000000
(1779320129.399782) can0 0000E012#0CD6000200000000
(1779320129.400717) can0 0000E013#4542323630354C43
(1779320129.401792) can0 0000E014#3134323300000000
(1779320129.402791) can0 0000E015#0000000000000003
(1779320129.403789) can0 0000F000#0000000000000000
(1779320129.404781) can0 0000F001#0000000000000000
(1779320129.408653) can0 4D4#000033007D0D0203
(1779320129.409625) can0 4D5#D60CD80C40400000
(1779320129.410781) can0 18914010#0CD8100CD6010000
(1779320129.411782) can0 18904010#020D020D753001FE
(1779320129.412782) can0 18924010#4001400100000000
(1779320129.413781) can0 18934010#000000020000BD42
(1779320129.416781) can0 18954010#0100000000000000
(1779320129.417788) can0 18954010#0200000000000000
(1779320129.418782) can0 18954010#0300000000000000
(1779320129.419783) can0 18954010#0400000000000000
(1779320129.420781) can0 18954010#0500000000000000
(1779320129.421811) can0 18964010#0040404000000000
(1779320129.422783) can0 18974010#0000000000000000
(1779320129.423791) can0 18984010#0000000000000000
(1779320129.428782) can0 18F811F3#D80C1001D60C0101
(1779320129.429782) can0 18F812F3#4001014001010000
(1779320129.431787) can0 18F814F3#3200EA1AA9015F00
(1779320129.432782) can0 18F815F3#0000000010030000
(1779320129.433646) can0 273#000000000D023300
(1779320129.434645) can0 1E1#020D271001FE01FE
(1779320129.435667) can0 1F5#0000000000000000
(1779320129.436794) can0 0800A6A9#0000000000000000
(1779320129.437711) can0 1000A6A9#0D028813334A4A4A
(1779320129.438790) can0 1C00A6A9#0000000000030000
(1779320129.439785) can0 02018100#1003020D00000000
(1779320129.440782) can0 02028100#0000003364000000
(1779320129.441782) can0 02038100#0CD801100CD60101
(1779320129.442794) can0 02048100#4A01014A01010000
(1779320129.443630) can0 1AD#8A14000059331818
(1779320129.444638) can0 2AD#D80C800C8A140016
(1779320129.446675) can0 4AD#EB00000000000000
(1779320129.447672) can0 76A#7F00000000000000
(1779320129.507784) can0 0000E000#13EC13EC020D0000
(1779320129.508783) can0 0000E004#181803B603B601E4
(1779320129.509712) can0 0000E006#0CD60CD60CD60CD6
(1779320129.510707) can0 0000E007#0CD60CD60CD60CD6
(1779320129.512725) can0 0000E009#0CD60CD60CD60CD8
(1779320129.513783) can0 0000E010#0000000000000000
(1779320129.514783) can0 0000E011#0000000000000000
(1779320129.515784) can0 0000E012#0CD6000200000000
(1779320129.516784) can0 0000F001#0000000000000000
(1779320129.520636) can0 4D4#000033007D0D0203
(1779320129.521635) can0 4D5#D60CD80C40400000
(1779320129.522784) can0 18914010#0CD8100CD6010000
(1779320129.523715) can0 18904010#020D020D753001FE
(1779320129.528784) can0 18F815F3#0000000010030000
(1779320129.529644) can0 273#000000000D023300
(1779320129.530623) can0 1E1#020D271001FE01FE
(1779320129.531673) can0 1F5#0000000000000000
(1779320129.532784) can0 0800A6A9#0000000000000000
(1779320129.533697) can0 1000A6A9#0D028813334A4A4A
(1779320129.534784) can0 1C00A6A9#0000000000030000
(1779320129.535784) can0 02018100#1003020D00000000
(1779320129.536788) can0 02028100#0000003364000000
(1779320129.537784) can0 02038100#0CD801100CD60101
(1779320129.538784) can0 02048100#4A01014A01010000
(1779320129.539617) can0 1AD#8A14000059331818
(1779320129.540618) can0 2AD#D80C800C8A140016
(1779320129.542660) can0 4AD#EB00000000000000
(1779320129.543655) can0 76A#7F00000000000000
(1779320129.606291) can0 0000E005#1702420003B60591
(1779320129.606838) can0 1806E5F4#13EC010003B6023A
(1779320129.607786) can0 0000E000#13EC13EC020D0000
(1779320129.608705) can0 0000E004#181803B603B601E4
(1779320129.609704) can0 0000E006#0CD60CD60CD60CD6
(1779320129.610704) can0 0000E007#0CD60CD60CD60CD6
(1779320129.611700) can0 0000E008#0CD60CD60CD60CD6
(1779320129.612697) can0 0000E009#0CD60CD60CD60CD8
(1779320129.613786) can0 0000E010#0000000000000000
(1779320129.614786) can0 0000E011#0000000000000000
(1779320129.615787) can0 0000E012#0CD6000200000000
(1779320129.616786) can0 0000F001#0000000000000000
(1779320129.617786) can0 18FF28F4#10330000020D0000
(1779320129.618705) can0 18FE28F4#0CD80CD640400000
(1779320129.619727) can0 18FD28F4#1702FA6F00000000
(1779320129.620644) can0 4D4#000033007D0D0203
(1779320129.621625) can0 4D5#D60CD80C40400000
(1779320129.622721) can0 18914010#0CD8100CD6010000
(1779320129.623718) can0 18904010#020D020D753001FE
(1779320129.624710) can0 18FA28F4#123EA12C10270000
(1779320129.625711) can0 18FB28F4#D80CD60C40400000
(1779320129.626728) can0 18FC28F4#383300000D020000
(1779320129.627693) can0 18F810F3#0D02E80333640100
(1779320129.628786) can0 18F815F3#0000000010030000
(1779320129.629627) can0 273#000000000D023300
(1779320129.630625) can0 1E1#020D271001FE01FE
(1779320129.631656) can0 1F5#0000000000000000
(1779320129.632788) can0 0800A6A9#0000000000000000
(1779320129.633694) can0 1000A6A9#0D028813334A4A4A
(1779320129.634728) can0 1C00A6A9#0000000000030000
(1779320129.635787) can0 02018100#1003020D00000000
(1779320129.636786) can0 02028100#0000003364000000
(1779320129.637786) can0 02038100#0CD801100CD60101
(1779320129.638723) can0 02048100#4A01014A01010000
(1779320129.639601) can0 1AD#8A14000059331818
(1779320129.640619) can0 2AD#D80C800C8A140016
(1779320129.641632) can0 3AD#0000000000008A14
(1779320129.642646) can0 4AD#EB00000000000000
(1779320129.643644) can0 76A#7F00000000000000
(1779320129.706283) can0 0000E005#1702420003B60591
(1779320129.706823) can0 1806E5F4#13EC010003B6023A
(1779320129.707790) can0 0000E000#13EC13EC020D0000
(1779320129.708705) can0 0000E004#181803B603B601E4
(1779320129.709706) can0 0000E006#0CD60CD60CD60CD6
(1779320129.710687) can0 0000E007#0CD60CD60CD60CD6
(1779320129.711700) can0 0000E008#0CD60CD60CD60CD6
(1779320129.712689) can0 0000E009#0CD60CD60CD60CD8
(1779320129.713789) can0 0000E010#0000000000000000
(1779320129.714734) can0 0000E011#0000000000000000
(1779320129.715716) can0 0000E012#0CD6000200000000
(1779320129.716789) can0 0000F001#0000000000000000
(1779320129.717725) can0 18FF28F4#10330000020D0000
(1779320129.718700) can0 18FE28F4#0CD80CD640400000
(1779320129.719713) can0 18FD28F4#1702FA6F00000000
(1779320129.720619) can0 4D4#000033007D0D0203
(1779320129.721653) can0 4D5#D60CD80C40400000
(1779320129.722693) can0 18914010#0CD8100CD6020000
(1779320129.723707) can0 18904010#020D020D753001FE
(1779320129.724711) can0 18FA28F4#123EA12C10270000
(1779320129.725707) can0 18FB28F4#D80CD60C40400000
(1779320129.726706) can0 18FC28F4#383300000D020000
(1779320129.727694) can0 18F810F3#0D02E80333640100
(1779320129.728789) can0 18F815F3#0000000010030000
(1779320129.729668) can0 273#000000000D023300
(1779320129.730615) can0 1E1#020D271001FE01FE
(1779320129.731647) can0 1F5#0000000000000000
(1779320129.732725) can0 0800A6A9#0000000000000000
(1779320129.733688) can0 1000A6A9#0D028813334A4A4A
(1779320129.734724) can0 1C00A6A9#0000000000030000
(1779320129.735724) can0 02018100#1003020D00000000
(1779320129.736712) can0 02028100#0000003364000000
(1779320129.737713) can0 02038100#0CD801100CD60102
(1779320129.738706) can0 02048100#4A01014A01010000
(1779320129.739596) can0 1AD#8A14000059331818
(1779320129.740609) can0 2AD#D80C800C8A140016
(1779320129.741622) can0 3AD#0000000000008A14
(1779320129.742636) can0 4AD#EB00000000000000
(1779320129.743635) can0 76A#7F00000000000000
(1779320129.806310) can0 0000E005#1702420003B60591
(1779320129.806855) can0 1806E5F4#13EC010003B6023A
(1779320129.807722) can0 0000E000#13EC13EC020D0000
(1779320129.808702) can0 0000E004#181803B603B601E4
(1779320129.809701) can0 0000E006#0CD60CD60CD60CD6
(1779320129.810695) can0 0000E007#0CD60CD60CD60CD6
(1779320129.811695) can0 0000E008#0CD60CD60CD60CD6
(1779320129.812697) can0 0000E009#0CD60CD60CD60CD8
(1779320129.813726) can0 0000E010#0000000000000000
(1779320129.814725) can0 0000E011#0000000000000000
(1779320129.815704) can0 0000E012#0CD6000200000000
(1779320129.816791) can0 0000F001#0000000000000000
(1779320129.817716) can0 18FF28F4#10330000020D0000
(1779320129.818695) can0 18FE28F4#0CD80CD640400000
(1779320129.819710) can0 18FD28F4#1702FA6F00000000
(1779320129.820618) can0 4D4#000033007D0D0203
(1779320129.821611) can0 4D5#D60CD80C40400000
(1779320129.822707) can0 18914010#0CD8100CD6020000
(1779320129.823702) can0 18904010#020D020D753001FE
(1779320129.824703) can0 18FA28F4#123EA12C10270000
(1779320129.825702) can0 18FB28F4#D80CD60C40400000
(1779320129.826696) can0 18FC28F4#383300000D020000
(1779320129.827687) can0 18F810F3#0D02E80333640100
(1779320129.828732) can0 18F815F3#0000000010030000
(1779320129.829615) can0 273#000000000D023300
(1779320129.830618) can0 1E1#020D271001FE01FE
(1779320129.831631) can0 1F5#0000000000000000
(1779320129.832726) can0 0800A6A9#0000000000000000
(1779320129.833689) can0 1000A6A9#0D028813334A4A4A
(1779320129.834702) can0 1C00A6A9#0000000000030000
(1779320129.835716) can0 02018100#1003020D00000000
(1779320129.836715) can0 02028100#0000003364000000
(1779320129.837696) can0 02038100#0CD801100CD60102
(1779320129.838696) can0 02048100#4A01014A01010000
(1779320129.839599) can0 1AD#8A14000059331818
(1779320129.840593) can0 2AD#D80C800C8A140016
(1779320129.841621) can0 3AD#0000000000008A14
(1779320129.842625) can0 4AD#EB00000000000000
(1779320129.843637) can0 76A#7F00000000000000
(1779320129.923316) can0 0000E005#1702420003B60591
(1779320129.923856) can0 1806E5F4#13EC010003B6023A
(1779320129.924698) can0 0000E000#13EC13EC020D0000
(1779320129.925699) can0 0000E004#181803B603B601E4
(1779320129.926682) can0 0000E006#0CD60CD60CD60CD6
(1779320129.927682) can0 0000E007#0CD60CD60CD60CD6
(1779320129.928692) can0 0000E008#0CD60CD60CD60CD6
(1779320129.929678) can0 0000E009#0CD60CD60CD60CD8
(1779320129.930728) can0 0000E010#0000000000000000
(1779320129.931725) can0 0000E011#0000000000000000
(1779320129.932707) can0 0000E012#0CD6000200000000
(1779320129.933671) can0 0000E013#4542323630354C43
(1779320129.934699) can0 0000E014#3134323300000000
(1779320129.935728) can0 0000E015#0000000000000003
(1779320129.936806) can0 0000F000#0000000000000000
(1779320129.937732) can0 0000F001#0000000000000000
(1779320129.938707) can0 18FF28F4#10330000020D0000
(1779320129.939686) can0 18FE28F4#0CD80CD640400000
(1779320129.940699) can0 18FD28F4#1702FA6F00000000
(1779320129.941608) can0 4D4#000033007D0D0203
(1779320129.942609) can0 4D5#D60CD80C40400000
(1779320129.943683) can0 18914010#0CD8100CD6010000
(1779320129.944711) can0 18904010#020D020D753001FE
(1779320129.945712) can0 18924010#4001400100000000
(1779320129.946691) can0 18934010#000000030000BD42
(1779320129.947706) can0 18944010#1003000000000000
(1779320129.948717) can0 18954010#0000000000000000
(1779320129.949718) can0 18954010#0100000000000000
(1779320129.950718) can0 18954010#0200000000000000
(1779320129.951712) can0 18954010#0300000000000000
(1779320129.952807) can0 18954010#0400000000000000
(1779320129.953707) can0 18954010#0500000000000000
(1779320129.954713) can0 18964010#0040404000000000
(1779320129.955733) can0 18974010#0000000000000000
(1779320129.956729) can0 18984010#0000000000000000
(1779320129.957692) can0 18FA28F4#123EA12C10270000
(1779320129.958703) can0 18FB28F4#D80CD60C40400000
(1779320129.959695) can0 18FC28F4#383300000D020000
(1779320129.960724) can0 18F810F3#0D02E80333640100
(1779320129.961709) can0 18F811F3#D80C1001D60C0101
(1779320129.962708) can0 18F812F3#4001014001010000
(1779320129.963718) can0 18F813F3#0101000000000000
(1779320129.964698) can0 18F814F3#3200EA1AA9015F00
(1779320129.965709) can0 18F815F3#0000000010030000
(1779320129.966612) can0 273#000000000D023300
(1779320129.967612) can0 1E1#020D271001FE01FE
(1779320129.968637) can0 1F5#0000000000000000
(1779320129.969715) can0 0800A6A9#0000000000000000
(1779320129.970679) can0 1000A6A9#0D028813334A4A4A
(1779320129.971711) can0 1C00A6A9#0000000000030000
(1779320129.972709) can0 02018100#1003020D00000000
(1779320129.973707) can0 02028100#0000003364000000
(1779320129.974703) can0 02038100#0CD801100CD60101
(1779320129.975699) can0 02048100#4A01014A01010000
(1779320129.976592) can0 1AD#8A14000059331818
(1779320129.977593) can0 2AD#D80C800C8A140016
(1779320129.978619) can0 3AD#0000000000008A14
(1779320129.979624) can0 4AD#EB00000000000000
(1779320129.980618) can0 76A#7F00000000000000
(1779320130.039254) can0 0000E005#1702420003B60591
(1779320130.039810) can0 1806E5F4#13EC010003B6023A
(1779320130.040702) can0 0000E000#13EC13EC020D0000
(1779320130.041687) can0 0000E004#181803B603B601E4
(1779320130.042687) can0 0000E006#0CD60CD60CD60CD6
(1779320130.043687) can0 0000E007#0CD60CD60CD60CD6
(1779320130.044687) can0 0000E008#0CD60CD60CD60CD6
(1779320130.045682) can0 0000E009#0CD60CD60CD60CD8
(1779320130.046709) can0 0000E010#0000000000000000
(1779320130.047712) can0 0000E011#0000000000000000
(1779320130.048691) can0 0000E012#0CD6000200000000
(1779320130.049723) can0 0000F001#0000000000000000
(1779320130.050704) can0 18FF28F4#10330000020D0000
(1779320130.051690) can0 18FE28F4#0CD80CD640400000
(1779320130.052704) can0 18FD28F4#1702FA6F00000000
(1779320130.053607) can0 4D4#000033007D0D0203
(1779320130.054606) can0 4D5#D60CD80C40400000
(1779320130.055683) can0 18914010#0CD8100CD6010000
(1779320130.056683) can0 18904010#020D020D753001FE
(1779320130.057691) can0 18FA28F4#123EA12C10270000
(1779320130.058678) can0 18FB28F4#D80CD60C40400000
(1779320130.059691) can0 18FC28F4#383300000D020000
(1779320130.060676) can0 18F810F3#0D02E80333640100
(1779320130.061704) can0 18F815F3#0000000010030000
(1779320130.062607) can0 273#000000000D023300
(1779320130.063602) can0 1E1#020D271001FE01FE
(1779320130.064620) can0 1F5#0000000000000000
(1779320130.065710) can0 0800A6A9#0000000000000000
(1779320130.066664) can0 1000A6A9#0D028813334A4A4A
(1779320130.067692) can0 1C00A6A9#0000000000030000
(1779320130.068710) can0 02018100#1003020D00000000
(1779320130.069704) can0 02028100#0000003364000000
(1779320130.070688) can0 02038100#0CD801100CD60101
(1779320130.071687) can0 02048100#4A01014A01010000
(1779320130.072591) can0 1AD#8A14000059331818
(1779320130.073588) can0 2AD#D80C800C8A140016
(1779320130.074613) can0 3AD#0000000000008A14
(1779320130.075606) can0 4AD#EB00000000000000
(1779320130.076627) can0 76A#7F00000000000000
(1779320130.139257) can0 0000E005#1702420003B60591
(1779320130.139811) can0 1806E5F4#13EC010003B6023A
(1779320130.140696) can0 0000E000#13EC13EC020D0000
(1779320130.141684) can0 0000E004#181803B603B601E4
(1779320130.142679) can0 0000E006#0CD60CD60CD60CD6
(1779320130.143678) can0 0000E007#0CD60CD60CD60CD6
(1779320130.144676) can0 0000E008#0CD60CD60CD60CD6
(1779320130.145679) can0 0000E009#0CD60CD60CD60CD8
(1779320130.146706) can0 0000E010#0000000000000000
(1779320130.147704) can0 0000E011#0000000000000000
(1779320130.148687) can0 0000E012#0CD6000200000000
(1779320130.149713) can0 0000F001#0000000000000000
(1779320130.150694) can0 18FF28F4#10330000020D0000
(1779320130.151686) can0 18FE28F4#0CD80CD640400000
(1779320130.152694) can0 18FD28F4#1702FA6F00000000
(1779320130.153597) can0 4D4#000033007D0D0203
(1779320130.154596) can0 4D5#D60CD80C40400000
(1779320130.155685) can0 18914010#0CD8100CD6010000
(1779320130.156677) can0 18904010#020D020D753001FE
(1779320130.157694) can0 18FA28F4#123EA12C10270000
(1779320130.158675) can0 18FB28F4#D80CD60C40400000
(1779320130.159715) can0 18FC28F4#383300000D020000
(1779320130.160668) can0 18F810F3#0D02E80333640100
(1779320130.161697) can0 18F815F3#0000000010030000
(1779320130.162608) can0 273#000000000D023300
(1779320130.163605) can0 1E1#020D271001FE01FE
(1779320130.164622) can0 1F5#0000000000000000
(1779320130.165711) can0 0800A6A9#0000000000000000
(1779320130.166666) can0 1000A6A9#0D028813334A4A4A
(1779320130.167725) can0 1C00A6A9#0000000000030000
(1779320130.168702) can0 02018100#1003020D00000000
(1779320130.169701) can0 02028100#0000003364000000
(1779320130.170685) can0 02038100#0CD801100CD60101
(1779320130.171678) can0 02048100#4A01014A01010000
(1779320130.172577) can0 1AD#8A14000059331818
(1779320130.173578) can0 2AD#D80C800C8A140016
(1779320130.174611) can0 3AD#0000000000008A14
(1779320130.175657) can0 4AD#EB00000000000000
(1779320130.176616) can0 76A#7F00000000000000
(1779320130.239298) can0 0000E005#1702420003B60591
(1779320130.239870) can0 1806E5F4#13EC010003B6023A
(1779320130.240691) can0 0000E000#13EC13EC020D0000
(1779320130.241673) can0 0000E004#181803B603B601E4
(1779320130.242675) can0 0000E006#0CD60CD60CD60CD6
(1779320130.243669) can0 0000E007#0CD60CD60CD60CD6
(1779320130.244695) can0 0000E008#0CD60CD60CD60CD6
(1779320130.245661) can0 0000E009#0CD60CD60CD60CD6
(1779320130.246708) can0 0000E010#0000000000000000
(1779320130.247696) can0 0000E011#0000000000000000
(1779320130.248692) can0 0000E012#0CD6000000000000
(1779320130.249710) can0 0000F001#0000000000000000
(1779320130.250693) can0 18FF28F4#10330000020D0000
(1779320130.251676) can0 18FE28F4#0CD60CD640400000
(1779320130.252715) can0 18FD28F4#1702FA6F00000000
(1779320130.253588) can0 4D4#000033007D0D0203
(1779320130.254592) can0 4D5#D60CD60C40400000
(1779320130.255671) can0 18914010#0CD6010CD6020000
(1779320130.256670) can0 18904010#020D020D753001FE
(1779320130.257678) can0 18FA28F4#123EA12C10270000
(1779320130.258681) can0 18FB28F4#D60CD60C40400000
(1779320130.259681) can0 18FC28F4#383300000D020000
(1779320130.260703) can0 18F810F3#0D02E80333640100
(1779320130.261693) can0 18F815F3#0000000010030000
(1779320130.262593) can0 273#000000000D023300
(1779320130.263594) can0 1E1#020D271001FE01FE
(1779320130.264606) can0 1F5#0000000000000000
(1779320130.265694) can0 0800A6A9#0000000000000000
(1779320130.266669) can0 1000A6A9#0D028813334A4A4A
(1779320130.267688) can0 1C00A6A9#0000000000030000
(1779320130.268745) can0 02018100#1003020D00000000
(1779320130.269688) can0 02028100#0000003364000000
(1779320130.270675) can0 02038100#0CD601010CD60102
(1779320130.271675) can0 02048100#4A01014A01010000
(1779320130.272575) can0 1AD#8A14000059331818
(1779320130.273587) can0 2AD#D60C800C8A140016
(1779320130.274600) can0 3AD#0000000000008A14
(1779320130.275600) can0 4AD#EB00000000000000
(1779320130.276612) can0 76A#7F00000000000000
(1779320130.339231) can0 0000E005#1702420003B60591
(1779320130.339815) can0 1806E5F4#13EC010003B6023A
(1779320130.340687) can0 0000E000#13EC13EC020D0000
(1779320130.341671) can0 0000E004#181803B603B601E4
(1779320130.342669) can0 0000E006#0CD60CD60CD60CD6
(1779320130.343671) can0 0000E007#0CD60CD60CD60CD6
(1779320130.344667) can0 0000E008#0CD60CD60CD60CD6
(1779320130.345705) can0 0000E009#0CD60CD60CD60CD6
(1779320130.346704) can0 0000E010#0000000000000000
(1779320130.347704) can0 0000E011#0000000000000000
(1779320130.348691) can0 0000E012#0CD6000000000000
(1779320130.349698) can0 0000F001#0000000000000000
(1779320130.350681) can0 18FF28F4#10330000020D0000
(1779320130.351665) can0 18FE28F4#0CD60CD640400000
(1779320130.352684) can0 18FD28F4#1702FA6F00000000
(1779320130.353600) can0 4D4#000033007D0D0203
(1779320130.354574) can0 4D5#D60CD60C40400000
(1779320130.355664) can0 18914010#0CD6010CD6020000
(1779320130.356661) can0 18904010#020D020D753001FE
(1779320130.357672) can0 18FA28F4#123EA12C10270000
(1779320130.358671) can0 18FB28F4#D60CD60C40400000
(1779320130.359672) can0 18FC28F4#383300000D020000
(1779320130.360651) can0 18F810F3#0D02E80333640100
(1779320130.361698) can0 18F815F3#0000000010030000
(1779320130.362581) can0 273#000000000D023300
(1779320130.363583) can0 1E1#020D271001FE01FE
(1779320130.364612) can0 1F5#0000000000000000
(1779320130.365695) can0 0800A6A9#0000000000000000
(1779320130.366655) can0 1000A6A9#0D028813334A4A4A
(1779320130.367691) can0 1C00A6A9#0000000000030000
(1779320130.368690) can0 02018100#1003020D00000000
(1779320130.369684) can0 02028100#0000003364000000
(1779320130.370665) can0 02038100#0CD601010CD60102
(1779320130.371691) can0 02048100#4A01014A01010000
(1779320130.372564) can0 1AD#8A14000059331818
(1779320130.373576) can0 2AD#D60C800C8A140016
(1779320130.374583) can0 3AD#0000000000008A14
(1779320130.375601) can0 4AD#EB00000000000000
(1779320130.376602) can0 76A#7F00000000000000
(1779320130.456232) can0 0000E005#1702420003B60591
(1779320130.456818) can0 1806E5F4#13EC010003B6023A
(1779320130.457683) can0 0000E000#13EC13EC020D0000
(1779320130.458661) can0 0000E004#181803B603B601E4
(1779320130.459675) can0 0000E006#0CD60CD60CD60CD6
(1779320130.460662) can0 0000E007#0CD60CD60CD60CD6
(1779320130.461661) can0 0000E008#0CD60CD60CD60CD6
(1779320130.462654) can0 0000E009#0CD60CD60CD60CD6
(1779320130.463703) can0 0000E010#0000000000000000
(1779320130.464700) can0 0000E011#0000000000000000
(1779320130.465687) can0 0000E012#0CD6000000000000
(1779320130.466649) can0 0000E013#4542323630354C43
(1779320130.467699) can0 0000E014#3134323300000000
(1779320130.468691) can0 0000E015#0000000000000003
(1779320130.469694) can0 0000F000#0000000000000000
(1779320130.470693) can0 0000F001#0000000000000000
(1779320130.471674) can0 18FF28F4#10330000020D0000
(1779320130.472675) can0 18FE28F4#0CD60CD640400000
(1779320130.473668) can0 18FD28F4#1702FA6F00000000
(1779320130.474586) can0 4D4#000033007D0D0203
(1779320130.475604) can0 4D5#D60CD60C40400000
(1779320130.476662) can0 18914010#0CD6070CD6010000
(1779320130.477662) can0 18904010#020D020D753001FE
(1779320130.478680) can0 18924010#4001400100000000
(1779320130.479661) can0 18934010#000000040000BD42
(1779320130.480668) can0 18944010#1003000000000000
(1779320130.481693) can0 18954010#0000000000000000
(1779320130.482701) can0 18954010#0100000000000000
(1779320130.483715) can0 18954010#0200000000000000
(1779320130.484686) can0 18954010#0300000000000000
(1779320130.485681) can0 18954010#0400000000000000
(1779320130.486681) can0 18954010#0500000000000000
(1779320130.487690) can0 18964010#0040404000000000
(1779320130.488686) can0 18974010#0000000000000000
(1779320130.489688) can0 18984010#0000000000000000
(1779320130.490656) can0 18FA28F4#123EA12C10270000
(1779320130.491713) can0 18FB28F4#D60CD60C40400000
(1779320130.492660) can0 18FC28F4#383300000D020000
(1779320130.493642) can0 18F810F3#0D02E80333640100
(1779320130.494675) can0 18F811F3#D60C0701D60C0101
(1779320130.495674) can0 18F812F3#4001014001010000
(1779320130.496693) can0 18F813F3#0101000000000000
(1779320130.497669) can0 18F814F3#3200EA1AA9015F00
(1779320130.498681) can0 18F815F3#0000000010030000
(1779320130.499579) can0 273#000000000D023300
(1779320130.500571) can0 1E1#020D271001FE01FE
(1779320130.501604) can0 1F5#0000000000000000
(1779320130.502681) can0 0800A6A9#0000000000000000
(1779320130.503651) can0 1000A6A9#0D028813334A4A4A
(1779320130.504677) can0 1C00A6A9#0000000000030000
(1779320130.505682) can0 02018100#1003020D00000000
(1779320130.506675) can0 02028100#0000003364000000
(1779320130.507662) can0 02038100#0CD601070CD60101
(1779320130.508674) can0 02048100#4A01014A01010000
(1779320130.509560) can0 1AD#8A14000059331818
(1779320130.510582) can0 2AD#D60C800C8A140016
(1779320130.511595) can0 3AD#0000000000008A14
(1779320130.512594) can0 4AD#EB00000000000000
(1779320130.513591) can0 76A#7F00000000000000
(1779320130.572228) can0 0000E005#1702420003B60591
(1779320130.572818) can0 1806E5F4#13EC010003B6023A
(1779320130.573679) can0 0000E000#13EC13EC020D0000
(1779320130.574657) can0 0000E004#181803B603B601E4
(1779320130.575639) can0 0000E006#0CD60CD60CD60CD6
(1779320130.576658) can0 0000E007#0CD60CD60CD60CD6
(1779320130.577652) can0 0000E008#0CD60CD60CD60CD6
(1779320130.578651) can0 0000E009#0CD60CD60CD60CD6
(1779320130.579693) can0 0000E010#0000000000000000
(1779320130.580679) can0 0000E011#0000000000000000
(1779320130.581664) can0 0000E012#0CD6000000000000
(1779320130.582702) can0 0000F001#0000000000000000
(1779320130.583668) can0 18FF28F4#10330000020D0000
(1779320130.584657) can0 18FE28F4#0CD60CD640400000
(1779320130.585658) can0 18FD28F4#1702FA6F00000000
(1779320130.586575) can0 4D4#000033007D0D0203
(1779320130.587556) can0 4D5#D60CD60C40400000
(1779320130.588650) can0 18914010#0CD6070CD6010000
(1779320130.589653) can0 18904010#020D020D753001FE
(1779320130.590664) can0 18FA28F4#123EA12C10270000
(1779320130.591645) can0 18FB28F4#D60CD60C40400000
(1779320130.592656) can0 18FC28F4#383300000D020000
(1779320130.593645) can0 18F810F3#0D02E80333640100
(1779320130.594677) can0 18F815F3#0000000010030000
(1779320130.595574) can0 273#000000000D023300
(1779320130.596554) can0 1E1#020D271001FE01FE
(1779320130.597589) can0 1F5#0000000000000000
(1779320130.598670) can0 0800A6A9#0000000000000000
(1779320130.599632) can0 1000A6A9#0D028813334A4A4A
(1779320130.600664) can0 1C00A6A9#0000000000030000
(1779320130.601682) can0 02018100#1003020D00000000
(1779320130.602675) can0 02028100#0000003364000000
(1779320130.603662) can0 02038100#0CD601070CD60101
(1779320130.604656) can0 02048100#4A01014A01010000
(1779320130.605560) can0 1AD#8A14000059331818
(1779320130.606553) can0 2AD#D60C800C8A140016
(1779320130.607584) can0 3AD#0000000000008A14
(1779320130.608573) can0 4AD#EB00000000000000
(1779320130.609590) can0 76A#7F00000000000000
(1779320130.672265) can0 0000E005#1702420003B60591
(1779320130.672824) can0 1806E5F4#13EC010003B6023A
(1779320130.673674) can0 0000E000#13EC13EC020D0000
(1779320130.674654) can0 0000E004#181803B603B601E4
(1779320130.675634) can0 0000E006#0CD60CD60CD60CD6
(1779320130.676636) can0 0000E007#0CD60CD60CD60CD6
(1779320130.677644) can0 0000E008#0CD60CD60CD60CD6
(1779320130.678645) can0 0000E009#0CD60CD60CD60CD6
(1779320130.679695) can0 0000E010#0000000000000000
(1779320130.680676) can0 0000E011#0000000000000000
(1779320130.681663) can0 0000E012#0CD6000000000000
(1779320130.682684) can0 0000F001#0000000000000000
(1779320130.683665) can0 18FF28F4#10330000020D0000
(1779320130.684649) can0 18FE28F4#0CD60CD640400000
(1779320130.685667) can0 18FD28F4#1702FA6F00000000
(1779320130.686567) can0 4D4#000033007D0D0203
(1779320130.687565) can0 4D5#D60CD60C40400000
(1779320130.688642) can0 18914010#0CD6070CD6010000
(1779320130.689636) can0 18904010#020D020D753001FE
(1779320130.690674) can0 18FA28F4#123EA12C10270000
(1779320130.691655) can0 18FB28F4#D60CD60C40400000
(1779320130.692654) can0 18FC28F4#383300000D020000
(1779320130.693628) can0 18F810F3#0D02E80333640100
(1779320130.694679) can0 18F815F3#0000000010030000
(1779320130.695569) can0 273#000000000D023300
(1779320130.696567) can0 1E1#020D271001FE01FE
(1779320130.697589) can0 1F5#0000000000000000
(1779320130.698684) can0 0800A6A9#0000000000000000
(1779320130.699633) can0 1000A6A9#0D028813334A4A4A
(1779320130.700665) can0 1C00A6A9#0000000000030000
(1779320130.701659) can0 02018100#1003020D00000000
(1779320130.702659) can0 02028100#0000003364000000
(1779320130.703643) can0 02038100#0CD601070CD60101
(1779320130.704655) can0 02048100#4A01014A01010000
(1779320130.705535) can0 1AD#8A14000059331818
(1779320130.706584) can0 2AD#D60C800C8A140016
(1779320130.707565) can0 3AD#0000000000008A14
(1779320130.708579) can0 4AD#EB00000000000000
(1779320130.709578) can0 76A#7F00000000000000
(1779320130.772225) can0 0000E005#1702420003B60591
(1779320130.772825) can0 1806E5F4#13EC010003B6023A
(1779320130.773664) can0 0000E000#13EC13EC020D0000
(1779320130.774647) can0 0000E004#181803B603B601E4
(1779320130.775662) can0 0000E006#0CD60CD60CD60CD6
(1779320130.776631) can0 0000E007#0CD60CD60CD60CD6
(1779320130.777642) can0 0000E008#0CD60CD60CD60CD6
(1779320130.778636) can0 0000E009#0CD60CD60CD60CD6
(1779320130.779674) can0 0000E010#0000000000000000
(1779320130.780677) can0 0000E011#0000000000000000
(1779320130.781656) can0 0000E012#0CD6000000000000
(1779320130.782669) can0 0000F001#0000000000000000
(1779320130.783706) can0 18FF28F4#10330000020D0000
(1779320130.784651) can0 18FE28F4#0CD60CD640400000
(1779320130.785650) can0 18FD28F4#1702FA6F00000000
(1779320130.786562) can0 4D4#000033007D0D0203
(1779320130.787548) can0 4D5#D60CD60C40400000
(1779320130.788643) can0 18914010#0CD6010CD6020000
(1779320130.789644) can0 18904010#020D020D753001FE
(1779320130.790636) can0 18FA28F4#123EA12C10270000
(1779320130.791687) can0 18FB28F4#D60CD60C40400000
(1779320130.792656) can0 18FC28F4#383300000D020000
(1779320130.793637) can0 18F810F3#0D02E80333640100
(1779320130.794669) can0 18F815F3#0000000010030000
(1779320130.795560) can0 273#000000000D023300
(1779320130.796556) can0 1E1#020D271001FE01FE
(1779320130.797585) can0 1F5#0000000000000000
(1779320130.798655) can0 0800A6A9#0000000000000000
(1779320130.799681) can0 1000A6A9#0D028813334A4A4A
(1779320130.800660) can0 1C00A6A9#0000000000030000
(1779320130.801657) can0 02018100#1003020D00000000
(1779320130.802654) can0 02028100#0000003364000000
(1779320130.803649) can0 02038100#0CD601010CD60102
(1779320130.804650) can0 02048100#4A01014A01010000
(1779320130.805534) can0 1AD#8A14000059331818
(1779320130.806551) can0 2AD#D60C800C8A140016
(1779320130.807569) can0 3AD#0000000000008A14
(1779320130.808576) can0 4AD#EB00000000000000
(1779320130.809570) can0 76A#7F00000000000000
(1779320130.872205) can0 0000E005#1702420003B60591
(1779320130.872750) can0 1806E5F4#13EC010003B6023A
(1779320130.873666) can0 0000E000#13EC13EC020D0000
(1779320130.874646) can0 0000E004#181803B603B601E4
(1779320130.875622) can0 0000E006#0CD60CD60CD60CD6
(1779320130.876672) can0 0000E007#0CD60CD60CD60CD6
(1779320130.877640) can0 0000E008#0CD60CD60CD60CD6
(1779320130.878638) can0 0000E009#0CD60CD60CD60CD6
(1779320130.879663) can0 0000E010#0000000000000000
(1779320130.880663) can0 0000E011#0000000000000000
(1779320130.881665) can0 0000E012#0CD6000000000000
(1779320130.882677) can0 0000F001#0000000000000000
(1779320130.883641) can0 18FF28F4#10330000020D0000
(1779320130.884639) can0 18FE28F4#0CD60CD640400000
(1779320130.885641) can0 18FD28F4#1702FA6F00000000
(1779320130.886557) can0 4D4#000033007D0D0203
(1779320130.887533) can0 4D5#D60CD60C40400000
(1779320130.888634) can0 18914010#0CD6010CD6020000
(1779320130.889633) can0 18904010#020D020D753001FE
(1779320130.890632) can0 18FA28F4#123EA12C10270000
(1779320130.891633) can0 18FB28F4#D60CD60C40400000
(1779320130.892647) can0 18FC28F4#383300000D020000
(1779320130.893627) can0 18F810F3#0D02E80333640100
(1779320130.894658) can0 18F815F3#0000000010030000
(1779320130.895556) can0 273#000000000D023300
(1779320130.896544) can0 1E1#020D271001FE01FE
(1779320130.897570) can0 1F5#0000000000000000
(1779320130.898653) can0 0800A6A9#0000000000000000
(1779320130.899614) can0 1000A6A9#0D028813334A4A4A
(1779320130.900647) can0 1C00A6A9#0000000000030000
(1779320130.901665) can0 02018100#1003020D00000000
(1779320130.902647) can0 02028100#0000003364000000
(1779320130.903647) can0 02038100#0CD601010CD60102
(1779320130.904640) can0 02048100#4A01014A01010000
(1779320130.905538) can0 1AD#8A14000059331818
(1779320130.906538) can0 2AD#D60C800C8A140016
(1779320130.907542) can0 3AD#0000000000008A14
(1779320130.908564) can0 4AD#EB00000000000000
(1779320130.909563) can0 76A#7F00000000000000
(1779320130.989193) can0 0000E005#1702420003B60591
(1779320130.989740) can0 1806E5F4#13EC010003B6023A
(1779320130.990657) can0 0000E000#13EC13EC020D0000
(1779320130.991662) can0 0000E004#181803B603B601E4
(1779320130.992626) can0 0000E006#0CD60CD60CD60CD6
(1779320130.993624) can0 0000E007#0CD60CD60CD60CD6
(1779320130.994634) can0 0000E008#0CD60CD60CD60CD6
(1779320130.995621) can0 0000E009#0CD60CD60CD60CD8
(1779320130.996668) can0 0000E010#0000000000000000
(1779320130.997655) can0 0000E011#0000000000000000
(1779320130.998657) can0 0000E012#0CD6000200000000
(1779320130.999612) can0 0000E013#4542323630354C43
(1779320131.000637) can0 0000E014#3134323300000000
(1779320131.001654) can0 0000E015#0000000000000003
(1779320131.002654) can0 0000F000#0000000000000000
(1779320131.003671) can0 0000F001#0000000000000000
(1779320131.004638) can0 18FF28F4#10330000020D0000
(1779320131.005632) can0 18FE28F4#0CD80CD640400000
(1779320131.006661) can0 18FD28F4#1702FA6F00000000
(1779320131.007546) can0 4D4#000033007D0D0203
(1779320131.008541) can0 4D5#D60CD80C40400000
(1779320131.009621) can0 18914010#0CD8100CD6020000
(1779320131.010624) can0 18904010#020D020D753001FE
(1779320131.011639) can0 18924010#4001400100000000
(1779320131.012637) can0 18934010#000000050000BD42
(1779320131.013644) can0 18944010#1003000000000000
(1779320131.014694) can0 18954010#0000000000000000
(1779320131.015663) can0 18954010#0100000000000000
(1779320131.016662) can0 18954010#0200000000000000
(1779320131.017662) can0 18954010#0300000000000000
(1779320131.018659) can0 18954010#0400000000000000
(1779320131.019646) can0 18954010#0500000000000000
(1779320131.020660) can0 18964010#0040404000000000
(1779320131.021653) can0 18974010#0000000000000000
(1779320131.022704) can0 18984010#0000000000000000
(1779320131.023635) can0 18FA28F4#123EA12C10270000
(1779320131.024634) can0 18FB28F4#D80CD60C40400000
(1779320131.025641) can0 18FC28F4#383300000D020000
(1779320131.026628) can0 18F810F3#0D02E80333640100
(1779320131.027640) can0 18F811F3#D80C1001D60C0201
(1779320131.028633) can0 18F812F3#4001014001010000
(1779320131.029645) can0 18F813F3#0101000000000000
(1779320131.030675) can0 18F814F3#3200EA1AA9015F00
(1779320131.031657) can0 18F815F3#0000000010030000
(1779320131.032542) can0 273#000000000D023300
(1779320131.033530) can0 1E1#020D271001FE01FE
(1779320131.034567) can0 1F5#0000000000000000
(1779320131.035643) can0 0800A6A9#0000000000000000
(1779320131.036612) can0 1000A6A9#0D028813334A4A4A
(1779320131.037637) can0 1C00A6A9#0000000000030000
(1779320131.038637) can0 02018100#1003020D00000000
(1779320131.039638) can0 02028100#0000003364000000
(1779320131.040638) can0 02038100#0CD801100CD60102
(1779320131.041638) can0 02048100#4A01014A01010000
(1779320131.042517) can0 1AD#8A14000059331818
(1779320131.043536) can0 2AD#D80C800C8A140016
(1779320131.044548) can0 3AD#0000000000008A14
(1779320131.045544) can0 4AD#EB00000000000000
(1779320131.046562) can0 76A#7F00000000000000
(1779320131.105230) can0 0000E005#1702420003B60591
(1779320131.105826) can0 1806E5F4#13EC010003B6023A
(1779320131.106637) can0 0000E000#13EC13EC020D0000
(1779320131.107666) can0 0000E004#181803B603B601E4
(1779320131.108615) can0 0000E006#0CD60CD60CD60CD6
(1779320131.109622) can0 0000E007#0CD60CD60CD60CD6
(1779320131.110615) can0 0000E008#0CD60CD60CD60CD6
(1779320131.111613) can0 0000E009#0CD60CD60CD60CD8
(1779320131.112659) can0 0000E010#0000000000000000
(1779320131.113657) can0 0000E011#0000000000000000
(1779320131.114638) can0 0000E012#0CD6000200000000
(1779320131.115651) can0 0000F001#0000000000000000
(1779320131.116640) can0 18FF28F4#10330000020D0000
(1779320131.117620) can0 18FE28F4#0CD80CD640400000
(1779320131.118632) can0 18FD28F4#1702FA6F00000000
(1779320131.119536) can0 4D4#000033007D0D0203
(1779320131.120532) can0 4D5#D60CD80C40400000
(1779320131.121624) can0 18914010#0CD8100CD6020000
(1779320131.122626) can0 18904010#020D020D753001FE
(1779320131.123626) can0 18FA28F4#123EA12C10270000
(1779320131.124626) can0 18FB28F4#D80CD60C40400000
(1779320131.125639) can0 18FC28F4#383300000D020000
(1779320131.126600) can0 18F810F3#0D02E80333640100
(1779320131.127651) can0 18F815F3#0000000010030000
(1779320131.128537) can0 273#000000000D023300
(1779320131.129531) can0 1E1#020D271001FE01FE
(1779320131.130558) can0 1F5#0000000000000000
(1779320131.131645) can0 0800A6A9#0000000000000000
(1779320131.132608) can0 1000A6A9#0D028813334A4A4A
(1779320131.133640) can0 1C00A6A9#0000000000030000
(1779320131.134639) can0 02018100#1003020D00000000
(1779320131.135640) can0 02028100#0000003364000000
(1779320131.136633) can0 02038100#0CD801100CD60102
(1779320131.137634) can0 02048100#4A01014A01010000
(1779320131.138513) can0 1AD#8A14000059331818
(1779320131.139515) can0 2AD#D80C800C8A140016
(1779320131.140548) can0 3AD#0000000000008A14
(1779320131.141558) can0 4AD#EB00000000000000
(1779320131.142556) can0 76A#7F00000000000000
(1779320131.205228) can0 0000E005#1702420003B60591
(1779320131.205836) can0 1806E5F4#13EC010003B6023A
(1779320131.206639) can0 0000E000#13EC13EC020D0000
(1779320131.207623) can0 0000E004#181803B603B601E4
(1779320131.208603) can0 0000E006#0CD60CD60CD60CD6
(1779320131.209605) can0 0000E007#0CD60CD60CD60CD6
(1779320131.210617) can0 0000E008#0CD60CD60CD60CD6
(1779320131.211598) can0 0000E009#0CD60CD60CD60CD8
(1779320131.212649) can0 0000E010#0000000000000000
(1779320131.213652) can0 0000E011#0000000000000000
(1779320131.214625) can0 0000E012#0CD6000200000000
(1779320131.215642) can0 0000F001#0000000000000000
(1779320131.216627) can0 18FF28F4#10330000020D0000
(1779320131.217613) can0 18FE28F4#0CD80CD640400000
(1779320131.218624) can0 18FD28F4#1702FA6F00000000
(1779320131.219542) can0 4D4#000033007D0D0203
(1779320131.220522) can0 4D5#D60CD80C40400000
(1779320131.221616) can0 18914010#0CD8100CD6020000
(1779320131.222612) can0 18904010#020D020D753001FE
(1779320131.223616) can0 18FA28F4#123EA12C10270000
(1779320131.224610) can0 18FB28F4#D80CD60C40400000
(1779320131.225628) can0 18FC28F4#383300000D020000
(1779320131.226604) can0 18F810F3#0D02E80333640100
