(1779321675.937930) can0 0000E005#1702440003B60591
(1779321675.938479) can0 1806E5F4#13D2010003B6023A
(1779321675.939320) can0 0000E000#13D213D2020D0000
(1779321675.940316) can0 0000E004#181803B603B601E2
(1779321675.941364) can0 0000E006#0CD60CD60CD50CD6
(1779321675.942289) can0 0000E007#0CD60CD50CD60CD6
(1779321675.943306) can0 0000E008#0CD60CD60CD60CD5
(1779321675.944304) can0 0000E009#0CD60CD60CD60CD6
(1779321675.945329) can0 0000E010#0000000000000000
(1779321675.946335) can0 0000E011#0000000000000000
(1779321675.947314) can0 0000E012#0CD5000100000000
(1779321675.948343) can0 0000F001#0000000000000000
(1779321675.949324) can0 18FF28F4#10320000020D0000
(1779321675.950299) can0 18FE28F4#0CD60CD540400000
(1779321675.951318) can0 18FD28F4#1702FA6F00000000
(1779321675.952258) can0 4D4#000032007D0D0203
(1779321675.953259) can0 4D5#D50CD60C40400000
(1779321675.954306) can0 18914010#0CD6100CD5030000
(1779321675.955309) can0 18904010#020D020D753001FB
(1779321675.956314) can0 18FA28F4#123EA12C10270000
(1779321675.957297) can0 18FB28F4#D60CD50C40400000
(1779321675.958328) can0 18FC28F4#383200000D020000
(1779321675.959294) can0 18F810F3#0D02E80332640100
(1779321675.960322) can0 18F815F3#0000000010030000
(1779321675.961263) can0 273#000000000D023200
(1779321675.962264) can0 1E1#020D271001FB01FB
(1779321675.963265) can0 1F5#0000000000000000
(1779321675.964314) can0 0800A6A9#0000000000000000
(1779321675.965280) can0 1000A6A9#0D028813324A4A4A
(1779321675.966314) can0 1C00A6A9#0000000000030000
(1779321675.967324) can0 02018100#1003020D00000000
(1779321675.968318) can0 02028100#0000003264000000
(1779321675.969300) can0 02038100#0CD601100CD50103
(1779321675.970316) can0 02048100#4A01014A01010000
(1779321675.971204) can0 1AD#8914000059321818
(1779321675.972202) can0 2AD#D60C800C89140016
(1779321675.973263) can0 3AD#0000000000008914
(1779321675.974275) can0 4AD#EB00000000000000
(1779321675.975273) can0 76A#7F00000000000000
(1779321676.037874) can0 0000E005#1702440003B60591
(1779321676.038424) can0 1806E5F4#13D2010003B6023A
(1779321676.039295) can0 0000E000#13D213D2020D0000
(1779321676.040295) can0 0000E004#181803B603B601E2
(1779321676.041303) can0 0000E006#0CD60CD60CD50CD6
(1779321676.042304) can0 0000E007#0CD60CD50CD60CD6
(1779321676.043294) can0 0000E008#0CD60CD60CD60CD5
(1779321676.044290) can0 0000E009#0CD60CD60CD60CD6
(1779321676.045333) can0 0000E010#0000000000000000
(1779321676.046326) can0 0000E011#0000000000000000
(1779321676.047308) can0 0000E012#0CD5000100000000
(1779321676.048326) can0 0000F001#0000000000000000
(1779321676.049307) can0 18FF28F4#10320000020D0000
(1779321676.050326) can0 18FE28F4#0CD60CD540400000
(1779321676.051303) can0 18FD28F4#1702FA6F00000000
(1779321676.052266) can0 4D4#000032007D0D0203
(1779321676.053203) can0 4D5#D50CD60C40400000
(1779321676.054289) can0 18914010#0CD6100CD5030000
(1779321676.055302) can0 18904010#020D020D753001FB
(1779321676.056302) can0 18FA28F4#123EA12C10270000
(1779321676.057300) can0 18FB28F4#D60CD50C40400000
(1779321676.058318) can0 18FC28F4#383200000D020000
(1779321676.059288) can0 18F810F3#0D02E80332640100
(1779321676.060326) can0 18F815F3#0000000010030000
(1779321676.061271) can0 273#000000000D023200
(1779321676.062202) can0 1E1#020D271001FB01FB
(1779321676.063267) can0 1F5#0000000000000000
(1779321676.064310) can0 0800A6A9#0000000000000000
(1779321676.065271) can0 1000A6A9#0D028813324A4A4A
(1779321676.066306) can0 1C00A6A9#0000000000030000
(1779321676.067331) can0 02018100#1003020D00000000
(1779321676.068329) can0 02028100#0000003264000000
(1779321676.069297) can0 02038100#0CD601100CD50103
(1779321676.070308) can0 02048100#4A01014A01010000
(1779321676.071264) can0 1AD#8914000059321818
(1779321676.072192) can0 2AD#D60C800C89140016
(1779321676.073263) can0 3AD#0000000000008914
(1779321676.074263) can0 4AD#EB00000000000000
(1779321676.075264) can0 76A#7F00000000000000
(1779321676.154882) can0 0000E005#1702440003B60591
(1779321676.155427) can0 1806E5F4#13D2010003B6023A
(1779321676.156340) can0 0000E000#13D213D2020D0000
(1779321676.157315) can0 0000E004#181803B603B601E2
(1779321676.158293) can0 0000E006#0CD60CD60CD60CD6
(1779321676.159294) can0 0000E007#0CD60CD50CD60CD6
(1779321676.160296) can0 0000E008#0CD60CD60CD60CD5
(1779321676.161294) can0 0000E009#0CD60CD60CD60CD6
(1779321676.162319) can0 0000E010#0000000000000000
(1779321676.163323) can0 0000E011#0000000000000000
(1779321676.164349) can0 0000E012#0CD5000100000000
(1779321676.165281) can0 0000E013#4542323630354C43
(1779321676.166313) can0 0000E014#3134323300000000
(1779321676.167306) can0 0000E015#0000000000000003
(1779321676.168325) can0 0000F000#0000000000000000
(1779321676.169319) can0 0000F001#0000000000000000
(1779321676.170300) can0 18FF28F4#10320000020D0000
(1779321676.171302) can0 18FE28F4#0CD60CD540400000
(1779321676.172293) can0 18FD28F4#1702FA6F00000000
(1779321676.173207) can0 4D4#000032007D0D0203
(1779321676.174207) can0 4D5#D50CD60C40400000
(1779321676.175301) can0 18914010#0CD6100CD5060000
(1779321676.176287) can0 18904010#020D020D753001FB
(1779321676.177301) can0 18924010#4001400100000000
(1779321676.178300) can0 18934010#000000580000BC51
(1779321676.179313) can0 18944010#1003000000000000
(1779321676.180377) can0 18954010#0000000000000000
(1779321676.181325) can0 18954010#0100000000000000
(1779321676.182319) can0 18954010#0200000000000000
(1779321676.183320) can0 18954010#0300000000000000
(1779321676.184314) can0 18954010#0400000000000000
(1779321676.185318) can0 18954010#0500000000000000
(1779321676.186311) can0 18964010#0040404000000000
(1779321676.187342) can0 18974010#0000000000000000
(1779321676.188326) can0 18984010#0000000000000000
(1779321676.189305) can0 18FA28F4#123EA12C10270000
(1779321676.190294) can0 18FB28F4#D60CD50C40400000
(1779321676.191308) can0 18FC28F4#383200000D020000
(1779321676.192288) can0 18F810F3#0D02E80332640100
(1779321676.193301) can0 18F811F3#D60C1001D50C0601
(1779321676.194299) can0 18F812F3#4001014001010000
(1779321676.195308) can0 18F813F3#0101000000000000
(1779321676.196286) can0 18F814F3#3200EA1AA9015F00
(1779321676.197313) can0 18F815F3#0000000010030000
(1779321676.198210) can0 273#000000000D023200
(1779321676.199189) can0 1E1#020D271001FB01FB
(1779321676.200269) can0 1F5#0000000000000000
(1779321676.201314) can0 0800A6A9#0000000000000000
(1779321676.202275) can0 1000A6A9#0D028813324A4A4A
(1779321676.203307) can0 1C00A6A9#0000000000030000
(1779321676.204308) can0 02018100#1003020D00000000
(1779321676.205318) can0 02028100#0000003264000000
(1779321676.206313) can0 02038100#0CD601100CD50106
(1779321676.207314) can0 02048100#4A01014A01010000
(1779321676.208175) can0 1AD#8914000059321818
(1779321676.209209) can0 2AD#D60C800C89140016
(1779321676.210209) can0 3AD#0000000000008914
(1779321676.211271) can0 4AD#EB00000000000000
(1779321676.212269) can0 76A#7F00000000000000
(1779321676.270871) can0 0000E005#1702440003B60591
(1779321676.271416) can0 1806E5F4#13D2010003B6023A
(1779321676.272298) can0 0000E000#13D213D2020D0000
(1779321676.273291) can0 0000E004#181803B603B601E2
(1779321676.274272) can0 0000E006#0CD60CD60CD60CD6
(1779321676.275272) can0 0000E007#0CD60CD50CD60CD6
(1779321676.276285) can0 0000E008#0CD60CD60CD60CD5
(1779321676.277280) can0 0000E009#0CD60CD60CD60CD6
(1779321676.278330) can0 0000E010#0000000000000000
(1779321676.279311) can0 0000E011#0000000000000000
(1779321676.280292) can0 0000E012#0CD5000100000000
(1779321676.281319) can0 0000F001#0000000000000000
(1779321676.282305) can0 18FF28F4#10320000020D0000
(1779321676.283286) can0 18FE28F4#0CD60CD540400000
(1779321676.284299) can0 18FD28F4#1702FA6F00000000
(1779321676.285194) can0 4D4#000032007D0D0203
(1779321676.286212) can0 4D5#D50CD60C40400000
(1779321676.287292) can0 18914010#0CD6100CD5060000
(1779321676.288292) can0 18904010#020D020D753001FB
(1779321676.289281) can0 18FA28F4#123EA12C10270000
(1779321676.290286) can0 18FB28F4#D60CD50C40400000
(1779321676.291312) can0 18FC28F4#383200000D020000
(1779321676.292273) can0 18F810F3#0D02E80332640100
(1779321676.293304) can0 18F815F3#0000000010030000
(1779321676.294273) can0 273#000000000D023200
(1779321676.295202) can0 1E1#020D271001FB01FB
(1779321676.296212) can0 1F5#0000000000000000
(1779321676.297311) can0 0800A6A9#0000000000000000
(1779321676.298274) can0 1000A6A9#0D028813324A4A4A
(1779321676.299306) can0 1C00A6A9#0000000000030000
(1779321676.300305) can0 02018100#1003020D00000000
(1779321676.301297) can0 02028100#0000003264000000
(1779321676.302312) can0 02038100#0CD601100CD50106
(1779321676.303293) can0 02048100#4A01014A01010000
(1779321676.304189) can0 1AD#8914000059321818
(1779321676.305180) can0 2AD#D60C800C89140016
(1779321676.306194) can0 3AD#0000000000008914
(1779321676.307207) can0 4AD#EB00000000000000
(1779321676.308201) can0 76A#7F00000000000000
(1779321676.370909) can0 0000E005#1702440003B60591
(1779321676.371465) can0 1806E5F4#13D2010003B6023A
(1779321676.372297) can0 0000E000#13D213D2020D0000
(1779321676.373290) can0 0000E004#181803B603B601E2
(1779321676.374277) can0 0000E006#0CD60CD60CD60CD6
(1779321676.375288) can0 0000E007#0CD60CD50CD60CD6
(1779321676.376282) can0 0000E008#0CD60CD60CD60CD5
(1779321676.377289) can0 0000E009#0CD60CD60CD60CD6
(1779321676.378317) can0 0000E010#0000000000000000
(1779321676.379344) can0 0000E011#0000000000000000
(1779321676.380291) can0 0000E012#0CD5000100000000
(1779321676.381322) can0 0000F001#0000000000000000
(1779321676.382303) can0 18FF28F4#10320000020D0000
(1779321676.383277) can0 18FE28F4#0CD60CD540400000
(1779321676.384297) can0 18FD28F4#1702FA6F00000000
(1779321676.385204) can0 4D4#000032007D0D0203
(1779321676.386183) can0 4D5#D50CD60C40400000
(1779321676.387322) can0 18914010#0CD6100CD5060000
(1779321676.388277) can0 18904010#020D020D753001FB
(1779321676.389278) can0 18FA28F4#123EA12C10270000
(1779321676.390277) can0 18FB28F4#D60CD50C40400000
(1779321676.391312) can0 18FC28F4#383200000D020000
(1779321676.392279) can0 18F810F3#0D02E80332640100
(1779321676.393303) can0 18F815F3#0000000010030000
(1779321676.394199) can0 273#000000000D023200
(1779321676.395278) can0 1E1#020D271001FB01FB
(1779321676.396277) can0 1F5#0000000000000000
(1779321676.397303) can0 0800A6A9#0000000000000000
(1779321676.398277) can0 1000A6A9#0D028813324A4A4A
(1779321676.399297) can0 1C00A6A9#0000000000030000
(1779321676.400310) can0 02018100#1003020D00000000
(1779321676.401303) can0 02028100#0000003264000000
(1779321676.402286) can0 02038100#0CD601100CD50106
(1779321676.403278) can0 02048100#4A01014A01010000
(1779321676.404180) can0 1AD#8914000059321818
(1779321676.405193) can0 2AD#D60C800C89140016
(1779321676.406204) can0 3AD#0000000000008914
(1779321676.407214) can0 4AD#EB00000000000000
(1779321676.408211) can0 76A#7F00000000000000
(1779321676.470838) can0 0000E005#1702440003B60591
(1779321676.471404) can0 1806E5F4#13D2010003B6023A
(1779321676.472326) can0 0000E000#13D213D2020D0000
(1779321676.473288) can0 0000E004#181803B603B601E2
(1779321676.474281) can0 0000E006#0CD60CD50CD60CD5
(1779321676.475282) can0 0000E007#0CD50CD50CD60CD6
(1779321676.476281) can0 0000E008#0CD60CD60CD60CD5
(1779321676.477281) can0 0000E009#0CD60CD60CD60CD6
(1779321676.478307) can0 0000E010#0000000000000000
(1779321676.479307) can0 0000E011#0000000000000000
(1779321676.480300) can0 0000E012#0CD5000100000000
(1779321676.481313) can0 0000F001#0000000000000000
(1779321676.482294) can0 18FF28F4#10320000020D0000
(1779321676.483282) can0 18FE28F4#0CD60CD540400000
(1779321676.484288) can0 18FD28F4#1702FA6F00000000
(1779321676.485203) can0 4D4#000032007D0D0203
(1779321676.486183) can0 4D5#D50CD60C40400000
(1779321676.487282) can0 18914010#0CD6100CD5020000
(1779321676.488282) can0 18904010#020D020D753001FB
(1779321676.489282) can0 18FA28F4#123EA12C10270000
(1779321676.490282) can0 18FB28F4#D60CD50C40400000
(1779321676.491308) can0 18FC28F4#383200000D020000
(1779321676.492282) can0 18F810F3#0D02E80332640100
(1779321676.493301) can0 18F815F3#0000000010030000
(1779321676.494198) can0 273#000000000D023200
(1779321676.495187) can0 1E1#020D271001FB01FB
(1779321676.496208) can0 1F5#0000000000000000
(1779321676.497307) can0 0800A6A9#0000000000000000
(1779321676.498282) can0 1000A6A9#0D028813324A4A4A
(1779321676.499290) can0 1C00A6A9#0000000000030000
(1779321676.500295) can0 02018100#1003020D00000000
(1779321676.501308) can0 02028100#0000003264000000
(1779321676.502282) can0 02038100#0CD601100CD50102
(1779321676.503282) can0 02048100#4A01014A01010000
(1779321676.504178) can0 1AD#8914000059321818
(1779321676.505178) can0 2AD#D60C800C89140016
(1779321676.506203) can0 3AD#0000000000008914
(1779321676.507196) can0 4AD#EB00000000000000
(1779321676.508213) can0 76A#7F00000000000000
(1779321676.570825) can0 0000E005#1702440003B60591
(1779321676.571388) can0 1806E5F4#13D2010003B6023A
(1779321676.572286) can0 0000E000#13D213D2020D0000
(1779321676.573287) can0 0000E004#181803B603B601E2
(1779321676.574286) can0 0000E006#0CD60CD50CD60CD5
(1779321676.575286) can0 0000E007#0CD50CD50CD60CD6
(1779321676.576286) can0 0000E008#0CD60CD60CD60CD5
(1779321676.577286) can0 0000E009#0CD60CD60CD60CD6
(1779321676.578312) can0 0000E010#0000000000000000
(1779321676.579312) can0 0000E011#0000000000000000
(1779321676.580286) can0 0000E012#0CD5000100000000
(1779321676.581305) can0 0000F001#0000000000000000
(1779321676.582305) can0 18FF28F4#10320000020D0000
(1779321676.583287) can0 18FE28F4#0CD60CD540400000
(1779321676.584287) can0 18FD28F4#1702FA6F00000000
(1779321676.585195) can0 4D4#000032007D0D0203
(1779321676.586194) can0 4D5#D50CD60C40400000
(1779321676.587287) can0 18914010#0CD6100CD5020000
(1779321676.588287) can0 18904010#020D020D753001FB
(1779321676.589287) can0 18FA28F4#123EA12C10270000
(1779321676.590288) can0 18FB28F4#D60CD50C40400000
(1779321676.591307) can0 18FC28F4#383200000D020000
(1779321676.592287) can0 18F810F3#0D02E80332640100
(1779321676.593300) can0 18F815F3#0000000010030000
(1779321676.594215) can0 273#000000000D023200
(1779321676.595182) can0 1E1#020D271001FB01FB
(1779321676.596206) can0 1F5#0000000000000000
(1779321676.597287) can0 0800A6A9#0000000000000000
(1779321676.598287) can0 1000A6A9#0D028813324A4A4A
(1779321676.599287) can0 1C00A6A9#0000000000030000
(1779321676.600293) can0 02018100#1003020D00000000
(1779321676.601287) can0 02028100#0000003264000000
(1779321676.602307) can0 02038100#0CD601100CD50102
(1779321676.603287) can0 02048100#4A01014A01010000
(1779321676.604158) can0 1AD#8914000059321818
(1779321676.605176) can0 2AD#D60C800C89140016
(1779321676.606189) can0 3AD#0000000000008914
(1779321676.607202) can0 4AD#EB00000000000000
(1779321676.608194) can0 76A#7F00000000000000
(1779321676.687836) can0 0000E005#1702440003B60591
(1779321676.688394) can0 1806E5F4#13D2010003B6023A
(1779321676.689292) can0 0000E000#13D213D2020D0000
(1779321676.690292) can0 0000E004#181803B603B601E2
(1779321676.691292) can0 0000E006#0CD60CD60CD50CD5
(1779321676.692292) can0 0000E007#0CD60CD50CD60CD6
(1779321676.693291) can0 0000E008#0CD60CD60CD60CD5
(1779321676.694292) can0 0000E009#0CD60CD60CD60CD6
(1779321676.695349) can0 0000E010#0000000000000000
(1779321676.696298) can0 0000E011#0000000000000000
(1779321676.697292) can0 0000E012#0CD5000100000000
(1779321676.698292) can0 0000E013#4542323630354C43
(1779321676.699292) can0 0000E014#3134323300000000
(1779321676.700299) can0 0000E015#0000000000000003
(1779321676.701292) can0 0000F000#0000000000000000
(1779321676.702292) can0 0000F001#0000000000000000
(1779321676.703324) can0 18FF28F4#10320000020D0000
(1779321676.704292) can0 18FE28F4#0CD60CD540400000
(1779321676.705292) can0 18FD28F4#1702FA6F00000000
(1779321676.706177) can0 4D4#000032007D0D0203
(1779321676.707181) can0 4D5#D50CD60C40400000
(1779321676.708292) can0 18914010#0CD6100CD5030000
(1779321676.709292) can0 18904010#020D020D753001FB
(1779321676.710292) can0 18924010#4001400100000000
(1779321676.711293) can0 18934010#000000590000BC51
(1779321676.712292) can0 18944010#1003000000000000
(1779321676.713305) can0 18954010#0000000000000000
(1779321676.714305) can0 18954010#0100000000000000
(1779321676.715305) can0 18954010#0200000000000000
(1779321676.716299) can0 18954010#0300000000000000
(1779321676.717293) can0 18954010#0400000000000000
(1779321676.718292) can0 18954010#0500000000000000
(1779321676.719293) can0 18964010#0040404000000000
(1779321676.720293) can0 18974010#0000000000000000
(1779321676.721292) can0 18984010#0000000000000000
(1779321676.722293) can0 18FA28F4#123EA12C10270000
(1779321676.723293) can0 18FB28F4#D60CD50C40400000
(1779321676.724293) can0 18FC28F4#383200000D020000
(1779321676.725293) can0 18F810F3#0D02E80332640100
(1779321676.726293) can0 18F811F3#D60C1001D50C0301
(1779321676.727293) can0 18F812F3#4001014001010000
(1779321676.728293) can0 18F813F3#0101000000000000
(1779321676.729293) can0 18F814F3#3200EA1AA9015F00
(1779321676.730293) can0 18F815F3#0000000010030000
(1779321676.731189) can0 273#000000000D023200
(1779321676.732170) can0 1E1#020D271001FB01FB
(1779321676.733198) can0 1F5#0000000000000000
(1779321676.734294) can0 0800A6A9#0000000000000000
(1779321676.735294) can0 1000A6A9#0D028813324A4A4A
(1779321676.736294) can0 1C00A6A9#0000000000030000
(1779321676.737293) can0 02018100#1003020D00000000
(1779321676.738293) can0 02028100#0000003264000000
(1779321676.739294) can0 02038100#0CD601100CD50103
(1779321676.740293) can0 02048100#4A01014A01010000
(1779321676.741149) can0 1AD#8914000059321818
(1779321676.742169) can0 2AD#D60C800C89140016
(1779321676.743182) can0 3AD#0000000000008914
(1779321676.744195) can0 4AD#EB00000000000000
(1779321676.745191) can0 76A#7F00000000000000
(1779321676.803868) can0 0000E005#1702440003B60591
(1779321676.804446) can0 1806E5F4#13D2010003B6023A
(1779321676.805297) can0 0000E000#13D213D2020D0000
(1779321676.806296) can0 0000E004#181803B603B601E2
(1779321676.807298) can0 0000E006#0CD60CD60CD50CD5
(1779321676.808297) can0 0000E007#0CD60CD50CD60CD6
(1779321676.809297) can0 0000E008#0CD60CD60CD60CD5
(1779321676.810297) can0 0000E009#0CD60CD60CD60CD6
(1779321676.811298) can0 0000E010#0000000000000000
(1779321676.812297) can0 0000E011#0000000000000000
(1779321676.813297) can0 0000E012#0CD5000100000000
(1779321676.814301) can0 0000F001#0000000000000000
(1779321676.815300) can0 18FF28F4#10320000020D0000
(1779321676.816298) can0 18FE28F4#0CD60CD540400000
(1779321676.817297) can0 18FD28F4#1702FA6F00000000
(1779321676.818187) can0 4D4#000032007D0D0203
(1779321676.819167) can0 4D5#D50CD60C40400000
(1779321676.820298) can0 18914010#0CD6100CD5030000
(1779321676.821298) can0 18904010#020D020D753001FB
(1779321676.822297) can0 18FA28F4#123EA12C10270000
(1779321676.823298) can0 18FB28F4#D60CD50C40400000
(1779321676.824298) can0 18FC28F4#383200000D020000
(1779321676.825298) can0 18F810F3#0D02E80332640100
(1779321676.826298) can0 18F815F3#0000000010030000
(1779321676.827180) can0 273#000000000D023200
(1779321676.828172) can0 1E1#020D271001FB01FB
(1779321676.829205) can0 1F5#0000000000000000
(1779321676.830298) can0 0800A6A9#0000000000000000
(1779321676.831298) can0 1000A6A9#0D028813324A4A4A
(1779321676.832299) can0 1C00A6A9#0000000000030000
(1779321676.833317) can0 02018100#1003020D00000000
(1779321676.834298) can0 02028100#0000003264000000
(1779321676.835298) can0 02038100#0CD601100CD50103
(1779321676.836298) can0 02048100#4A01014A01010000
(1779321676.837162) can0 1AD#8914000059321818
(1779321676.838151) can0 2AD#D60C800C89140016
(1779321676.839187) can0 3AD#0000000000008914
(1779321676.840186) can0 4AD#EB00000000000000
(1779321676.841226) can0 76A#7F00000000000000
(1779321676.903821) can0 0000E005#1702440003B60591
(1779321676.904386) can0 1806E5F4#13D2010003B6023A
(1779321676.905302) can0 0000E000#13D213D2020D0000
(1779321676.906301) can0 0000E004#181803B603B601E2
(1779321676.907302) can0 0000E006#0CD60CD60CD50CD5
(1779321676.908301) can0 0000E007#0CD60CD50CD60CD6
(1779321676.909302) can0 0000E008#0CD60CD60CD60CD5
(1779321676.910301) can0 0000E009#0CD60CD60CD60CD6
(1779321676.911303) can0 0000E010#0000000000000000
(1779321676.912302) can0 0000E011#0000000000000000
(1779321676.913302) can0 0000E012#0CD5000100000000
(1779321676.914301) can0 0000F001#0000000000000000
(1779321676.915302) can0 18FF28F4#10320000020D0000
(1779321676.916302) can0 18FE28F4#0CD60CD540400000
(1779321676.917302) can0 18FD28F4#1702FA6F00000000
(1779321676.918211) can0 4D4#000032007D0D0203
(1779321676.919170) can0 4D5#D50CD60C40400000
(1779321676.920302) can0 18914010#0CD6100CD5030000
(1779321676.921302) can0 18904010#020D020D753001FB
(1779321676.922302) can0 18FA28F4#123EA12C10270000
(1779321676.923303) can0 18FB28F4#D60CD50C40400000
(1779321676.924303) can0 18FC28F4#383200000D020000
(1779321676.925302) can0 18F810F3#0D02E80332640100
(1779321676.926334) can0 18F815F3#0000000010030000
(1779321676.927179) can0 273#000000000D023200
(1779321676.928165) can0 1E1#020D271001FB01FB
(1779321676.929191) can0 1F5#0000000000000000
(1779321676.930302) can0 0800A6A9#0000000000000000
(1779321676.931234) can0 1000A6A9#0D028813324A4A4A
(1779321676.932303) can0 1C00A6A9#0000000000030000
(1779321676.933302) can0 02018100#1003020D00000000
(1779321676.934303) can0 02028100#0000003264000000
(1779321676.935303) can0 02038100#0CD601100CD50103
(1779321676.936303) can0 02048100#4A01014A01010000
(1779321676.937154) can0 1AD#8914000059321818
(1779321676.938165) can0 2AD#D60C800C89140016
(1779321676.939184) can0 3AD#0000000000008914
(1779321676.940191) can0 4AD#EB00000000000000
(1779321676.941185) can0 76A#7F00000000000000
(1779321677.003833) can0 0000E005#1702440003B60591
(1779321677.004392) can0 1806E5F4#13D2010003B6023A
(1779321677.005306) can0 0000E000#13D213D2020D0000
(1779321677.006306) can0 0000E004#181803B603B601E2
(1779321677.007308) can0 0000E006#0CD60CD60CD50CD6
(1779321677.008306) can0 0000E007#0CD50CD60CD60CD6
(1779321677.009240) can0 0000E008#0CD60CD60CD60CD5
(1779321677.010306) can0 0000E009#0CD60CD60CD60CD6
(1779321677.011306) can0 0000E010#0000000000000000
(1779321677.012306) can0 0000E011#0000000000000000
(1779321677.013306) can0 0000E012#0CD5000100000000
(1779321677.014306) can0 0000F001#0000000000000000
(1779321677.015307) can0 18FF28F4#10320000020D0000
(1779321677.016306) can0 18FE28F4#0CD60CD540400000
(1779321677.017307) can0 18FD28F4#1702FA6F00000000
(1779321677.018183) can0 4D4#000032007D0D0203
(1779321677.019163) can0 4D5#D50CD60C40400000
(1779321677.020241) can0 18914010#0CD6100CD5030000
(1779321677.021307) can0 18904010#020D020D753001FB
(1779321677.022307) can0 18FA28F4#123EA12C10270000
(1779321677.023241) can0 18FB28F4#D60CD50C40400000
(1779321677.024307) can0 18FC28F4#383200000D020000
(1779321677.025307) can0 18F810F3#0D02E80332640100
(1779321677.026307) can0 18F815F3#0000000010030000
(1779321677.027171) can0 273#000000000D023200
(1779321677.028167) can0 1E1#020D271001FB01FB
(1779321677.029202) can0 1F5#0000000000000000
(1779321677.030307) can0 0800A6A9#0000000000000000
(1779321677.031242) can0 1000A6A9#0D028813324A4A4A
(1779321677.032307) can0 1C00A6A9#0000000000030000
(1779321677.033307) can0 02018100#1003020D00000000
(1779321677.034307) can0 02028100#0000003264000000
(1779321677.035307) can0 02038100#0CD601100CD50103
(1779321677.036307) can0 02048100#4A01014A01010000
(1779321677.037159) can0 1AD#8914000059321818
(1779321677.038157) can0 2AD#D60C800C89140016
(1779321677.039184) can0 3AD#0000000000008914
(1779321677.040190) can0 4AD#EB00000000000000
(1779321677.041189) can0 76A#7F00000000000000
(1779321677.103869) can0 0000E005#1702440003B60591
(1779321677.104428) can0 1806E5F4#13D2010003B6023A
(1779321677.105311) can0 0000E000#13D213D2020D0000
(1779321677.106251) can0 0000E004#181803B603B601E2
(1779321677.107250) can0 0000E006#0CD60CD60CD50CD6
(1779321677.108243) can0 0000E007#0CD50CD60CD60CD6
(1779321677.109243) can0 0000E008#0CD60CD60CD60CD5
(1779321677.110237) can0 0000E009#0CD60CD60CD60CD6
(1779321677.111311) can0 0000E010#0000000000000000
(1779321677.112311) can0 0000E011#0000000000000000
(1779321677.113311) can0 0000E012#0CD5000100000000
(1779321677.114311) can0 0000F001#0000000000000000
(1779321677.115311) can0 18FF28F4#10320000020D0000
(1779321677.116238) can0 18FE28F4#0CD60CD540400000
(1779321677.117311) can0 18FD28F4#1702FA6F00000000
(1779321677.118168) can0 4D4#000032007D0D0203
(1779321677.119161) can0 4D5#D50CD60C40400000
(1779321677.120244) can0 18914010#0CD6100CD5030000
(1779321677.121238) can0 18904010#020D020D753001FB
(1779321677.122251) can0 18FA28F4#123EA12C10270000
(1779321677.123238) can0 18FB28F4#D60CD50C40400000
(1779321677.124311) can0 18FC28F4#383200000D020000
(1779321677.125312) can0 18F810F3#0D02E80332640100
(1779321677.126311) can0 18F815F3#0000000010030000
(1779321677.127163) can0 273#000000000D023200
(1779321677.128162) can0 1E1#020D271001FB01FB
(1779321677.129184) can0 1F5#0000000000000000
(1779321677.130312) can0 0800A6A9#0000000000000000
(1779321677.131234) can0 1000A6A9#0D028813324A4A4A
(1779321677.132312) can0 1C00A6A9#0000000000030000
(1779321677.133312) can0 02018100#1003020D00000000
(1779321677.134312) can0 02028100#0000003264000000
(1779321677.135246) can0 02038100#0CD601100CD50103
(1779321677.136312) can0 02048100#4A01014A01010000
(1779321677.137144) can0 1AD#8914000059321818
(1779321677.138149) can0 2AD#D60C800C89140016
(1779321677.139174) can0 3AD#0000000000008914
(1779321677.140168) can0 4AD#EB00000000000000
(1779321677.141211) can0 76A#7F00000000000000
(1779321677.220855) can0 0000E005#1702440003B60591
(1779321677.221418) can0 1806E5F4#13D2010003B6023A
(1779321677.222249) can0 0000E000#13D213D2020D0000
(1779321677.223243) can0 0000E004#181803B603B601E2
(1779321677.224242) can0 0000E006#0CD60CD60CD60CD5
(1779321677.225223) can0 0000E007#0CD50CD50CD60CD6
(1779321677.226316) can0 0000E008#0CD60CD60CD60CD5
(1779321677.227225) can0 0000E009#0CD60CD60CD60CD6
(1779321677.228316) can0 0000E010#0000000000000000
(1779321677.229316) can0 0000E011#0000000000000000
(1779321677.230316) can0 0000E012#0CD5000100000000
(1779321677.231225) can0 0000E013#4542323630354C43
(1779321677.232256) can0 0000E014#3134323300000000
(1779321677.233316) can0 0000E015#0000000000000003
(1779321677.234336) can0 0000F000#0000000000000000
(1779321677.235317) can0 0000F001#0000000000000000
(1779321677.236257) can0 18FF28F4#10320000020D0000
(1779321677.237237) can0 18FE28F4#0CD60CD540400000
(1779321677.238249) can0 18FD28F4#1702FA6F00000000
(1779321677.239164) can0 4D4#000032007D0D0203
(1779321677.240147) can0 4D5#D50CD60C40400000
(1779321677.241244) can0 18914010#0CD6100CD5040000
(1779321677.242243) can0 18904010#020D020D753001FB
(1779321677.243317) can0 18924010#4001400100000000
(1779321677.244244) can0 18934010#0000005A0000BC51
(1779321677.245317) can0 18944010#1003000000000000
(1779321677.246317) can0 18954010#0000000000000000
(1779321677.247317) can0 18954010#0100000000000000
(1779321677.248317) can0 18954010#0200000000000000
(1779321677.249317) can0 18954010#0300000000000000
(1779321677.250317) can0 18954010#0400000000000000
(1779321677.251318) can0 18954010#0500000000000000
(1779321677.252318) can0 18964010#0040404000000000
(1779321677.253317) can0 18974010#0000000000000000
(1779321677.254317) can0 18984010#0000000000000000
(1779321677.255242) can0 18FA28F4#123EA12C10270000
(1779321677.256240) can0 18FB28F4#D60CD50C40400000
(1779321677.257318) can0 18FC28F4#383200000D020000
(1779321677.258226) can0 18F810F3#0D02E80332640100
(1779321677.259237) can0 18F811F3#D60C1001D50C0401
(1779321677.260250) can0 18F812F3#4001014001010000
(1779321677.261317) can0 18F813F3#0101000000000000
(1779321677.262239) can0 18F814F3#3200EA1AA9015F00
(1779321677.263318) can0 18F815F3#0000000010030000
(1779321677.264162) can0 273#000000000D023200
(1779321677.265161) can0 1E1#020D271001FB01FB
(1779321677.266187) can0 1F5#0000000000000000
(1779321677.267318) can0 0800A6A9#0000000000000000
(1779321677.268226) can0 1000A6A9#0D028813324A4A4A
(1779321677.269257) can0 1C00A6A9#0000000000030000
(1779321677.270318) can0 02018100#1003020D00000000
(1779321677.271318) can0 02028100#0000003264000000
(1779321677.272246) can0 02038100#0CD601100CD50104
(1779321677.273258) can0 02048100#4A01014A01010000
(1779321677.274143) can0 1AD#8914000059321818
(1779321677.275149) can0 2AD#D60C800C89140016
(1779321677.276169) can0 3AD#0000000000008914
(1779321677.277169) can0 4AD#EB00000000000000
(1779321677.278181) can0 76A#7F00000000000000
(1779321677.336799) can0 0000E005#1702440003B60591
(1779321677.337362) can0 1806E5F4#13D2010003B6023A
(1779321677.338255) can0 0000E000#13D213D2020D0000
(1779321677.339254) can0 0000E004#181803B603B601E2
(1779321677.340235) can0 0000E006#0CD60CD60CD60CD5
(1779321677.341229) can0 0000E007#0CD50CD50CD60CD6
(1779321677.342229) can0 0000E008#0CD60CD60CD60CD5
(1779321677.343242) can0 0000E009#0CD60CD60CD60CD6
(1779321677.344322) can0 0000E010#0000000000000000
(1779321677.345322) can0 0000E011#0000000000000000
(1779321677.346256) can0 0000E012#0CD5000100000000
(1779321677.347322) can0 0000F001#0000000000000000
(1779321677.348322) can0 18FF28F4#10320000020D0000
(1779321677.349244) can0 18FE28F4#0CD60CD540400000
(1779321677.350255) can0 18FD28F4#1702FA6F00000000
(1779321677.351177) can0 4D4#000032007D0D0203
(1779321677.352153) can0 4D5#D50CD60C40400000
(1779321677.353250) can0 18914010#0CD6100CD5040000
(1779321677.354243) can0 18904010#020D020D753001FB
(1779321677.355243) can0 18FA28F4#123EA12C10270000
(1779321677.356251) can0 18FB28F4#D60CD50C40400000
(1779321677.357322) can0 18FC28F4#383200000D020000
(1779321677.358231) can0 18F810F3#0D02E80332640100
(1779321677.359262) can0 18F815F3#0000000010030000
(1779321677.360159) can0 273#000000000D023200
(1779321677.361160) can0 1E1#020D271001FB01FB
(1779321677.362172) can0 1F5#0000000000000000
(1779321677.363323) can0 0800A6A9#0000000000000000
(1779321677.364257) can0 1000A6A9#0D028813324A4A4A
(1779321677.365256) can0 1C00A6A9#0000000000030000
(1779321677.366323) can0 02018100#1003020D00000000
(1779321677.367323) can0 02028100#0000003264000000
(1779321677.368237) can0 02038100#0CD601100CD50104
(1779321677.369249) can0 02048100#4A01014A01010000
(1779321677.370135) can0 1AD#8914000059321818
(1779321677.371144) can0 2AD#D60C800C89140016
(1779321677.372193) can0 3AD#0000000000008914
(1779321677.373173) can0 4AD#EB00000000000000
(1779321677.374166) can0 76A#7F00000000000000
(1779321677.436796) can0 0000E005#1702440003B60591
(1779321677.437367) can0 1806E5F4#13D2010003B6023A
(1779321677.438247) can0 0000E000#13D213D2020D0000
(1779321677.439247) can0 0000E004#181803B603B601E2
(1779321677.440224) can0 0000E006#0CD60CD60CD60CD5
(1779321677.441259) can0 0000E007#0CD50CD50CD60CD6
(1779321677.442240) can0 0000E008#0CD60CD60CD60CD5
(1779321677.443233) can0 0000E009#0CD60CD60CD60CD6
(1779321677.444260) can0 0000E010#0000000000000000
(1779321677.445266) can0 0000E011#0000000000000000
(1779321677.446246) can0 0000E012#0CD5000100000000
(1779321677.447327) can0 0000F001#0000000000000000
(1779321677.448254) can0 18FF28F4#10320000020D0000
(1779321677.449266) can0 18FE28F4#0CD60CD540400000
(1779321677.450247) can0 18FD28F4#1702FA6F00000000
(1779321677.451163) can0 4D4#000032007D0D0203
(1779321677.452141) can0 4D5#D50CD60C40400000
(1779321677.453240) can0 18914010#0CD6100CD5040000
(1779321677.454240) can0 18904010#020D020D753001FB
(1779321677.455235) can0 18FA28F4#123EA12C10270000
(1779321677.456231) can0 18FB28F4#D60CD50C40400000
(1779321677.457327) can0 18FC28F4#383200000D020000
(1779321677.458223) can0 18F810F3#0D02E80332640100
(1779321677.459254) can0 18F815F3#0000000010030000
(1779321677.460158) can0 273#000000000D023200
(1779321677.461151) can0 1E1#020D271001FB01FB
(1779321677.462183) can0 1F5#0000000000000000
(1779321677.463260) can0 0800A6A9#0000000000000000
(1779321677.464219) can0 1000A6A9#0D028813324A4A4A
(1779321677.465327) can0 1C00A6A9#0000000000030000
(1779321677.466255) can0 02018100#1003020D00000000
(1779321677.467266) can0 02028100#0000003264000000
(1779321677.468240) can0 02038100#0CD601100CD50104
(1779321677.469241) can0 02048100#4A01014A01010000
(1779321677.470146) can0 1AD#8914000059321818
(1779321677.471139) can0 2AD#D60C800C89140016
(1779321677.472152) can0 3AD#0000000000008914
(1779321677.473164) can0 4AD#EB00000000000000
(1779321677.474159) can0 76A#7F00000000000000
(1779321677.536836) can0 0000E005#1702440003B60591
(1779321677.537392) can0 1806E5F4#13D2010003B6023A
(1779321677.538231) can0 0000E000#13D213D2020D0000
(1779321677.539232) can0 0000E004#181803B603B601E2
(1779321677.540212) can0 0000E006#0CD60CD50CD50CD6
(1779321677.541222) can0 0000E007#0CD50CD50CD60CD5
(1779321677.542270) can0 0000E008#0CD60CD60CD60CD5
(1779321677.543219) can0 0000E009#0CD50CD60CD60CD6
(1779321677.544263) can0 0000E010#0000000000000000
(1779321677.545264) can0 0000E011#0000000000000000
(1779321677.546245) can0 0000E012#0CD5000100000000
(1779321677.547331) can0 0000F001#0000000000000000
(1779321677.548252) can0 18FF28F4#10320000020D0000
(1779321677.549229) can0 18FE28F4#0CD60CD540400000
(1779321677.550245) can0 18FD28F4#1702FA6F00000000
(1779321677.551166) can0 4D4#000032007D0D0203
(1779321677.552143) can0 4D5#D50CD60C40400000
(1779321677.553234) can0 18914010#0CD6100CD5020000
(1779321677.554232) can0 18904010#020D020D753001FB
(1779321677.555233) can0 18FA28F4#123EA12C10270000
(1779321677.556231) can0 18FB28F4#D60CD50C40400000
(1779321677.557258) can0 18FC28F4#383200000D020000
(1779321677.558226) can0 18F810F3#0D02E80332640100
(1779321677.559252) can0 18F815F3#0000000010030000
(1779321677.560156) can0 273#000000000D023200
(1779321677.561131) can0 1E1#020D271001FB01FB
(1779321677.562169) can0 1F5#0000000000000000
(1779321677.563258) can0 0800A6A9#0000000000000000
(1779321677.564207) can0 1000A6A9#0D028813324A4A4A
(1779321677.565237) can0 1C00A6A9#0000000000030000
(1779321677.566252) can0 02018100#1003020D00000000
(1779321677.567252) can0 02028100#0000003264000000
(1779321677.568233) can0 02038100#0CD601100CD50102
(1779321677.569246) can0 02048100#4A01014A01010000
(1779321677.570143) can0 1AD#8814000059321818
(1779321677.571157) can0 2AD#D60C800C88140016
(1779321677.572151) can0 3AD#0000000000008814
(1779321677.573163) can0 4AD#EB00000000000000
(1779321677.574157) can0 76A#7F00000000000000
(1779321677.636790) can0 0000E005#1702440003B60591
(1779321677.637348) can0 1806E5F4#13D2010003B6023A
(1779321677.638224) can0 0000E000#13D213D2020D0000
(1779321677.639224) can0 0000E004#181803B603B601E2
(1779321677.640204) can0 0000E006#0CD60CD50CD50CD6
(1779321677.641223) can0 0000E007#0CD50CD50CD60CD5
(1779321677.642217) can0 0000E008#0CD60CD60CD60CD5
(1779321677.643218) can0 0000E009#0CD50CD60CD60CD6
(1779321677.644263) can0 0000E010#0000000000000000
(1779321677.645261) can0 0000E011#0000000000000000
(1779321677.646232) can0 0000E012#0CD5000100000000
(1779321677.647269) can0 0000F001#0000000000000000
(1779321677.648251) can0 18FF28F4#10320000020D0000
(1779321677.649231) can0 18FE28F4#0CD60CD540400000
(1779321677.650240) can0 18FD28F4#1702FA6F00000000
(1779321677.651147) can0 4D4#000032007D0D0203
(1779321677.652141) can0 4D5#D50CD60C40400000
(1779321677.653236) can0 18914010#0CD6100CD5020000
(1779321677.654217) can0 18904010#020D020D753001FB
(1779321677.655230) can0 18FA28F4#123EA12C10270000
(1779321677.656230) can0 18FB28F4#D60CD50C40400000
(1779321677.657243) can0 18FC28F4#383200000D020000
(1779321677.658222) can0 18F810F3#0D02E80332640100
(1779321677.659256) can0 18F815F3#0000000010030000
(1779321677.660154) can0 273#000000000D023200
(1779321677.661134) can0 1E1#020D271001FB01FB
(1779321677.662163) can0 1F5#0000000000000000
(1779321677.663243) can0 0800A6A9#0000000000000000
(1779321677.664225) can0 1000A6A9#0D028813324A4A4A
(1779321677.665237) can0 1C00A6A9#0000000000030000
(1779321677.666256) can0 02018100#1003020D00000000
(1779321677.667252) can0 02028100#0000003264000000
(1779321677.668231) can0 02038100#0CD601100CD50102
(1779321677.669231) can0 02048100#4A01014A01010000
(1779321677.670120) can0 1AD#8814000059321818
(1779321677.671141) can0 2AD#D60C800C88140016
(1779321677.672186) can0 3AD#0000000000008814
(1779321677.673167) can0 4AD#EB00000000000000
(1779321677.674158) can0 76A#7F00000000000000
(1779321677.753817) can0 0000E005#1702440003B60591
(1779321677.754374) can0 1806E5F4#13D2010003B6023A
(1779321677.755238) can0 0000E000#13D213D2020D0000
(1779321677.756224) can0 0000E004#181803B603B601E2
(1779321677.757250) can0 0000E006#0CD60CD60CD50CD5
(1779321677.758217) can0 0000E007#0CD60CD50CD50CD6
(1779321677.759210) can0 0000E008#0CD60CD60CD50CD5
(1779321677.760223) can0 0000E009#0CD60CD60CD60CD6
(1779321677.761255) can0 0000E010#0000000000000000
(1779321677.762254) can0 0000E011#0000000000000000
(1779321677.763242) can0 0000E012#0CD5000100000000
(1779321677.764198) can0 0000E013#4542323630354C43
(1779321677.765280) can0 0000E014#3134323300000000
(1779321677.766242) can0 0000E015#0000000000000003
(1779321677.767255) can0 0000F000#0000000000000000
(1779321677.768254) can0 0000F001#0000000000000000
(1779321677.769236) can0 18FF28F4#10320000020D0000
(1779321677.770217) can0 18FE28F4#0CD60CD540400000
(1779321677.771229) can0 18FD28F4#1702FA6F00000000
(1779321677.772147) can0 4D4#000032007D0D0203
(1779321677.773127) can0 4D5#D50CD60C40400000
(1779321677.774224) can0 18914010#0CD6100CD5030000
(1779321677.775224) can0 18904010#020D020D753001FB
(1779321677.776232) can0 18924010#4001400100000000
(1779321677.777230) can0 18934010#0000005B0000BC51
(1779321677.778243) can0 18944010#1003000000000000
(1779321677.779262) can0 18954010#0000000000000000
(1779321677.780255) can0 18954010#0100000000000000
(1779321677.781342) can0 18954010#0200000000000000
(1779321677.782250) can0 18954010#0300000000000000
(1779321677.783250) can0 18954010#0400000000000000
(1779321677.784239) can0 18954010#0500000000000000
(1779321677.785243) can0 18964010#0040404000000000
(1779321677.786257) can0 18974010#0000000000000000
(1779321677.787249) can0 18984010#0000000000000000
(1779321677.788223) can0 18FA28F4#123EA12C10270000
(1779321677.789211) can0 18FB28F4#D60CD50C40400000
(1779321677.790237) can0 18FC28F4#383200000D020000
(1779321677.791218) can0 18F810F3#0D02E80332640100
(1779321677.792217) can0 18F811F3#D60C1001D50C0301
(1779321677.793231) can0 18F812F3#4001014001010000
(1779321677.794256) can0 18F813F3#0101000000000000
(1779321677.795218) can0 18F814F3#3200EA1AA9015F00
(1779321677.796240) can0 18F815F3#0000000010030000
(1779321677.797147) can0 273#000000000D023200
(1779321677.798128) can0 1E1#020D271001FB01FB
(1779321677.799154) can0 1F5#0000000000000000
(1779321677.800247) can0 0800A6A9#0000000000000000
(1779321677.801211) can0 1000A6A9#0D028813324A4A4A
(1779321677.802244) can0 1C00A6A9#0000000000030000
(1779321677.803243) can0 02018100#1003020D00000000
(1779321677.804237) can0 02028100#0000003264000000
(1779321677.805218) can0 02038100#0CD601100CD50103
(1779321677.806231) can0 02048100#4A01014A01010000
(1779321677.807116) can0 1AD#8914000059321818
(1779321677.808126) can0 2AD#D60C800C89140016
(1779321677.809142) can0 3AD#0000000000008914
(1779321677.810154) can0 4AD#EB00000000000000
(1779321677.811155) can0 76A#7F00000000000000
(1779321677.869776) can0 0000E005#1702440003B60591
(1779321677.870352) can0 1806E5F4#13D2010003B6023A
(1779321677.871223) can0 0000E000#13D213D2020D0000
(1779321677.872215) can0 0000E004#181803B603B601E2
(1779321677.873215) can0 0000E006#0CD60CD60CD50CD5
(1779321677.874208) can0 0000E007#0CD60CD50CD50CD6
(1779321677.875209) can0 0000E008#0CD60CD60CD50CD5
(1779321677.876222) can0 0000E009#0CD60CD60CD60CD6
(1779321677.877252) can0 0000E010#0000000000000000
(1779321677.878253) can0 0000E011#0000000000000000
(1779321677.879247) can0 0000E012#0CD5000100000000
(1779321677.880261) can0 0000F001#0000000000000000
(1779321677.881236) can0 18FF28F4#10320000020D0000
(1779321677.882223) can0 18FE28F4#0CD60CD540400000
(1779321677.883243) can0 18FD28F4#1702FA6F00000000
(1779321677.884139) can0 4D4#000032007D0D0203
(1779321677.885139) can0 4D5#D50CD60C40400000
(1779321677.886216) can0 18914010#0CD6100CD5030000
(1779321677.887229) can0 18904010#020D020D753001FB
(1779321677.888229) can0 18FA28F4#123EA12C10270000
(1779321677.889206) can0 18FB28F4#D60CD50C40400000
(1779321677.890235) can0 18FC28F4#383200000D020000
(1779321677.891204) can0 18F810F3#0D02E80332640100
(1779321677.892250) can0 18F815F3#0000000010030000
(1779321677.893146) can0 273#000000000D023200
(1779321677.894133) can0 1E1#020D271001FB01FB
(1779321677.895184) can0 1F5#0000000000000000
(1779321677.896236) can0 0800A6A9#0000000000000000
(1779321677.897205) can0 1000A6A9#0D028813324A4A4A
(1779321677.898235) can0 1C00A6A9#0000000000030000
(1779321677.899249) can0 02018100#1003020D00000000
(1779321677.900248) can0 02028100#0000003264000000
(1779321677.901222) can0 02038100#0CD601100CD50103
(1779321677.902223) can0 02048100#4A01014A01010000
(1779321677.903153) can0 1AD#8914000059321818
(1779321677.904133) can0 2AD#D60C800C89140016
(1779321677.905139) can0 3AD#0000000000008914
(1779321677.906159) can0 4AD#EB00000000000000
(1779321677.907153) can0 76A#7F00000000000000
(1779321677.969827) can0 0000E005#1702440003B60591
(1779321677.970386) can0 1806E5F4#13D2010003B6023A
(1779321677.971217) can0 0000E000#13D213D2020D0000
(1779321677.972246) can0 0000E004#181803B603B601E2
(1779321677.973207) can0 0000E006#0CD60CD60CD50CD5
(1779321677.974203) can0 0000E007#0CD60CD50CD50CD6
(1779321677.975207) can0 0000E008#0CD60CD60CD50CD5
(1779321677.976201) can0 0000E009#0CD60CD60CD60CD6
(1779321677.977246) can0 0000E010#0000000000000000
(1779321677.978238) can0 0000E011#0000000000000000
(1779321677.979227) can0 0000E012#0CD5000100000000
(1779321677.980272) can0 0000F001#0000000000000000
(1779321677.981240) can0 18FF28F4#10320000020D0000
(1779321677.982220) can0 18FE28F4#0CD60CD540400000
(1779321677.983220) can0 18FD28F4#1702FA6F00000000
(1779321677.984131) can0 4D4#000032007D0D0203
(1779321677.985131) can0 4D5#D50CD60C40400000
(1779321677.986202) can0 18914010#0CD6100CD5030000
(1779321677.987208) can0 18904010#020D020D753001FB
(1779321677.988252) can0 18FA28F4#123EA12C10270000
(1779321677.989201) can0 18FB28F4#D60CD50C40400000
(1779321677.990226) can0 18FC28F4#383200000D020000
(1779321677.991196) can0 18F810F3#0D02E80332640100
(1779321677.992246) can0 18F815F3#0000000010030000
(1779321677.993131) can0 273#000000000D023200
(1779321677.994125) can0 1E1#020D271001FB01FB
(1779321677.995160) can0 1F5#0000000000000000
(1779321677.996287) can0 0800A6A9#0000000000000000
(1779321677.997196) can0 1000A6A9#0D028813324A4A4A
(1779321677.998227) can0 1C00A6A9#0000000000030000
(1779321677.999240) can0 02018100#1003020D00000000
(1779321678.000241) can0 02028100#0000003264000000
(1779321678.001216) can0 02038100#0CD601100CD50103
(1779321678.002215) can0 02048100#4A01014A01010000
(1779321678.003113) can0 1AD#8914000059321818
(1779321678.004113) can0 2AD#D60C800C89140016
(1779321678.005139) can0 3AD#0000000000008914
(1779321678.006138) can0 4AD#EB00000000000000
(1779321678.007151) can0 76A#7F00000000000000
(1779321678.069832) can0 0000E005#1702440003B60591
(1779321678.070390) can0 1806E5F4#13D2010003B6023A
(1779321678.071219) can0 0000E000#13D213D2020D0000
(1779321678.072218) can0 0000E004#181803B603B601E2
(1779321678.073244) can0 0000E006#0CD50CD50CD50CD6
(1779321678.074194) can0 0000E007#0CD50CD50CD50CD5
(1779321678.075211) can0 0000E008#0CD60CD60CD60CD5
(1779321678.076205) can0 0000E009#0CD50CD60CD60CD6
(1779321678.077250) can0 0000E010#0000000000000000
(1779321678.078237) can0 0000E011#0000000000000000
(1779321678.079231) can0 0000E012#0CD5000100000000
(1779321678.080244) can0 0000F001#0000000000000000
(1779321678.081224) can0 18FF28F4#10320000020D0000
(1779321678.082206) can0 18FE28F4#0CD60CD540400000
(1779321678.083225) can0 18FD28F4#1702FA6F00000000
(1779321678.084142) can0 4D4#000032007D0D0203
(1779321678.085125) can0 4D5#D50CD60C40400000
(1779321678.086210) can0 18914010#0CD6100CD5010000
(1779321678.087215) can0 18904010#020D020D753001FB
(1779321678.088213) can0 18FA28F4#123EA12C10270000
(1779321678.089206) can0 18FB28F4#D60CD50C40400000
(1779321678.090238) can0 18FC28F4#383200000D020000
(1779321678.091200) can0 18F810F3#0D02E80332640100
(1779321678.092232) can0 18F815F3#0000000010030000
(1779321678.093136) can0 273#000000000D023200
(1779321678.094110) can0 1E1#020D271001FB01FB
(1779321678.095142) can0 1F5#0000000000000000
(1779321678.096239) can0 0800A6A9#0000000000000000
(1779321678.097187) can0 1000A6A9#0D028813324A4A4A
(1779321678.098216) can0 1C00A6A9#0000000000030000
(1779321678.099232) can0 02018100#1003020D00000000
(1779321678.100225) can0 02028100#0000003264000000
(1779321678.101207) can0 02038100#0CD601100CD50101
(1779321678.102219) can0 02048100#4A01014A01010000
(1779321678.103123) can0 1AD#8814000059321818
(1779321678.104117) can0 2AD#D60C800C88140016
(1779321678.105130) can0 3AD#0000000000008814
(1779321678.106140) can0 4AD#EB00000000000000
(1779321678.107136) can0 76A#7F00000000000000
(1779321678.169765) can0 0000E005#1702440003B60591
(1779321678.170362) can0 1806E5F4#13D2010003B6023A
(1779321678.171215) can0 0000E000#13D213D2020D0000
(1779321678.172217) can0 0000E004#181803B603B601E2
(1779321678.173196) can0 0000E006#0CD50CD50CD50CD6
(1779321678.174191) can0 0000E007#0CD50CD50CD50CD5
(1779321678.175211) can0 0000E008#0CD60CD60CD60CD5
(1779321678.176204) can0 0000E009#0CD50CD60CD60CD6
(1779321678.177238) can0 0000E010#0000000000000000
(1779321678.178231) can0 0000E011#0000000000000000
(1779321678.179229) can0 0000E012#0CD5000100000000
(1779321678.180242) can0 0000F001#0000000000000000
(1779321678.181223) can0 18FF28F4#10320000020D0000
(1779321678.182203) can0 18FE28F4#0CD60CD540400000
(1779321678.183214) can0 18FD28F4#1702FA6F00000000
(1779321678.184133) can0 4D4#000032007D0D0203
(1779321678.185115) can0 4D5#D50CD60C40400000
(1779321678.186210) can0 18914010#0CD6100CD5010000
(1779321678.187211) can0 18904010#020D020D753001FB
(1779321678.188204) can0 18FA28F4#123EA12C10270000
(1779321678.189204) can0 18FB28F4#D60CD50C40400000
(1779321678.190236) can0 18FC28F4#383200000D020000
(1779321678.191199) can0 18F810F3#0D02E80332640100
(1779321678.192230) can0 18F815F3#0000000010030000
(1779321678.193128) can0 273#000000000D023200
(1779321678.194108) can0 1E1#020D271001FB01FB
(1779321678.195149) can0 1F5#0000000000000000
(1779321678.196237) can0 0800A6A9#0000000000000000
(1779321678.197185) can0 1000A6A9#0D028813324A4A4A
(1779321678.198230) can0 1C00A6A9#0000000000030000
(1779321678.199230) can0 02018100#1003020D00000000
(1779321678.200224) can0 02028100#0000003264000000
(1779321678.201204) can0 02038100#0CD601100CD50101
(1779321678.202217) can0 02048100#4A01014A01010000
(1779321678.203130) can0 1AD#8814000059321818
(1779321678.204128) can0 2AD#D60C800C88140016
(1779321678.205140) can0 3AD#0000000000008814
(1779321678.206134) can0 4AD#EB00000000000000
(1779321678.207131) can0 76A#7F00000000000000
(1779321678.286758) can0 0000E005#1702440003B60591
(1779321678.287368) can0 1806E5F4#13D2010003B6023A
(1779321678.288241) can0 0000E000#13D213D2020D0000
(1779321678.289202) can0 0000E004#181803B603B601E2
(1779321678.290202) can0 0000E006#0CD60CD60CD50CD5
(1779321678.291202) can0 0000E007#0CD60CD60CD60CD6
(1779321678.292196) can0 0000E008#0CD50CD60CD60CD5
(1779321678.293195) can0 0000E009#0CD50CD60CD60CD6
(1779321678.294240) can0 0000E010#0000000000000000
(1779321678.295241) can0 0000E011#0000000000000000
(1779321678.296254) can0 0000E012#0CD5000100000000
(1779321678.297179) can0 0000E013#4542323630354C43
(1779321678.298218) can0 0000E014#3134323300000000
(1779321678.299231) can0 0000E015#0000000000000003
(1779321678.300241) can0 0000F000#0000000000000000
(1779321678.301242) can0 0000F001#0000000000000000
(1779321678.302222) can0 18FF28F4#10320000020D0000
(1779321678.303203) can0 18FE28F4#0CD60CD540400000
(1779321678.304267) can0 18FD28F4#1702FA6F00000000
(1779321678.305126) can0 4D4#000032007D0D0203
(1779321678.306113) can0 4D5#D50CD60C40400000
(1779321678.307191) can0 18914010#0CD6100CD5030000
(1779321678.308209) can0 18904010#020D020D753001FB
(1779321678.309218) can0 18924010#4001400100000000
(1779321678.310216) can0 18934010#0000005C0000BC51
(1779321678.311216) can0 18944010#1003000000000000
(1779321678.312292) can0 18954010#0000000000000000
(1779321678.313242) can0 18954010#0100000000000000
(1779321678.314222) can0 18954010#0200000000000000
(1779321678.315223) can0 18954010#0300000000000000
(1779321678.316235) can0 18954010#0400000000000000
(1779321678.317227) can0 18954010#0500000000000000
(1779321678.318229) can0 18964010#0040404000000000
(1779321678.319226) can0 18974010#0000000000000000
(1779321678.320224) can0 18984010#0000000000000000
(1779321678.321201) can0 18FA28F4#123EA12C10270000
(1779321678.322198) can0 18FB28F4#D60CD50C40400000
(1779321678.323230) can0 18FC28F4#383200000D020000
(1779321678.324195) can0 18F810F3#0D02E80332640100
(1779321678.325210) can0 18F811F3#D60C1001D50C0301
(1779321678.326218) can0 18F812F3#4001014001010000
(1779321678.327232) can0 18F813F3#0101000000000000
(1779321678.328212) can0 18F814F3#3200EA1AA9015F00
(1779321678.329222) can0 18F815F3#0000000010030000
(1779321678.330123) can0 273#000000000D023200
(1779321678.331117) can0 1E1#020D271001FB01FB
(1779321678.332149) can0 1F5#0000000000000000
(1779321678.333218) can0 0800A6A9#0000000000000000
(1779321678.334192) can0 1000A6A9#0D028813324A4A4A
(1779321678.335217) can0 1C00A6A9#0000000000030000
(1779321678.336230) can0 02018100#1003020D00000000
(1779321678.337230) can0 02028100#0000003264000000
(1779321678.338211) can0 02038100#0CD601100CD50103
(1779321678.339211) can0 02048100#4A01014A01010000
(1779321678.340096) can0 1AD#8914000059321818
(1779321678.341120) can0 2AD#D60C800C89140016
(1779321678.342121) can0 3AD#0000000000008914
(1779321678.343134) can0 4AD#EB00000000000000
(1779321678.344134) can0 76A#7F00000000000000
(1779321678.402764) can0 0000E005#1702440003B60591
(1779321678.403373) can0 1806E5F4#13D2010003B6023A
(1779321678.404197) can0 0000E000#13D213D2020D0000
(1779321678.405195) can0 0000E004#181803B603B601E2
(1779321678.406195) can0 0000E006#0CD60CD60CD50CD5
(1779321678.407189) can0 0000E007#0CD60CD60CD60CD6
(1779321678.408189) can0 0000E008#0CD50CD60CD60CD5
(1779321678.409190) can0 0000E009#0CD50CD60CD60CD6
(1779321678.410230) can0 0000E010#0000000000000000
(1779321678.411235) can0 0000E011#0000000000000000
(1779321678.412215) can0 0000E012#0CD5000100000000
(1779321678.413228) can0 0000F001#0000000000000000
(1779321678.414208) can0 18FF28F4#10320000020D0000
(1779321678.415191) can0 18FE28F4#0CD60CD540400000
(1779321678.416204) can0 18FD28F4#1702FA6F00000000
(1779321678.417119) can0 4D4#000032007D0D0203
(1779321678.418118) can0 4D5#D50CD60C40400000
(1779321678.419196) can0 18914010#0CD6100CD5030000
(1779321678.420195) can0 18904010#020D020D753001FB
(1779321678.421208) can0 18FA28F4#123EA12C10270000
(1779321678.422186) can0 18FB28F4#D60CD50C40400000
(1779321678.423221) can0 18FC28F4#383200000D020000
(1779321678.424182) can0 18F810F3#0D02E80332640100
(1779321678.425228) can0 18F815F3#0000000010030000
(1779321678.426146) can0 273#000000000D023200
(1779321678.427115) can0 1E1#020D271001FB01FB
(1779321678.428140) can0 1F5#0000000000000000
(1779321678.429221) can0 0800A6A9#0000000000000000
(1779321678.430183) can0 1000A6A9#0D028813324A4A4A
(1779321678.431215) can0 1C00A6A9#0000000000030000
(1779321678.432215) can0 02018100#1003020D00000000
(1779321678.433227) can0 02028100#0000003264000000
(1779321678.434232) can0 02038100#0CD601100CD50103
(1779321678.435203) can0 02048100#4A01014A01010000
(1779321678.436100) can0 1AD#8914000059321818
(1779321678.437100) can0 2AD#D60C800C89140016
(1779321678.438125) can0 3AD#0000000000008914
(1779321678.439120) can0 4AD#EB00000000000000
(1779321678.440133) can0 76A#7F00000000000000
(1779321678.502793) can0 0000E005#1702440003B60591
(1779321678.503378) can0 1806E5F4#13D2010003B6023A
(1779321678.504201) can0 0000E000#13D213D2020D0000
(1779321678.505201) can0 0000E004#181803B603B601E2
(1779321678.506200) can0 0000E006#0CD60CD60CD50CD5
(1779321678.507174) can0 0000E007#0CD60CD60CD60CD6
(1779321678.508194) can0 0000E008#0CD50CD60CD60CD5
(1779321678.509175) can0 0000E009#0CD50CD60CD60CD6
(1779321678.510225) can0 0000E010#0000000000000000
(1779321678.511248) can0 0000E011#0000000000000000
(1779321678.512200) can0 0000E012#0CD5000100000000
(1779321678.513231) can0 0000F001#0000000000000000
(1779321678.514212) can0 18FF28F4#10320000020D0000
(1779321678.515194) can0 18FE28F4#0CD60CD540400000
(1779321678.516206) can0 18FD28F4#1702FA6F00000000
(1779321678.517111) can0 4D4#000032007D0D0203
(1779321678.518104) can0 4D5#D50CD60C40400000
(1779321678.519229) can0 18914010#0CD6100CD5030000
(1779321678.520200) can0 18904010#020D020D753001FB
(1779321678.521193) can0 18FA28F4#123EA12C10270000
(1779321678.522194) can0 18FB28F4#D60CD50C40400000
(1779321678.523222) can0 18FC28F4#383200000D020000
(1779321678.524188) can0 18F810F3#0D02E80332640100
(1779321678.525219) can0 18F815F3#0000000010030000
(1779321678.526117) can0 273#000000000D023200
(1779321678.527149) can0 1E1#020D271001FB01FB
(1779321678.528130) can0 1F5#0000000000000000
(1779321678.529225) can0 0800A6A9#0000000000000000
(1779321678.530168) can0 1000A6A9#0D028813324A4A4A
(1779321678.531199) can0 1C00A6A9#0000000000030000
(1779321678.532220) can0 02018100#1003020D00000000
(1779321678.533213) can0 02028100#0000003264000000
(1779321678.534194) can0 02038100#0CD601100CD50103
(1779321678.535238) can0 02048100#4A01014A01010000
(1779321678.536093) can0 1AD#8914000059321818
(1779321678.537099) can0 2AD#D60C800C89140016
(1779321678.538111) can0 3AD#0000000000008914
(1779321678.539125) can0 4AD#EB00000000000000
(1779321678.540125) can0 76A#7F00000000000000
(1779321678.602764) can0 0000E005#1702440003B60591
(1779321678.603320) can0 1806E5F4#13D2010003B6023A
(1779321678.604233) can0 0000E000#13D213D2020D0000
(1779321678.605203) can0 0000E004#181803B603B601E2
(1779321678.606185) can0 0000E006#0CD60CD60CD50CD5
(1779321678.607179) can0 0000E007#0CD50CD50CD60CD6
(1779321678.608172) can0 0000E008#0CD60CD60CD60CD6
(1779321678.609173) can0 0000E009#0CD50CD60CD60CD6
(1779321678.610224) can0 0000E010#0000000000000000
(1779321678.611217) can0 0000E011#0000000000000000
(1779321678.612198) can0 0000E012#0CD5000100000000
(1779321678.613230) can0 0000F001#0000000000000000
(1779321678.614211) can0 18FF28F4#10320000020D0000
(1779321678.615192) can0 18FE28F4#0CD60CD540400000
(1779321678.616202) can0 18FD28F4#1702FA6F00000000
(1779321678.617109) can0 4D4#000032007D0D0203
(1779321678.618102) can0 4D5#D50CD60C40400000
(1779321678.619186) can0 18914010#0CD6100CD5030000
(1779321678.620193) can0 18904010#020D020D753001FB
(1779321678.621192) can0 18FA28F4#123EA12C10270000
(1779321678.622192) can0 18FB28F4#D60CD50C40400000
(1779321678.623204) can0 18FC28F4#383200000D020000
(1779321678.624186) can0 18F810F3#0D02E80332640100
(1779321678.625218) can0 18F815F3#0000000010030000
(1779321678.626116) can0 273#000000000D023200
(1779321678.627097) can0 1E1#020D271001FB01FB
(1779321678.628128) can0 1F5#0000000000000000
(1779321678.629205) can0 0800A6A9#0000000000000000
(1779321678.630174) can0 1000A6A9#0D028813324A4A4A
(1779321678.631196) can0 1C00A6A9#0000000000030000
(1779321678.632218) can0 02018100#1003020D00000000
(1779321678.633211) can0 02028100#0000003264000000
(1779321678.634192) can0 02038100#0CD601100CD50103
(1779321678.635187) can0 02048100#4A01014A01010000
(1779321678.636091) can0 1AD#8914000059321818
(1779321678.637096) can0 2AD#D60C800C89140016
(1779321678.638110) can0 3AD#0000000000008914
(1779321678.639120) can0 4AD#EB00000000000000
(1779321678.640123) can0 76A#7F00000000000000
(1779321678.702806) can0 0000E005#1702440003B60591
(1779321678.703385) can0 1806E5F4#13D2010003B6023A
(1779321678.704198) can0 0000E000#13D213D2020D0000
(1779321678.705196) can0 0000E004#181803B603B601E2
(1779321678.706196) can0 0000E006#0CD60CD60CD50CD5
(1779321678.707177) can0 0000E007#0CD50CD50CD60CD6
(1779321678.708190) can0 0000E008#0CD60CD60CD60CD6
(1779321678.709170) can0 0000E009#0CD50CD60CD60CD6
(1779321678.710215) can0 0000E010#0000000000000000
(1779321678.711216) can0 0000E011#0000000000000000
(1779321678.712191) can0 0000E012#0CD5000100000000
(1779321678.713227) can0 0000F001#0000000000000000
(1779321678.714210) can0 18FF28F4#10320000020D0000
(1779321678.715190) can0 18FE28F4#0CD60CD540400000
(1779321678.716198) can0 18FD28F4#1702FA6F00000000
(1779321678.717100) can0 4D4#000032007D0D0203
(1779321678.718100) can0 4D5#D50CD60C40400000
(1779321678.719177) can0 18914010#0CD6100CD5030000
(1779321678.720190) can0 18904010#020D020D753001FB
(1779321678.721190) can0 18FA28F4#123EA12C10270000
(1779321678.722183) can0 18FB28F4#D60CD50C40400000
(1779321678.723216) can0 18FC28F4#383200000D020000
(1779321678.724177) can0 18F810F3#0D02E80332640100
(1779321678.725209) can0 18F815F3#0000000010030000
(1779321678.726127) can0 273#000000000D023200
(1779321678.727094) can0 1E1#020D271001FB01FB
(1779321678.728113) can0 1F5#0000000000000000
(1779321678.729216) can0 0800A6A9#0000000000000000
(1779321678.730165) can0 1000A6A9#0D028813324A4A4A
(1779321678.731197) can0 1C00A6A9#0000000000030000
(1779321678.732210) can0 02018100#1003020D00000000
(1779321678.733203) can0 02028100#0000003264000000
(1779321678.734204) can0 02038100#0CD601100CD50103
(1779321678.735197) can0 02048100#4A01014A01010000
(1779321678.736080) can0 1AD#8914000059321818
(1779321678.737095) can0 2AD#D60C800C89140016
(1779321678.738108) can0 3AD#0000000000008914
(1779321678.739121) can0 4AD#EB00000000000000
(1779321678.740108) can0 76A#7F00000000000000
(1779321678.812961) can0 00000E00#00354C4331343233
(1779321678.820744) can0 0000E005#1702440003B60591
(1779321678.821299) can0 1806E5F4#13D2010003B6023A
(1779321678.822182) can0 0000E000#13D213D2020D0000
(1779321678.823182) can0 0000E004#181803B603B601E2
(1779321678.824176) can0 0000E006#0CD60CD50CD60CD6
(1779321678.825176) can0 0000E007#0CD60CD50CD60CD6
(1779321678.826165) can0 0000E008#0CD60CD60CD60CD5
(1779321678.827221) can0 0000E009#0CD60CD60CD60CD6
(1779321678.828214) can0 0000E010#0000000000000000
(1779321678.829214) can0 0000E011#0000000000000000
(1779321678.830194) can0 0000E012#0CD5000100000000
(1779321678.831157) can0 0000E013#4542323630354C43
(1779321678.832189) can0 0000E014#3134323300000000
(1779321678.833202) can0 0000E015#0000000000000003
(1779321678.834221) can0 0000F000#0000000000000000
(1779321678.835266) can0 0000F001#0000000000000000
(1779321678.836195) can0 18FF28F4#10320000020D0000
(1779321678.837176) can0 18FE28F4#0CD60CD540400000
(1779321678.838189) can0 18FD28F4#1702FA6F00000000
(1779321678.839106) can0 4D4#000032007D0D0203
(1779321678.840086) can0 4D5#D50CD60C40400000
(1779321678.841183) can0 18914010#0CD6100CD5020000
(1779321678.842175) can0 18904010#020D020D753001FB
(1779321678.843197) can0 18924010#4001400100000000
(1779321678.844176) can0 18934010#0000005D0000BC51
(1779321678.845202) can0 18944010#1003000000000000
(1779321678.846215) can0 18954010#0000000000000000
(1779321678.847209) can0 18954010#0100000000000000
(1779321678.848208) can0 18954010#0200000000000000
(1779321678.849203) can0 18954010#0300000000000000
(1779321678.850211) can0 18954010#0400000000000000
(1779321678.851197) can0 18954010#0500000000000000
(1779321678.852209) can0 18964010#0040404000000000
(1779321678.853203) can0 18974010#0000000000000000
(1779321678.854195) can0 18984010#0000000000000000
(1779321678.855183) can0 18FA28F4#123EA12C10270000
(1779321678.856177) can0 18FB28F4#D60CD50C40400000
(1779321678.857203) can0 18FC28F4#383200000D020000
(1779321678.858171) can0 18F810F3#0D02E80332640100
(1779321678.859184) can0 18F811F3#D60C1001D50C0201
(1779321678.860184) can0 18F812F3#4001014001010000
(1779321678.861210) can0 18F813F3#0101000000000000
(1779321678.862176) can0 18F814F3#3200EA1AA9015F00
(1779321678.863204) can0 18F815F3#0000000010030000
(1779321678.864107) can0 273#000000000D023200
(1779321678.865088) can0 1E1#020D271001FB01FB
(1779321678.866112) can0 1F5#0000000000000000
(1779321678.867197) can0 0800A6A9#0000000000000000
(1779321678.868159) can0 1000A6A9#0D028813324A4A4A
(1779321678.869191) can0 1C00A6A9#0000000000030000
(1779321678.870203) can0 02018100#1003020D00000000
(1779321678.871204) can0 02028100#0000003264000000
(1779321678.872185) can0 02038100#0CD601100CD50102
(1779321678.873178) can0 02048100#4A01014A01010000
(1779321678.874076) can0 1AD#8914000059321818
(1779321678.875076) can0 2AD#D60C800C89140016
(1779321678.876095) can0 3AD#0000000000008914
(1779321678.877108) can0 4AD#EB00000000000000
(1779321678.878098) can0 76A#7F00000000000000
(1779321678.936764) can0 0000E005#1702440003B60591
(1779321678.937325) can0 1806E5F4#13D2010003B6023A
(1779321678.938192) can0 0000E000#13D213D2020D0000
(1779321678.939223) can0 0000E004#181803B603B601E2
(1779321678.940187) can0 0000E006#0CD60CD50CD60CD6
(1779321678.941174) can0 0000E007#0CD60CD50CD60CD6
(1779321678.942172) can0 0000E008#0CD60CD60CD60CD5
(1779321678.943165) can0 0000E009#0CD60CD60CD60CD6
(1779321678.944215) can0 0000E010#0000000000000000
(1779321678.945211) can0 0000E011#0000000000000000
(1779321678.946189) can0 0000E012#0CD5000100000000
(1779321678.947197) can0 0000F001#0000000000000000
(1779321678.948202) can0 18FF28F4#10320000020D0000
(1779321678.949181) can0 18FE28F4#0CD60CD540400000
(1779321678.950183) can0 18FD28F4#1702FA6F00000000
(1779321678.951099) can0 4D4#000032007D0D0203
(1779321678.952093) can0 4D5#D50CD60C40400000
(1779321678.953171) can0 18914010#0CD6100CD5020000
(1779321678.954169) can0 18904010#020D020D753001FB
(1779321678.955197) can0 18FA28F4#123EA12C10270000
(1779321678.956172) can0 18FB28F4#D60CD50C40400000
(1779321678.957231) can0 18FC28F4#383200000D020000
(1779321678.958180) can0 18F810F3#0D02E80332640100
(1779321678.959216) can0 18F815F3#0000000010030000
(1779321678.960122) can0 273#000000000D023200
(1779321678.961104) can0 1E1#020D271001FB01FB
(1779321678.962136) can0 1F5#0000000000000000
(1779321678.963208) can0 0800A6A9#0000000000000000
(1779321678.964173) can0 1000A6A9#0D028813324A4A4A
(1779321678.965241) can0 1C00A6A9#0000000000030000
(1779321678.966205) can0 02018100#1003020D00000000
(1779321678.967200) can0 02028100#0000003264000000
(1779321678.968183) can0 02038100#0CD601100CD50102
(1779321678.969177) can0 02048100#4A01014A01010000
(1779321678.970075) can0 1AD#8914000059321818
(1779321678.971083) can0 2AD#D60C800C89140016
(1779321678.972132) can0 3AD#0000000000008914
(1779321678.973156) can0 4AD#EB00000000000000
(1779321678.974109) can0 76A#7F00000000000000
(1779321679.036807) can0 0000E005#1702440003B60591
(1779321679.037404) can0 1806E5F4#13D2010003B6023A
(1779321679.038174) can0 0000E000#13D213D2020D0000
(1779321679.039192) can0 0000E004#181803B603B601E2
(1779321679.040182) can0 0000E006#0CD60CD50CD60CD6
(1779321679.041175) can0 0000E007#0CD60CD50CD60CD6
(1779321679.042201) can0 0000E008#0CD60CD60CD60CD5
(1779321679.043161) can0 0000E009#0CD60CD60CD60CD6
(1779321679.044207) can0 0000E010#0000000000000000
(1779321679.045205) can0 0000E011#0000000000000000
(1779321679.046186) can0 0000E012#0CD5000100000000
(1779321679.047218) can0 0000F001#0000000000000000
(1779321679.048199) can0 18FF28F4#10320000020D0000
(1779321679.049179) can0 18FE28F4#0CD60CD540400000
(1779321679.050225) can0 18FD28F4#1702FA6F00000000
(1779321679.051091) can0 4D4#000032007D0D0203
(1779321679.052086) can0 4D5#D50CD60C40400000
(1779321679.053174) can0 18914010#0CD6100CD5020000
(1779321679.054174) can0 18904010#020D020D753001FB
(1779321679.055215) can0 18FA28F4#123EA12C10270000
(1779321679.056153) can0 18FB28F4#D60CD50C40400000
(1779321679.057187) can0 18FC28F4#383200000D020000
(1779321679.058205) can0 18F810F3#0D02E80332640100
(1779321679.059204) can0 18F815F3#0000000010030000
(1779321679.060104) can0 273#000000000D023200
(1779321679.061084) can0 1E1#020D271001FB01FB
(1779321679.062110) can0 1F5#0000000000000000
(1779321679.063187) can0 0800A6A9#0000000000000000
(1779321679.064154) can0 1000A6A9#0D028813324A4A4A
(1779321679.065187) can0 1C00A6A9#0000000000030000
(1779321679.066245) can0 02018100#1003020D00000000
(1779321679.067193) can0 02028100#0000003264000000
(1779321679.068178) can0 02038100#0CD601100CD50102
(1779321679.069179) can0 02048100#4A01014A01010000
(1779321679.070083) can0 1AD#8914000059321818
(1779321679.071091) can0 2AD#D60C800C89140016
(1779321679.072099) can0 3AD#0000000000008914
(1779321679.073104) can0 4AD#EB00000000000000
(1779321679.074105) can0 76A#7F00000000000000
(1779321679.136752) can0 0000E005#1702440003B60591
(1779321679.137285) can0 1806E5F4#13D2010003B6023A
(1779321679.138171) can0 0000E000#13D213D2020D0000
(1779321679.139179) can0 0000E004#181803B603B601E2
(1779321679.140166) can0 0000E006#0CD60CD60CD60CD5
(1779321679.141158) can0 0000E007#0CD50CD60CD60CD6
(1779321679.142158) can0 0000E008#0CD60CD60CD60CD6
(1779321679.143209) can0 0000E009#0CD50CD60CD60CD6
(1779321679.144204) can0 0000E010#0000000000000000
(1779321679.145203) can0 0000E011#0000000000000000
(1779321679.146184) can0 0000E012#0CD5000100000000
(1779321679.147197) can0 0000F001#0000000000000000
(1779321679.148198) can0 18FF28F4#10320000020D0000
(1779321679.149158) can0 18FE28F4#0CD60CD540400000
(1779321679.150178) can0 18FD28F4#1702FA6F00000000
(1779321679.151095) can0 4D4#000032007D0D0203
(1779321679.152076) can0 4D5#D50CD60C40400000
(1779321679.153165) can0 18914010#0CD6100CD5040000
(1779321679.154167) can0 18904010#020D020D753001FB
(1779321679.155182) can0 18FA28F4#123EA12C10270000
(1779321679.156159) can0 18FB28F4#D60CD50C40400000
(1779321679.157191) can0 18FC28F4#383200000D020000
(1779321679.158153) can0 18F810F3#0D02E80332640100
(1779321679.159203) can0 18F815F3#0000000010030000
(1779321679.160083) can0 273#000000000D023200
(1779321679.161075) can0 1E1#020D271001FB01FB
(1779321679.162116) can0 1F5#0000000000000000
(1779321679.163191) can0 0800A6A9#0000000000000000
(1779321679.164159) can0 1000A6A9#0D028813324A4A4A
(1779321679.165180) can0 1C00A6A9#0000000000030000
(1779321679.166198) can0 02018100#1003020D00000000
(1779321679.167201) can0 02028100#0000003264000000
(1779321679.168182) can0 02038100#0CD601100CD50104
(1779321679.169180) can0 02048100#4A01014A01010000
(1779321679.170074) can0 1AD#8914000059321818
(1779321679.171075) can0 2AD#D60C800C89140016
(1779321679.172098) can0 3AD#0000000000008914
(1779321679.173094) can0 4AD#EB00000000000000
(1779321679.174112) can0 76A#7F00000000000000
(1779321679.236749) can0 0000E005#1702440003B60591
(1779321679.237291) can0 1806E5F4#13D2010003B6023A
(1779321679.238173) can0 0000E000#13D213D2020D0000
(1779321679.240161) can0 0000E004#181803B603B601E2
(1779321679.240175) can0 0000E006#0CD60CD60CD60CD5
(1779321679.241168) can0 0000E007#0CD50CD60CD60CD6
(1779321679.242163) can0 0000E008#0CD60CD60CD60CD6
(1779321679.243163) can0 0000E009#0CD50CD60CD60CD6
(1779321679.244208) can0 0000E010#0000000000000000
(1779321679.245219) can0 0000E011#0000000000000000
(1779321679.246194) can0 0000E012#0CD5000100000000
(1779321679.247225) can0 0000F001#0000000000000000
(1779321679.248226) can0 18FF28F4#10320000020D0000
(1779321679.249202) can0 18FE28F4#0CD60CD540400000
(1779321679.250220) can0 18FD28F4#1702FA6F00000000
(1779321679.251141) can0 4D4#000032007D0D0203
(1779321679.252101) can0 4D5#D50CD60C40400000
(1779321679.253202) can0 18914010#0CD6100CD5040000
(1779321679.254184) can0 18904010#020D020D753001FB
(1779321679.255220) can0 18FA28F4#123EA12C10270000
(1779321679.256184) can0 18FB28F4#D60CD50C40400000
(1779321679.257221) can0 18FC28F4#383200000D020000
(1779321679.258174) can0 18F810F3#0D02E80332640100
(1779321679.259212) can0 18F815F3#0000000010030000
(1779321679.260087) can0 273#000000000D023200
(1779321679.261094) can0 1E1#020D271001FB01FB
(1779321679.262126) can0 1F5#0000000000000000
(1779321679.263232) can0 0800A6A9#0000000000000000
(1779321679.264156) can0 1000A6A9#0D028813324A4A4A
(1779321679.265206) can0 1C00A6A9#0000000000030000
(1779321679.266215) can0 02018100#1003020D00000000
(1779321679.267230) can0 02028100#0000003264000000
(1779321679.268193) can0 02038100#0CD601100CD50104
(1779321679.269175) can0 02048100#4A01014A01010000
(1779321679.270075) can0 1AD#8914000059321818
(1779321679.271084) can0 2AD#D60C800C89140016
(1779321679.272108) can0 3AD#0000000000008914
(1779321679.273148) can0 4AD#EB00000000000000
(1779321679.274116) can0 76A#7F00000000000000
(1779321679.353752) can0 0000E005#1702440003B60591
(1779321679.354291) can0 1806E5F4#13D2010003B6023A
(1779321679.355199) can0 0000E000#13D213D2020D0000
(1779321679.356173) can0 0000E004#181803B603B601E2
(1779321679.357155) can0 0000E006#0CD60CD60CD50CD5
(1779321679.358186) can0 0000E007#0CD50CD60CD50CD6
(1779321679.359165) can0 0000E008#0CD60CD60CD60CD5
(1779321679.360160) can0 0000E009#0CD60CD60CD60CD6
(1779321679.361193) can0 0000E010#0000000000000000
(1779321679.362192) can0 0000E011#0000000000000000
(1779321679.363165) can0 0000E012#0CD5000100000000
(1779321679.364155) can0 0000E013#4542323630354C43
(1779321679.365167) can0 0000E014#3134323300000000
(1779321679.366232) can0 0000E015#0000000000000003
(1779321679.367204) can0 0000F000#0000000000000000
(1779321679.368193) can0 0000F001#0000000000000000
(1779321679.369193) can0 18FF28F4#10320000020D0000
(1779321679.370155) can0 18FE28F4#0CD60CD540400000
(1779321679.371166) can0 18FD28F4#1702FA6F00000000
(1779321679.372085) can0 4D4#000032007D0D0203
(1779321679.373066) can0 4D5#D50CD60C40400000
(1779321679.374213) can0 18914010#0CD6100CD5030000
(1779321679.375157) can0 18904010#020D020D753001FB
(1779321679.376191) can0 18924010#4001400100000000
(1779321679.377171) can0 18934010#0000005E0000BC51
(1779321679.378184) can0 18944010#1003000000000000
(1779321679.379206) can0 18954010#0000000000000000
(1779321679.380206) can0 18954010#0100000000000000
(1779321679.381214) can0 18954010#0200000000000000
(1779321679.382241) can0 18954010#0300000000000000
(1779321679.383212) can0 18954010#0400000000000000
(1779321679.384181) can0 18954010#0500000000000000
(1779321679.385183) can0 18964010#0040404000000000
(1779321679.386194) can0 18974010#0000000000000000
(1779321679.387202) can0 18984010#0000000000000000
(1779321679.388178) can0 18FA28F4#123EA12C10270000
(1779321679.389172) can0 18FB28F4#D60CD50C40400000
(1779321679.390179) can0 18FC28F4#383200000D020000
(1779321679.391159) can0 18F810F3#0D02E80332640100
(1779321679.392155) can0 18F811F3#D60C1001D50C0301
(1779321679.393169) can0 18F812F3#4001014001010000
(1779321679.394192) can0 18F813F3#0101000000000000
(1779321679.395156) can0 18F814F3#3200EA1AA9015F00
(1779321679.396185) can0 18F815F3#0000000010030000
(1779321679.397086) can0 273#000000000D023200
(1779321679.398073) can0 1E1#020D271001FB01FB
(1779321679.399098) can0 1F5#0000000000000000
(1779321679.400193) can0 0800A6A9#0000000000000000
(1779321679.401140) can0 1000A6A9#0D028813324A4A4A
(1779321679.402183) can0 1C00A6A9#0000000000030000
(1779321679.403197) can0 02018100#1003020D00000000
(1779321679.404185) can0 02028100#0000003264000000
(1779321679.405159) can0 02038100#0CD601100CD50103
(1779321679.406171) can0 02048100#4A01014A01010000
(1779321679.407048) can0 1AD#8914000059321818
(1779321679.408069) can0 2AD#D60C800C89140016
(1779321679.409081) can0 3AD#0000000000008914
(1779321679.410094) can0 4AD#EB00000000000000
(1779321679.411106) can0 76A#7F00000000000000
(1779321679.469783) can0 0000E005#1702440003B60591
(1779321679.470350) can0 1806E5F4#13D2010003B6023A
(1779321679.471255) can0 0000E000#13D213D2020D0000
(1779321679.472187) can0 0000E004#181803B603B601E2
(1779321679.473172) can0 0000E006#0CD60CD60CD50CD5
(1779321679.474143) can0 0000E007#0CD50CD60CD50CD6
(1779321679.475154) can0 0000E008#0CD60CD60CD60CD5
(1779321679.476151) can0 0000E009#0CD60CD60CD60CD6
(1779321679.477200) can0 0000E010#0000000000000000
(1779321679.478181) can0 0000E011#0000000000000000
(1779321679.479257) can0 0000E012#0CD5000100000000
(1779321679.480200) can0 0000F001#0000000000000000
(1779321679.481221) can0 18FF28F4#10320000020D0000
(1779321679.482218) can0 18FE28F4#0CD60CD540400000
(1779321679.483216) can0 18FD28F4#1702FA6F00000000
(1779321679.484100) can0 4D4#000032007D0D0203
(1779321679.485085) can0 4D5#D50CD60C40400000
(1779321679.486145) can0 18914010#0CD6100CD5030000
(1779321679.487168) can0 18904010#020D020D753001FB
(1779321679.488182) can0 18FA28F4#123EA12C10270000
(1779321679.489156) can0 18FB28F4#D60CD50C40400000
(1779321679.490198) can0 18FC28F4#383200000D020000
(1779321679.491150) can0 18F810F3#0D02E80332640100
(1779321679.492185) can0 18F815F3#0000000010030000
(1779321679.493086) can0 273#000000000D023200
(1779321679.494076) can0 1E1#020D271001FB01FB
(1779321679.495091) can0 1F5#0000000000000000
(1779321679.496196) can0 0800A6A9#0000000000000000
(1779321679.497148) can0 1000A6A9#0D028813324A4A4A
(1779321679.498256) can0 1C00A6A9#0000000000030000
(1779321679.499227) can0 02018100#1003020D00000000
(1779321679.500181) can0 02028100#0000003264000000
(1779321679.501162) can0 02038100#0CD601100CD50103
(1779321679.502170) can0 02048100#4A01014A01010000
(1779321679.503048) can0 1AD#8914000059321818
(1779321679.504091) can0 2AD#D60C800C89140016
(1779321679.505073) can0 3AD#0000000000008914
(1779321679.506087) can0 4AD#EB00000000000000
(1779321679.507079) can0 76A#7F00000000000000
(1779321679.569772) can0 0000E005#1702440003B60591
(1779321679.570321) can0 1806E5F4#13D2010003B6023A
(1779321679.571191) can0 0000E000#13D213D2020D0000
(1779321679.572166) can0 0000E004#181803B603B601E2
(1779321679.573174) can0 0000E006#0CD60CD60CD50CD5
(1779321679.574138) can0 0000E007#0CD50CD60CD50CD6
(1779321679.575154) can0 0000E008#0CD60CD60CD60CD5
(1779321679.576162) can0 0000E009#0CD60CD60CD60CD6
(1779321679.577200) can0 0000E010#0000000000000000
(1779321679.578199) can0 0000E011#0000000000000000
(1779321679.579209) can0 0000E012#0CD5000100000000
(1779321679.580223) can0 0000F001#0000000000000000
(1779321679.581230) can0 18FF28F4#10320000020D0000
(1779321679.582172) can0 18FE28F4#0CD60CD540400000
(1779321679.583233) can0 18FD28F4#1702FA6F00000000
(1779321679.584098) can0 4D4#000032007D0D0203
(1779321679.585061) can0 4D5#D50CD60C40400000
(1779321679.586158) can0 18914010#0CD6100CD5030000
(1779321679.587161) can0 18904010#020D020D753001FB
(1779321679.588151) can0 18FA28F4#123EA12C10270000
(1779321679.589179) can0 18FB28F4#D60CD50C40400000
(1779321679.590179) can0 18FC28F4#383200000D020000
(1779321679.591141) can0 18F810F3#0D02E80332640100
(1779321679.592173) can0 18F815F3#0000000010030000
(1779321679.593071) can0 273#000000000D023200
(1779321679.594071) can0 1E1#020D271001FB01FB
(1779321679.595084) can0 1F5#0000000000000000
(1779321679.596179) can0 0800A6A9#0000000000000000
(1779321679.597180) can0 1000A6A9#0D028813324A4A4A
(1779321679.598188) can0 1C00A6A9#0000000000030000
(1779321679.599189) can0 02018100#1003020D00000000
(1779321679.600171) can0 02028100#0000003264000000
(1779321679.601146) can0 02038100#0CD601100CD50103
(1779321679.602163) can0 02048100#4A01014A01010000
(1779321679.603061) can0 1AD#8914000059321818
(1779321679.604059) can0 2AD#D60C800C89140016
(1779321679.605088) can0 3AD#0000000000008914
(1779321679.606085) can0 4AD#EB00000000000000
(1779321679.607093) can0 76A#7F00000000000000
(1779321679.669734) can0 0000E005#1702440003B60591
(1779321679.670271) can0 1806E5F4#13D2010003B6023A
(1779321679.671157) can0 0000E000#13D213D2020D0000
(1779321679.672158) can0 0000E004#181803B603B601E2
(1779321679.673139) can0 0000E006#0CD60CD60CD50CD6
(1779321679.674179) can0 0000E007#0CD50CD50CD60CD6
(1779321679.675151) can0 0000E008#0CD60CD60CD60CD5
(1779321679.676146) can0 0000E009#0CD60CD60CD60CD6
(1779321679.677189) can0 0000E010#0000000000000000
(1779321679.678170) can0 0000E011#0000000000000000
(1779321679.679176) can0 0000E012#0CD5000100000000
(1779321679.680188) can0 0000F001#0000000000000000
(1779321679.681186) can0 18FF28F4#10320000020D0000
(1779321679.682147) can0 18FE28F4#0CD60CD540400000
(1779321679.683161) can0 18FD28F4#1702FA6F00000000
(1779321679.684071) can0 4D4#000032007D0D0203
(1779321679.685058) can0 4D5#D50CD60C40400000
(1779321679.686150) can0 18914010#0CD6100CD5030000
(1779321679.687152) can0 18904010#020D020D753001FB
(1779321679.688145) can0 18FA28F4#123EA12C10270000
(1779321679.689146) can0 18FB28F4#D60CD50C40400000
(1779321679.690171) can0 18FC28F4#383200000D020000
(1779321679.691139) can0 18F810F3#0D02E80332640100
(1779321679.692171) can0 18F815F3#0000000010030000
(1779321679.693069) can0 273#000000000D023200
(1779321679.694045) can0 1E1#020D271001FB01FB
(1779321679.695093) can0 1F5#0000000000000000
(1779321679.696189) can0 0800A6A9#0000000000000000
(1779321679.697151) can0 1000A6A9#0D028813324A4A4A
(1779321679.698181) can0 1C00A6A9#0000000000030000
(1779321679.699276) can0 02018100#1003020D00000000
(1779321679.700204) can0 02028100#0000003264000000
(1779321679.701162) can0 02038100#0CD601100CD50103
(1779321679.702190) can0 02048100#4A01014A01010000
(1779321679.703064) can0 1AD#8914000059321818
(1779321679.704075) can0 2AD#D60C800C89140016
(1779321679.705087) can0 3AD#0000000000008914
(1779321679.706099) can0 4AD#EB00000000000000
(1779321679.707100) can0 76A#7F00000000000000
(1779321679.769783) can0 0000E005#1702440003B60591
(1779321679.770333) can0 1806E5F4#13D2010003B6023A
(1779321679.771158) can0 0000E000#13D213D2020D0000
(1779321679.772167) can0 0000E004#181803B603B601E2
(1779321679.773152) can0 0000E006#0CD60CD60CD50CD6
(1779321679.774180) can0 0000E007#0CD50CD50CD60CD6
(1779321679.775154) can0 0000E008#0CD60CD60CD60CD5
(1779321679.776155) can0 0000E009#0CD60CD60CD60CD6
(1779321679.777191) can0 0000E010#0000000000000000
(1779321679.778180) can0 0000E011#0000000000000000
(1779321679.779199) can0 0000E012#0CD5000100000000
(1779321679.780192) can0 0000F001#0000000000000000
(1779321679.781206) can0 18FF28F4#10320000020D0000
(1779321679.782161) can0 18FE28F4#0CD60CD540400000
(1779321679.783297) can0 18FD28F4#1702FA6F00000000
(1779321679.784102) can0 4D4#000032007D0D0203
(1779321679.785076) can0 4D5#D50CD60C40400000
(1779321679.786159) can0 18914010#0CD6100CD5030000
(1779321679.787161) can0 18904010#020D020D753001FB
(1779321679.788183) can0 18FA28F4#123EA12C10270000
(1779321679.789164) can0 18FB28F4#D60CD50C40400000
(1779321679.790195) can0 18FC28F4#383200000D020000
(1779321679.791147) can0 18F810F3#0D02E80332640100
(1779321679.792183) can0 18F815F3#0000000010030000
(1779321679.793081) can0 273#000000000D023200
(1779321679.794065) can0 1E1#020D271001FB01FB
(1779321679.795095) can0 1F5#0000000000000000
(1779321679.796190) can0 0800A6A9#0000000000000000
(1779321679.797122) can0 1000A6A9#0D028813324A4A4A
(1779321679.798165) can0 1C00A6A9#0000000000030000
(1779321679.799200) can0 02018100#1003020D00000000
(1779321679.800179) can0 02028100#0000003264000000
(1779321679.801167) can0 02038100#0CD601100CD50103
(1779321679.802162) can0 02048100#4A01014A01010000
(1779321679.803029) can0 1AD#8914000059321818
(1779321679.804083) can0 2AD#D60C800C89140016
(1779321679.805064) can0 3AD#0000000000008914
(1779321679.806085) can0 4AD#EB00000000000000
(1779321679.807069) can0 76A#7F00000000000000
(1779321679.886768) can0 0000E005#1702440003B60591
(1779321679.887315) can0 1806E5F4#13D2010003B6023A
(1779321679.888156) can0 0000E000#13D213D2020D0000
(1779321679.889180) can0 0000E004#181803B603B601E2
(1779321679.890128) can0 0000E006#0CD60CD60CD60CD6
(1779321679.891142) can0 0000E007#0CD60CD60CD60CD6
(1779321679.892136) can0 0000E008#0CD60CD50CD60CD5
(1779321679.893135) can0 0000E009#0CD60CD60CD60CD6
(1779321679.894181) can0 0000E010#0000000000000000
(1779321679.895161) can0 0000E011#0000000000000000
(1779321679.896162) can0 0000E012#0CD5000100000000
(1779321679.897150) can0 0000E013#4542323630354C43
(1779321679.898155) can0 0000E014#3134323300000000
(1779321679.899168) can0 0000E015#0000000000000003
(1779321679.900168) can0 0000F000#0000000000000000
(1779321679.901161) can0 0000F001#0000000000000000
(1779321679.902171) can0 18FF28F4#10320000020D0000
(1779321679.903143) can0 18FE28F4#0CD60CD540400000
(1779321679.904161) can0 18FD28F4#1702FA6F00000000
(1779321679.905106) can0 4D4#000032007D0D0203
(1779321679.906054) can0 4D5#D50CD60C40400000
(1779321679.907130) can0 18914010#0CD6100CD50A0000
(1779321679.908130) can0 18904010#020D020D753001FB
(1779321679.909156) can0 18924010#4001400100000000
(1779321679.910143) can0 18934010#0000005F0000BC51
(1779321679.911155) can0 18944010#1003000000000000
(1779321679.912182) can0 18954010#0000000000000000
(1779321679.913213) can0 18954010#0100000000000000
(1779321679.914162) can0 18954010#0200000000000000
(1779321679.915162) can0 18954010#0300000000000000
(1779321679.916156) can0 18954010#0400000000000000
(1779321679.917156) can0 18954010#0500000000000000
(1779321679.918156) can0 18964010#0040404000000000
(1779321679.919162) can0 18974010#0000000000000000
(1779321679.920161) can0 18984010#0000000000000000
(1779321679.921149) can0 18FA28F4#123EA12C10270000
(1779321679.922138) can0 18FB28F4#D60CD50C40400000
(1779321679.923169) can0 18FC28F4#383200000D020000
(1779321679.924130) can0 18F810F3#0D02E80332640100
(1779321679.925143) can0 18F811F3#D60C1001D50C0A01
(1779321679.926137) can0 18F812F3#4001014001010000
(1779321679.927169) can0 18F813F3#0101000000000000
(1779321679.928126) can0 18F814F3#3200EA1AA9015F00
(1779321679.929163) can0 18F815F3#0000000010030000
(1779321679.930060) can0 273#000000000D023200
(1779321679.931054) can0 1E1#020D271001FB01FB
(1779321679.932078) can0 1F5#0000000000000000
(1779321679.933163) can0 0800A6A9#0000000000000000
(1779321679.934124) can0 1000A6A9#0D028813324A4A4A
(1779321679.935156) can0 1C00A6A9#0000000000030000
(1779321679.936150) can0 02018100#1003020D00000000
(1779321679.937163) can0 02028100#0000003264000000
(1779321679.938137) can0 02038100#0CD601100CD5010A
(1779321679.939145) can0 02048100#4A01014A01010000
(1779321679.940028) can0 1AD#8914000059321818
(1779321679.941042) can0 2AD#D60C800C89140016
(1779321679.942074) can0 3AD#0000000000008914
(1779321679.943076) can0 4AD#EB00000000000000
(1779321679.944070) can0 76A#7F00000000000000
(1779321680.002760) can0 0000E005#1702440003B60591
(1779321680.003311) can0 1806E5F4#13D2010003B6023A
(1779321680.004157) can0 0000E000#13D213D2020D0000
(1779321680.005145) can0 0000E004#181803B603B601E2
(1779321680.006128) can0 0000E006#0CD60CD60CD60CD6
(1779321680.007123) can0 0000E007#0CD60CD60CD60CD6
(1779321680.008123) can0 0000E008#0CD60CD50CD60CD5
(1779321680.009128) can0 0000E009#0CD60CD60CD60CD6
(1779321680.010167) can0 0000E010#0000000000000000
(1779321680.011167) can0 0000E011#0000000000000000
(1779321680.012151) can0 0000E012#0CD5000100000000
(1779321680.013173) can0 0000F001#0000000000000000
(1779321680.014162) can0 18FF28F4#10320000020D0000
(1779321680.015141) can0 18FE28F4#0CD60CD540400000
(1779321680.016154) can0 18FD28F4#1702FA6F00000000
(1779321680.017051) can0 4D4#000032007D0D0203
(1779321680.018052) can0 4D5#D50CD60C40400000
(1779321680.019147) can0 18914010#0CD6100CD50A0000
(1779321680.020129) can0 18904010#020D020D753001FB
(1779321680.021138) can0 18FA28F4#123EA12C10270000
(1779321680.022131) can0 18FB28F4#D60CD50C40400000
(1779321680.023156) can0 18FC28F4#383200000D020000
(1779321680.024116) can0 18F810F3#0D02E80332640100
(1779321680.025160) can0 18F815F3#0000000010030000
(1779321680.026052) can0 273#000000000D023200
(1779321680.027065) can0 1E1#020D271001FB01FB
(1779321680.028078) can0 1F5#0000000000000000
(1779321680.029155) can0 0800A6A9#0000000000000000
(1779321680.030123) can0 1000A6A9#0D028813324A4A4A
(1779321680.031148) can0 1C00A6A9#0000000000030000
(1779321680.032168) can0 02018100#1003020D00000000
(1779321680.033160) can0 02028100#0000003264000000
(1779321680.034129) can0 02038100#0CD601100CD5010A
(1779321680.035200) can0 02048100#4A01014A01010000
(1779321680.036041) can0 1AD#8914000059321818
(1779321680.037030) can0 2AD#D60C800C89140016
(1779321680.038070) can0 3AD#0000000000008914
(1779321680.039059) can0 4AD#EB00000000000000
(1779321680.040085) can0 76A#7F00000000000000
(1779321680.102718) can0 0000E005#1702440003B60591
(1779321680.103256) can0 1806E5F4#13D2010003B6023A
(1779321680.104152) can0 0000E000#13D213D2020D0000
(1779321680.105139) can0 0000E004#181803B603B601E2
(1779321680.106126) can0 0000E006#0CD60CD60CD60CD6
(1779321680.107132) can0 0000E007#0CD60CD60CD60CD6
(1779321680.108126) can0 0000E008#0CD60CD50CD60CD5
(1779321680.109126) can0 0000E009#0CD60CD60CD60CD6
(1779321680.110168) can0 0000E010#0000000000000000
(1779321680.111178) can0 0000E011#0000000000000000
(1779321680.112166) can0 0000E012#0CD5000100000000
(1779321680.113165) can0 0000F001#0000000000000000
(1779321680.114146) can0 18FF28F4#10320000020D0000
(1779321680.115127) can0 18FE28F4#0CD60CD540400000
(1779321680.116141) can0 18FD28F4#1702FA6F00000000
(1779321680.117057) can0 4D4#000032007D0D0203
(1779321680.118036) can0 4D5#D50CD60C40400000
(1779321680.119140) can0 18914010#0CD6100CD50A0000
(1779321680.120166) can0 18904010#020D020D753001FB
(1779321680.121134) can0 18FA28F4#123EA12C10270000
(1779321680.122125) can0 18FB28F4#D60CD50C40400000
(1779321680.123146) can0 18FC28F4#383200000D020000
(1779321680.124127) can0 18F810F3#0D02E80332640100
(1779321680.125152) can0 18F815F3#0000000010030000
(1779321680.126057) can0 273#000000000D023200
(1779321680.127037) can0 1E1#020D271001FB01FB
(1779321680.128114) can0 1F5#0000000000000000
(1779321680.129140) can0 0800A6A9#0000000000000000
(1779321680.130103) can0 1000A6A9#0D028813324A4A4A
(1779321680.131139) can0 1C00A6A9#0000000000030000
(1779321680.132155) can0 02018100#1003020D00000000
(1779321680.133147) can0 02028100#0000003264000000
(1779321680.134124) can0 02038100#0CD601100CD5010A
(1779321680.135140) can0 02048100#4A01014A01010000
(1779321680.136081) can0 1AD#8914000059321818
(1779321680.137040) can0 2AD#D60C800C89140016
(1779321680.138051) can0 3AD#0000000000008914
(1779321680.139070) can0 4AD#EB00000000000000
(1779321680.140063) can0 76A#7F00000000000000
(1779321680.202757) can0 0000E005#1702440003B60591
(1779321680.203311) can0 1806E5F4#13D2010003B6023A
(1779321680.204143) can0 0000E000#13D213D2020D0000
(1779321680.205171) can0 0000E004#181803B603B601E2
(1779321680.206119) can0 0000E006#0CD60CD60CD60CD5
(1779321680.207114) can0 0000E007#0CD50CD50CD50CD5
(1779321680.208113) can0 0000E008#0CD60CD60CD60CD6
(1779321680.209125) can0 0000E009#0CD60CD60CD60CD6
(1779321680.210157) can0 0000E010#0000000000000000
(1779321680.211157) can0 0000E011#0000000000000000
(1779321680.212138) can0 0000E012#0CD5000100000000
(1779321680.213215) can0 0000F001#0000000000000000
(1779321680.214151) can0 18FF28F4#10320000020D0000
(1779321680.215124) can0 18FE28F4#0CD60CD540400000
(1779321680.216145) can0 18FD28F4#1702FA6F00000000
(1779321680.217042) can0 4D4#000032007D0D0203
(1779321680.218042) can0 4D5#D50CD60C40400000
(1779321680.219142) can0 18914010#0CD6100CD5040000
(1779321680.220121) can0 18904010#020D020D753001FB
(1779321680.221132) can0 18FA28F4#123EA12C10270000
(1779321680.222125) can0 18FB28F4#D60CD50C40400000
(1779321680.223143) can0 18FC28F4#383200000D020000
(1779321680.224122) can0 18F810F3#0D02E80332640100
(1779321680.225151) can0 18F815F3#0000000010030000
(1779321680.226049) can0 273#000000000D023200
(1779321680.227032) can0 1E1#020D271001FB01FB
(1779321680.228062) can0 1F5#0000000000000000
(1779321680.229139) can0 0800A6A9#0000000000000000
(1779321680.230107) can0 1000A6A9#0D028813324A4A4A
(1779321680.231131) can0 1C00A6A9#0000000000030000
(1779321680.232151) can0 02018100#1003020D00000000
(1779321680.233145) can0 02028100#0000003264000000
(1779321680.234126) can0 02038100#0CD601100CD50104
(1779321680.235126) can0 02048100#4A01014A01010000
(1779321680.236028) can0 1AD#8914000059321818
(1779321680.237039) can0 2AD#D60C800C89140016
(1779321680.238050) can0 3AD#0000000000008914
(1779321680.239056) can0 4AD#EB00000000000000
(1779321680.240057) can0 76A#7F00000000000000
(1779321680.302748) can0 0000E005#1702440003B60591
(1779321680.303288) can0 1806E5F4#13D2010003B6023A
(1779321680.304118) can0 0000E000#13D213D2020D0000
(1779321680.305116) can0 0000E004#181803B603B601E2
(1779321680.306116) can0 0000E006#0CD60CD60CD60CD5
(1779321680.307117) can0 0000E007#0CD50CD50CD50CD5
(1779321680.308110) can0 0000E008#0CD60CD60CD60CD6
(1779321680.309110) can0 0000E009#0CD60CD60CD60CD6
(1779321680.310155) can0 0000E010#0000000000000000
(1779321680.311154) can0 0000E011#0000000000000000
(1779321680.312128) can0 0000E012#0CD5000100000000
(1779321680.313161) can0 0000F001#0000000000000000
(1779321680.314142) can0 18FF28F4#10320000020D0000
(1779321680.315123) can0 18FE28F4#0CD60CD540400000
(1779321680.316134) can0 18FD28F4#1702FA6F00000000
(1779321680.317040) can0 4D4#000032007D0D0203
(1779321680.318040) can0 4D5#D50CD60C40400000
(1779321680.319129) can0 18914010#0CD6100CD5040000
(1779321680.320112) can0 18904010#020D020D753001FB
(1779321680.321130) can0 18FA28F4#123EA12C10270000
(1779321680.322123) can0 18FB28F4#D60CD50C40400000
(1779321680.323136) can0 18FC28F4#383200000D020000
(1779321680.324115) can0 18F810F3#0D02E80332640100
(1779321680.325151) can0 18F815F3#0000000010030000
(1779321680.326053) can0 273#000000000D023200
(1779321680.327047) can0 1E1#020D271001FB01FB
(1779321680.328059) can0 1F5#0000000000000000
(1779321680.329139) can0 0800A6A9#0000000000000000
(1779321680.330106) can0 1000A6A9#0D028813324A4A4A
(1779321680.331138) can0 1C00A6A9#0000000000030000
(1779321680.332149) can0 02018100#1003020D00000000
(1779321680.333143) can0 02028100#0000003264000000
(1779321680.334125) can0 02038100#0CD601100CD50104
(1779321680.335156) can0 02048100#4A01014A01010000
(1779321680.336015) can0 1AD#8914000059321818
(1779321680.337035) can0 2AD#D60C800C89140016
(1779321680.338047) can0 3AD#0000000000008914
(1779321680.339060) can0 4AD#EB00000000000000
(1779321680.340051) can0 76A#7F00000000000000
(1779321680.419731) can0 0000E005#1702440003B60591
(1779321680.420297) can0 1806E5F4#13D2010003B6023A
(1779321680.421128) can0 0000E000#13D213D2020D0000
(1779321680.422128) can0 0000E004#181803B603B601E2
(1779321680.423108) can0 0000E006#0CD60CD60CD60CD6
(1779321680.424103) can0 0000E007#0CD50CD50CD60CD6
(1779321680.425102) can0 0000E008#0CD60CD60CD50CD5
(1779321680.426110) can0 0000E009#0CD60CD60CD60CD6
(1779321680.427160) can0 0000E010#0000000000000000
(1779321680.428192) can0 0000E011#0000000000000000
(1779321680.429142) can0 0000E012#0CD5000100000000
(1779321680.430099) can0 0000E013#4542323630354C43
(1779321680.431135) can0 0000E014#3134323300000000
(1779321680.432148) can0 0000E015#0000000000000003
(1779321680.433148) can0 0000F000#0000000000000000
(1779321680.434141) can0 0000F001#0000000000000000
(1779321680.435142) can0 18FF28F4#10320000020D0000
(1779321680.436154) can0 18FE28F4#0CD60CD540400000
(1779321680.437136) can0 18FD28F4#1702FA6F00000000
(1779321680.438034) can0 4D4#000032007D0D0203
(1779321680.439033) can0 4D5#D50CD60C40400000
(1779321680.440110) can0 18914010#0CD6100CD5050000
(1779321680.441123) can0 18904010#020D020D753001FB
(1779321680.442132) can0 18924010#4001400100000000
(1779321680.443122) can0 18934010#000000600000BC51
(1779321680.444147) can0 18944010#1003000000000000
(1779321680.445150) can0 18954010#0000000000000000
(1779321680.446161) can0 18954010#0100000000000000
(1779321680.447149) can0 18954010#0200000000000000
(1779321680.448145) can0 18954010#0300000000000000
(1779321680.449155) can0 18954010#0400000000000000
(1779321680.450127) can0 18954010#0500000000000000
(1779321680.451129) can0 18964010#0040404000000000
(1779321680.452147) can0 18974010#0000000000000000
(1779321680.453139) can0 18984010#0000000000000000
(1779321680.454116) can0 18FA28F4#123EA12C10270000
(1779321680.455117) can0 18FB28F4#D60CD50C40400000
(1779321680.456144) can0 18FC28F4#383200000D020000
(1779321680.457104) can0 18F810F3#0D02E80332640100
(1779321680.458117) can0 18F811F3#D60C1001D50C0501
(1779321680.459130) can0 18F812F3#4001014001010000
(1779321680.460144) can0 18F813F3#0101000000000000
(1779321680.461124) can0 18F814F3#3200EA1AA9015F00
(1779321680.462135) can0 18F815F3#0000000010030000
(1779321680.463034) can0 273#000000000D023200
(1779321680.464028) can0 1E1#020D271001FB01FB
(1779321680.465060) can0 1F5#0000000000000000
(1779321680.466133) can0 0800A6A9#0000000000000000
(1779321680.467104) can0 1000A6A9#0D028813324A4A4A
(1779321680.468130) can0 1C00A6A9#0000000000030000
(1779321680.469147) can0 02018100#1003020D00000000
(1779321680.470145) can0 02028100#0000003264000000
(1779321680.471125) can0 02038100#0CD601100CD50105
(1779321680.472124) can0 02048100#4A01014A01010000
(1779321680.473022) can0 1AD#8914000059321818
(1779321680.474011) can0 2AD#D60C800C89140016
(1779321680.475034) can0 3AD#0000000000008914
(1779321680.476047) can0 4AD#EB00000000000000
(1779321680.477042) can0 76A#7F00000000000000
(1779321680.535682) can0 0000E005#1702440003B60591
(1779321680.536243) can0 1806E5F4#13D2010003B6023A
(1779321680.537127) can0 0000E000#13D213D2020D0000
(1779321680.538121) can0 0000E004#181803B603B601E2
(1779321680.539101) can0 0000E006#0CD60CD60CD60CD6
(1779321680.540101) can0 0000E007#0CD50CD50CD60CD6
(1779321680.541095) can0 0000E008#0CD60CD60CD50CD5
(1779321680.542115) can0 0000E009#0CD60CD60CD60CD6
(1779321680.543159) can0 0000E010#0000000000000000
(1779321680.544140) can0 0000E011#0000000000000000
(1779321680.545133) can0 0000E012#0CD5000100000000
(1779321680.546145) can0 0000F001#0000000000000000
(1779321680.547134) can0 18FF28F4#10320000020D0000
(1779321680.548115) can0 18FE28F4#0CD60CD540400000
(1779321680.549128) can0 18FD28F4#1702FA6F00000000
(1779321680.550044) can0 4D4#000032007D0D0203
(1779321680.551029) can0 4D5#D50CD60C40400000
(1779321680.552105) can0 18914010#0CD6100CD5050000
(1779321680.553116) can0 18904010#020D020D753001FB
(1779321680.554109) can0 18FA28F4#123EA12C10270000
(1779321680.555108) can0 18FB28F4#D60CD50C40400000
(1779321680.556141) can0 18FC28F4#383200000D020000
(1779321680.557109) can0 18F810F3#0D02E80332640100
(1779321680.558152) can0 18F815F3#0000000010030000
(1779321680.559039) can0 273#000000000D023200
(1779321680.560020) can0 1E1#020D271001FB01FB
(1779321680.561051) can0 1F5#0000000000000000
(1779321680.562129) can0 0800A6A9#0000000000000000
(1779321680.563096) can0 1000A6A9#0D028813324A4A4A
(1779321680.564122) can0 1C00A6A9#0000000000030000
(1779321680.565141) can0 02018100#1003020D00000000
(1779321680.566147) can0 02028100#0000003264000000
(1779321680.567116) can0 02038100#0CD601100CD50105
(1779321680.568110) can0 02048100#4A01014A01010000
(1779321680.569013) can0 1AD#8914000059321818
(1779321680.570015) can0 2AD#D60C800C89140016
(1779321680.571033) can0 3AD#0000000000008914
(1779321680.572046) can0 4AD#EB00000000000000
(1779321680.573045) can0 76A#7F00000000000000
(1779321680.635679) can0 0000E005#1702440003B60591
(1779321680.636235) can0 1806E5F4#13D2010003B6023A
(1779321680.637119) can0 0000E000#13D213D2020D0000
(1779321680.638119) can0 0000E004#181803B603B601E2
(1779321680.639098) can0 0000E006#0CD60CD60CD60CD6
(1779321680.640100) can0 0000E007#0CD50CD50CD60CD6
(1779321680.641093) can0 0000E008#0CD60CD60CD50CD5
(1779321680.642106) can0 0000E009#0CD60CD60CD60CD6
(1779321680.643162) can0 0000E010#0000000000000000
(1779321680.644132) can0 0000E011#0000000000000000
(1779321680.645113) can0 0000E012#0CD5000100000000
(1779321680.646145) can0 0000F001#0000000000000000
(1779321680.647125) can0 18FF28F4#10320000020D0000
(1779321680.648106) can0 18FE28F4#0CD60CD540400000
(1779321680.649125) can0 18FD28F4#1702FA6F00000000
(1779321680.650024) can0 4D4#000032007D0D0203
(1779321680.651053) can0 4D5#D50CD60C40400000
(1779321680.652100) can0 18914010#0CD6100CD5050000
(1779321680.653113) can0 18904010#020D020D753001FB
(1779321680.654113) can0 18FA28F4#123EA12C10270000
(1779321680.655105) can0 18FB28F4#D60CD50C40400000
(1779321680.656139) can0 18FC28F4#383200000D020000
(1779321680.657100) can0 18F810F3#0D02E80332640100
(1779321680.658132) can0 18F815F3#0000000010030000
(1779321680.659069) can0 273#000000000D023200
(1779321680.660011) can0 1E1#020D271001FB01FB
(1779321680.661043) can0 1F5#0000000000000000
(1779321680.662120) can0 0800A6A9#0000000000000000
(1779321680.663085) can0 1000A6A9#0D028813324A4A4A
(1779321680.664120) can0 1C00A6A9#0000000000030000
(1779321680.665133) can0 02018100#1003020D00000000
(1779321680.666126) can0 02028100#0000003264000000
(1779321680.667160) can0 02038100#0CD601100CD50105
(1779321680.668122) can0 02048100#4A01014A01010000
(1779321680.669005) can0 1AD#8914000059321818
(1779321680.670018) can0 2AD#D60C800C89140016
(1779321680.671031) can0 3AD#0000000000008914
(1779321680.672044) can0 4AD#EB00000000000000
(1779321680.673037) can0 76A#7F00000000000000
(1779321680.735703) can0 0000E005#1702440003B60591
(1779321680.736269) can0 1806E5F4#13D2010003B6023A
(1779321680.737111) can0 0000E000#13D213D2020D0000
(1779321680.738104) can0 0000E004#181803B603B601E2
(1779321680.739085) can0 0000E006#0CD60CD50CD50CD5
(1779321680.740092) can0 0000E007#0CD50CD50CD60CD6
(1779321680.741097) can0 0000E008#0CD60CD60CD50CD5
(1779321680.742092) can0 0000E009#0CD50CD60CD60CD6
(1779321680.743143) can0 0000E010#0000000000000000
(1779321680.744188) can0 0000E011#0000000000000000
(1779321680.745124) can0 0000E012#0CD5000100000000
(1779321680.746137) can0 0000F001#0000000000000000
(1779321680.747118) can0 18FF28F4#10320000020D0000
(1779321680.748095) can0 18FE28F4#0CD60CD540400000
(1779321680.749118) can0 18FD28F4#1702FA6F00000000
(1779321680.750034) can0 4D4#000032007D0D0203
(1779321680.751016) can0 4D5#D50CD60C40400000
(1779321680.752107) can0 18914010#0CD6100CD5020000
(1779321680.753104) can0 18904010#020D020D753001FB
(1779321680.754105) can0 18FA28F4#123EA12C10270000
(1779321680.755105) can0 18FB28F4#D60CD50C40400000
(1779321680.756131) can0 18FC28F4#383200000D020000
(1779321680.757100) can0 18F810F3#0D02E80332640100
(1779321680.758130) can0 18F815F3#0000000010030000
(1779321680.759028) can0 273#000000000D023200
(1779321680.760003) can0 1E1#020D271001FB01FB
(1779321680.761041) can0 1F5#0000000000000000
(1779321680.762131) can0 0800A6A9#0000000000000000
(1779321680.763080) can0 1000A6A9#0D028813324A4A4A
(1779321680.764108) can0 1C00A6A9#0000000000030000
(1779321680.765124) can0 02018100#1003020D00000000
(1779321680.766124) can0 02028100#0000003264000000
(1779321680.767108) can0 02038100#0CD601100CD50102
(1779321680.768120) can0 02048100#4A01014A01010000
(1779321680.769016) can0 1AD#8814000059321818
(1779321680.770010) can0 2AD#D60C800C88140016
(1779321680.771023) can0 3AD#0000000000008814
(1779321680.772036) can0 4AD#EB00000000000000
(1779321680.773029) can0 76A#7F00000000000000
(1779321680.835672) can0 0000E005#1702440003B60591
(1779321680.836227) can0 1806E5F4#13D2010003B6023A
(1779321680.837105) can0 0000E000#13D213D2020D0000
(1779321680.838109) can0 0000E004#181803B603B601E2
(1779321680.839089) can0 0000E006#0CD60CD50CD50CD5
(1779321680.840084) can0 0000E007#0CD50CD50CD60CD6
(1779321680.841096) can0 0000E008#0CD60CD60CD50CD5
(1779321680.842096) can0 0000E009#0CD50CD60CD60CD6
(1779321680.843140) can0 0000E010#0000000000000000
(1779321680.844141) can0 0000E011#0000000000000000
(1779321680.845115) can0 0000E012#0CD5000100000000
(1779321680.846134) can0 0000F001#0000000000000000
(1779321680.847115) can0 18FF28F4#10320000020D0000
(1779321680.848097) can0 18FE28F4#0CD60CD540400000
(1779321680.849104) can0 18FD28F4#1702FA6F00000000
(1779321680.850027) can0 4D4#000032007D0D0203
(1779321680.851008) can0 4D5#D50CD60C40400000
(1779321680.852103) can0 18914010#0CD6100CD5020000
(1779321680.853103) can0 18904010#020D020D753001FB
(1779321680.854097) can0 18FA28F4#123EA12C10270000
(1779321680.855096) can0 18FB28F4#D60CD50C40400000
(1779321680.856129) can0 18FC28F4#383200000D020000
(1779321680.857092) can0 18F810F3#0D02E80332640100
(1779321680.858135) can0 18F815F3#0000000010030000
(1779321680.859021) can0 273#000000000D023200
(1779321680.860008) can0 1E1#020D271001FB01FB
(1779321680.861027) can0 1F5#0000000000000000
(1779321680.862129) can0 0800A6A9#0000000000000000
(1779321680.863077) can0 1000A6A9#0D028813324A4A4A
(1779321680.864123) can0 1C00A6A9#0000000000030000
(1779321680.865122) can0 02018100#1003020D00000000
