(1779322168.929105) can0 02038100#0CD601100CD50101
(1779322168.930095) can0 02048100#4A01014A01010000
(1779322168.930984) can0 1AD#8814000059321818
(1779322168.931999) can0 2AD#D60C800C88140016
(1779322168.933006) can0 3AD#0000000000008814
(1779322168.934029) can0 4AD#EB00000000000000
(1779322168.935032) can0 76A#7F00000000000000
(1779322168.997713) can0 0000E005#1702440003B60591
(1779322168.998257) can0 1806E5F4#13CC010003B6023A
(1779322168.999097) can0 0000E000#13CC13CC020D0000
(1779322169.000092) can0 0000E004#181803B603B601E1
(1779322169.001128) can0 0000E006#0CD50CD50CD50CD3
(1779322169.002066) can0 0000E007#0CD50CD50CD50CD5
(1779322169.003061) can0 0000E008#0CD50CD50CD50CD5
(1779322169.004059) can0 0000E009#0CD50CD50CD50CD6
(1779322169.005117) can0 0000E010#0000000000000000
(1779322169.006101) can0 0000E011#0000000000000000
(1779322169.007095) can0 0000E012#0CD4000200000000
(1779322169.008114) can0 0000F001#0000000000000000
(1779322169.009094) can0 18FF28F4#10320000020D0000
(1779322169.010079) can0 18FE28F4#0CD60CD340400000
(1779322169.011093) can0 18FD28F4#1702FA6F00000000
(1779322169.011995) can0 4D4#000032007D0D0203
(1779322169.012996) can0 4D5#D30CD60C40400000
(1779322169.014094) can0 18914010#0CD6100CD3040000
(1779322169.015085) can0 18904010#020D020D753001FA
(1779322169.016089) can0 18FA28F4#123EA12C10270000
(1779322169.017086) can0 18FB28F4#D60CD30C40400000
(1779322169.018114) can0 18FC28F4#383200000D020000
(1779322169.019092) can0 18F810F3#0D02E80332640100
(1779322169.020132) can0 18F815F3#0000000010030000
(1779322169.021028) can0 273#000000000D023200
(1779322169.022023) can0 1E1#020D271001FA01FA
(1779322169.023029) can0 1F5#0000000000000000
(1779322169.024119) can0 0800A6A9#0000000000000000
(1779322169.025085) can0 1000A6A9#0D028813324A4A4A
(1779322169.026099) can0 1C00A6A9#0000000000030000
(1779322169.027100) can0 02018100#1003020D00000000
(1779322169.028096) can0 02028100#0000003264000000
(1779322169.029080) can0 02038100#0CD601100CD30104
(1779322169.030103) can0 02048100#4A01014A01010000
(1779322169.030987) can0 1AD#8714000059321818
(1779322169.031985) can0 2AD#D60C800C87140016
(1779322169.033006) can0 3AD#0000000000008714
(1779322169.034017) can0 4AD#EB00000000000000
(1779322169.035010) can0 76A#7F00000000000000
(1779322169.097664) can0 0000E005#1702440003B60591
(1779322169.098220) can0 1806E5F4#13CC010003B6023A
(1779322169.099081) can0 0000E000#13CC13CC020D0000
(1779322169.100080) can0 0000E004#181803B603B601E1
(1779322169.101052) can0 0000E006#0CD50CD50CD50CD3
(1779322169.102063) can0 0000E007#0CD50CD50CD50CD5
(1779322169.103078) can0 0000E008#0CD50CD50CD50CD5
(1779322169.104067) can0 0000E009#0CD50CD50CD50CD6
(1779322169.105112) can0 0000E010#0000000000000000
(1779322169.106101) can0 0000E011#0000000000000000
(1779322169.107099) can0 0000E012#0CD4000200000000
(1779322169.108124) can0 0000F001#0000000000000000
(1779322169.109106) can0 18FF28F4#10320000020D0000
(1779322169.110077) can0 18FE28F4#0CD60CD340400000
(1779322169.111095) can0 18FD28F4#1702FA6F00000000
(1779322169.112016) can0 4D4#000032007D0D0203
(1779322169.112976) can0 4D5#D30CD60C40400000
(1779322169.114075) can0 18914010#0CD6100CD3040000
(1779322169.115085) can0 18904010#020D020D753001FA
(1779322169.116086) can0 18FA28F4#123EA12C10270000
(1779322169.117066) can0 18FB28F4#D60CD30C40400000
(1779322169.118097) can0 18FC28F4#383200000D020000
(1779322169.119073) can0 18F810F3#0D02E80332640100
(1779322169.120109) can0 18F815F3#0000000010030000
(1779322169.120995) can0 273#000000000D023200
(1779322169.121990) can0 1E1#020D271001FA01FA
(1779322169.123054) can0 1F5#0000000000000000
(1779322169.124119) can0 0800A6A9#0000000000000000
(1779322169.125069) can0 1000A6A9#0D028813324A4A4A
(1779322169.126098) can0 1C00A6A9#0000000000030000
(1779322169.127116) can0 02018100#1003020D00000000
(1779322169.128108) can0 02028100#0000003264000000
(1779322169.129091) can0 02038100#0CD601100CD30104
(1779322169.130084) can0 02048100#4A01014A01010000
(1779322169.131045) can0 1AD#8714000059321818
(1779322169.131989) can0 2AD#D60C800C87140016
(1779322169.133008) can0 3AD#0000000000008714
(1779322169.134005) can0 4AD#EB00000000000000
(1779322169.135025) can0 76A#7F00000000000000
(1779322169.214634) can0 0000E005#1702440003B60591
(1779322169.215221) can0 1806E5F4#13CC010003B6023A
(1779322169.216130) can0 0000E000#13CC13CC020D0000
(1779322169.217094) can0 0000E004#181803B603B601E1
(1779322169.218076) can0 0000E006#0CD50CD50CD50CD5
(1779322169.219061) can0 0000E007#0CD30CD30CD50CD5
(1779322169.220052) can0 0000E008#0CD50CD50CD50CD5
(1779322169.221055) can0 0000E009#0CD50CD50CD50CD6
(1779322169.222100) can0 0000E010#0000000000000000
(1779322169.223097) can0 0000E011#0000000000000000
(1779322169.224125) can0 0000E012#0CD4000200000000
(1779322169.225059) can0 0000E013#4542323630354C43
(1779322169.226069) can0 0000E014#3134323300000000
(1779322169.227094) can0 0000E015#0000000000000003
(1779322169.228112) can0 0000F000#0000000000000000
(1779322169.229102) can0 0000F001#0000000000000000
(1779322169.230086) can0 18FF28F4#10320000020D0000
(1779322169.231066) can0 18FE28F4#0CD60CD340400000
(1779322169.232123) can0 18FD28F4#1702FA6F00000000
(1779322169.232992) can0 4D4#000032007D0D0203
(1779322169.233974) can0 4D5#D30CD60C40400000
(1779322169.235066) can0 18914010#0CD6100CD3050000
(1779322169.236071) can0 18904010#020D020D753001FA
(1779322169.237081) can0 18924010#4001400100000000
(1779322169.238081) can0 18934010#000000F50000BC19
(1779322169.239089) can0 18944010#1003000000000000
(1779322169.240217) can0 18954010#0000000000000000
(1779322169.241104) can0 18954010#0100000000000000
(1779322169.242101) can0 18954010#0200000000000000
(1779322169.243100) can0 18954010#0300000000000000
(1779322169.244094) can0 18954010#0400000000000000
(1779322169.245093) can0 18954010#0500000000000000
(1779322169.246087) can0 18964010#0040404000000000
(1779322169.247080) can0 18974010#0000000000000000
(1779322169.248081) can0 18984010#0000000000000000
(1779322169.249062) can0 18FA28F4#123EA12C10270000
(1779322169.250073) can0 18FB28F4#D60CD30C40400000
(1779322169.251107) can0 18FC28F4#383200000D020000
(1779322169.252072) can0 18F810F3#0D02E80332640100
(1779322169.253074) can0 18F811F3#D60C1001D30C0501
(1779322169.254065) can0 18F812F3#4001014001010000
(1779322169.255096) can0 18F813F3#0101000000000000
(1779322169.256057) can0 18F814F3#3200EA1AA9015F00
(1779322169.257089) can0 18F815F3#0000000010030000
(1779322169.257991) can0 273#000000000D023200
(1779322169.258970) can0 1E1#020D271001FA01FA
(1779322169.259999) can0 1F5#0000000000000000
(1779322169.261095) can0 0800A6A9#0000000000000000
(1779322169.262045) can0 1000A6A9#0D028813324A4A4A
(1779322169.263079) can0 1C00A6A9#0000000000030000
(1779322169.264095) can0 02018100#1003020D00000000
(1779322169.265087) can0 02028100#0000003264000000
(1779322169.266066) can0 02038100#0CD601100CD30105
(1779322169.267063) can0 02048100#4A01014A01010000
(1779322169.267968) can0 1AD#8714000059321818
(1779322169.268993) can0 2AD#D60C800C87140016
(1779322169.270002) can0 3AD#0000000000008714
(1779322169.271004) can0 4AD#EB00000000000000
(1779322169.272003) can0 76A#7F00000000000000
(1779322169.330640) can0 0000E005#1702440003B60591
(1779322169.331219) can0 1806E5F4#13CC010003B6023A
(1779322169.332074) can0 0000E000#13CC13CC020D0000
(1779322169.333058) can0 0000E004#181803B603B601E1
(1779322169.334040) can0 0000E006#0CD50CD50CD50CD5
(1779322169.335040) can0 0000E007#0CD30CD30CD50CD5
(1779322169.336053) can0 0000E008#0CD50CD50CD50CD5
(1779322169.337040) can0 0000E009#0CD50CD50CD50CD6
(1779322169.338097) can0 0000E010#0000000000000000
(1779322169.339101) can0 0000E011#0000000000000000
(1779322169.340077) can0 0000E012#0CD4000200000000
(1779322169.341098) can0 0000F001#0000000000000000
(1779322169.342078) can0 18FF28F4#10320000020D0000
(1779322169.343060) can0 18FE28F4#0CD60CD340400000
(1779322169.344073) can0 18FD28F4#1702FA6F00000000
(1779322169.344988) can0 4D4#000032007D0D0203
(1779322169.345977) can0 4D5#D30CD60C40400000
(1779322169.347053) can0 18914010#0CD6100CD3050000
(1779322169.348066) can0 18904010#020D020D753001FA
(1779322169.349066) can0 18FA28F4#123EA12C10270000
(1779322169.350066) can0 18FB28F4#D60CD30C40400000
(1779322169.351080) can0 18FC28F4#383200000D020000
(1779322169.352038) can0 18F810F3#0D02E80332640100
(1779322169.353092) can0 18F815F3#0000000010030000
(1779322169.354008) can0 273#000000000D023200
(1779322169.354977) can0 1E1#020D271001FA01FA
(1779322169.355998) can0 1F5#0000000000000000
(1779322169.357085) can0 0800A6A9#0000000000000000
(1779322169.358053) can0 1000A6A9#0D028813324A4A4A
(1779322169.359079) can0 1C00A6A9#0000000000030000
(1779322169.360079) can0 02018100#1003020D00000000
(1779322169.361079) can0 02028100#0000003264000000
(1779322169.362092) can0 02038100#0CD601100CD30105
(1779322169.363073) can0 02048100#4A01014A01010000
(1779322169.363948) can0 1AD#8714000059321818
(1779322169.364963) can0 2AD#D60C800C87140016
(1779322169.365983) can0 3AD#0000000000008714
(1779322169.366985) can0 4AD#EB00000000000000
(1779322169.367983) can0 76A#7F00000000000000
(1779322169.430666) can0 0000E005#1702440003B60591
(1779322169.431222) can0 1806E5F4#13CC010003B6023A
(1779322169.432071) can0 0000E000#13CC13CC020D0000
(1779322169.433069) can0 0000E004#181803B603B601E1
(1779322169.434031) can0 0000E006#0CD50CD50CD50CD5
(1779322169.435051) can0 0000E007#0CD30CD30CD50CD5
(1779322169.436044) can0 0000E008#0CD50CD50CD50CD5
(1779322169.437044) can0 0000E009#0CD50CD50CD50CD6
(1779322169.438091) can0 0000E010#0000000000000000
(1779322169.439119) can0 0000E011#0000000000000000
(1779322169.440071) can0 0000E012#0CD4000200000000
(1779322169.441089) can0 0000F001#0000000000000000
(1779322169.442082) can0 18FF28F4#10320000020D0000
(1779322169.443051) can0 18FE28F4#0CD60CD340400000
(1779322169.444063) can0 18FD28F4#1702FA6F00000000
(1779322169.444980) can0 4D4#000032007D0D0203
(1779322169.445961) can0 4D5#D30CD60C40400000
(1779322169.447089) can0 18914010#0CD6100CD3050000
(1779322169.448049) can0 18904010#020D020D753001FA
(1779322169.449057) can0 18FA28F4#123EA12C10270000
(1779322169.450057) can0 18FB28F4#D60CD30C40400000
(1779322169.451083) can0 18FC28F4#383200000D020000
(1779322169.452048) can0 18F810F3#0D02E80332640100
(1779322169.453083) can0 18F815F3#0000000010030000
(1779322169.453980) can0 273#000000000D023200
(1779322169.455013) can0 1E1#020D271001FA01FA
(1779322169.455993) can0 1F5#0000000000000000
(1779322169.457076) can0 0800A6A9#0000000000000000
(1779322169.458038) can0 1000A6A9#0D028813324A4A4A
(1779322169.459071) can0 1C00A6A9#0000000000030000
(1779322169.460081) can0 02018100#1003020D00000000
(1779322169.461083) can0 02028100#0000003264000000
(1779322169.462064) can0 02038100#0CD601100CD30105
(1779322169.463058) can0 02048100#4A01014A01010000
(1779322169.463958) can0 1AD#8714000059321818
(1779322169.464955) can0 2AD#D60C800C87140016
(1779322169.465987) can0 3AD#0000000000008714
(1779322169.466981) can0 4AD#EB00000000000000
(1779322169.467981) can0 76A#7F00000000000000
(1779322169.530625) can0 0000E005#1702440003B60591
(1779322169.531226) can0 1806E5F4#13CC010003B6023A
(1779322169.532106) can0 0000E000#13CC13CC020D0000
(1779322169.533053) can0 0000E004#181803B603B601E1
(1779322169.534041) can0 0000E006#0CD50CD50CD50CD3
(1779322169.535035) can0 0000E007#0CD50CD50CD50CD5
(1779322169.536035) can0 0000E008#0CD50CD50CD50CD5
(1779322169.537027) can0 0000E009#0CD50CD50CD50CD6
(1779322169.538099) can0 0000E010#0000000000000000
(1779322169.539080) can0 0000E011#0000000000000000
(1779322169.540061) can0 0000E012#0CD4000200000000
(1779322169.541093) can0 0000F001#0000000000000000
(1779322169.542073) can0 18FF28F4#10320000020D0000
(1779322169.543055) can0 18FE28F4#0CD60CD340400000
(1779322169.544074) can0 18FD28F4#1702FA6F00000000
(1779322169.544970) can0 4D4#000032007D0D0203
(1779322169.545952) can0 4D5#D30CD60C40400000
(1779322169.547049) can0 18914010#0CD6100CD3040000
(1779322169.548049) can0 18904010#020D020D753001FA
(1779322169.549061) can0 18FA28F4#123EA12C10270000
(1779322169.550042) can0 18FB28F4#D60CD30C40400000
(1779322169.551074) can0 18FC28F4#383200000D020000
(1779322169.552042) can0 18F810F3#0D02E80332640100
(1779322169.553074) can0 18F815F3#0000000010030000
(1779322169.553971) can0 273#000000000D023200
(1779322169.554953) can0 1E1#020D271001FA01FA
(1779322169.555985) can0 1F5#0000000000000000
(1779322169.557077) can0 0800A6A9#0000000000000000
(1779322169.558030) can0 1000A6A9#0D028813324A4A4A
(1779322169.559062) can0 1C00A6A9#0000000000030000
(1779322169.560077) can0 02018100#1003020D00000000
(1779322169.561069) can0 02028100#0000003264000000
(1779322169.562056) can0 02038100#0CD601100CD30104
(1779322169.563050) can0 02048100#4A01014A01010000
(1779322169.563953) can0 1AD#8714000059321818
(1779322169.564947) can0 2AD#D60C800C87140016
(1779322169.565978) can0 3AD#0000000000008714
(1779322169.566973) can0 4AD#EB00000000000000
(1779322169.567985) can0 76A#7F00000000000000
(1779322169.630610) can0 0000E005#1702440003B60591
(1779322169.631229) can0 1806E5F4#13CC010003B6023A
(1779322169.632067) can0 0000E000#13CC13CC020D0000
(1779322169.633045) can0 0000E004#181803B603B601E1
(1779322169.634029) can0 0000E006#0CD50CD50CD50CD3
(1779322169.635029) can0 0000E007#0CD50CD50CD50CD5
(1779322169.636027) can0 0000E008#0CD50CD50CD50CD5
(1779322169.637027) can0 0000E009#0CD50CD50CD50CD6
(1779322169.638090) can0 0000E010#0000000000000000
(1779322169.639072) can0 0000E011#0000000000000000
(1779322169.640072) can0 0000E012#0CD4000200000000
(1779322169.641084) can0 0000F001#0000000000000000
(1779322169.642058) can0 18FF28F4#10320000020D0000
(1779322169.643047) can0 18FE28F4#0CD60CD340400000
(1779322169.644065) can0 18FD28F4#1702FA6F00000000
(1779322169.644962) can0 4D4#000032007D0D0203
(1779322169.645957) can0 4D5#D30CD60C40400000
(1779322169.647059) can0 18914010#0CD6100CD3040000
(1779322169.648040) can0 18904010#020D020D753001FA
(1779322169.649053) can0 18FA28F4#123EA12C10270000
(1779322169.650033) can0 18FB28F4#D60CD30C40400000
(1779322169.651066) can0 18FC28F4#383200000D020000
(1779322169.652034) can0 18F810F3#0D02E80332640100
(1779322169.653078) can0 18F815F3#0000000010030000
(1779322169.653974) can0 273#000000000D023200
(1779322169.654964) can0 1E1#020D271001FA01FA
(1779322169.655977) can0 1F5#0000000000000000
(1779322169.657072) can0 0800A6A9#0000000000000000
(1779322169.658020) can0 1000A6A9#0D028813324A4A4A
(1779322169.659053) can0 1C00A6A9#0000000000030000
(1779322169.660066) can0 02018100#1003020D00000000
(1779322169.661066) can0 02028100#0000003264000000
(1779322169.662079) can0 02038100#0CD601100CD30104
(1779322169.663060) can0 02048100#4A01014A01010000
(1779322169.663945) can0 1AD#8714000059321818
(1779322169.664945) can0 2AD#D60C800C87140016
(1779322169.665968) can0 3AD#0000000000008714
(1779322169.666984) can0 4AD#EB00000000000000
(1779322169.667984) can0 76A#7F00000000000000
(1779322169.747601) can0 0000E005#1702440003B60591
(1779322169.748155) can0 1806E5F4#13CC010003B6023A
(1779322169.749057) can0 0000E000#13CC13CC020D0000
(1779322169.750050) can0 0000E004#181803B603B601E1
(1779322169.751019) can0 0000E006#0CD50CD50CD50CD5
(1779322169.752032) can0 0000E007#0CD50CD50CD50CD5
(1779322169.753031) can0 0000E008#0CD50CD50CD50CD3
(1779322169.754031) can0 0000E009#0CD50CD50CD50CD6
(1779322169.755123) can0 0000E010#0000000000000000
(1779322169.756069) can0 0000E011#0000000000000000
(1779322169.757057) can0 0000E012#0CD5000200000000
(1779322169.758025) can0 0000E013#4542323630354C43
(1779322169.759058) can0 0000E014#3134323300000000
(1779322169.760062) can0 0000E015#0000000000000003
(1779322169.761083) can0 0000F000#0000000000000000
(1779322169.762087) can0 0000F001#0000000000000000
(1779322169.763112) can0 18FF28F4#10320000020D0000
(1779322169.764047) can0 18FE28F4#0CD60CD340400000
(1779322169.765058) can0 18FD28F4#1702FA6F00000000
(1779322169.765962) can0 4D4#000032007D0D0203
(1779322169.766943) can0 4D5#D30CD60C40400000
(1779322169.768032) can0 18914010#0CD6100CD30C0000
(1779322169.769039) can0 18904010#020D020D753001FA
(1779322169.770064) can0 18924010#4001400100000000
(1779322169.771052) can0 18934010#000000F60000BC19
(1779322169.772059) can0 18944010#1003000000000000
(1779322169.773077) can0 18954010#0000000000000000
(1779322169.774077) can0 18954010#0100000000000000
(1779322169.775071) can0 18954010#0200000000000000
(1779322169.776071) can0 18954010#0300000000000000
(1779322169.777071) can0 18954010#0400000000000000
(1779322169.778071) can0 18954010#0500000000000000
(1779322169.779065) can0 18964010#0040404000000000
(1779322169.780056) can0 18974010#0000000000000000
(1779322169.781058) can0 18984010#0000000000000000
(1779322169.782039) can0 18FA28F4#123EA12C10270000
(1779322169.783039) can0 18FB28F4#D60CD30C40400000
(1779322169.784064) can0 18FC28F4#383200000D020000
(1779322169.785033) can0 18F810F3#0D02E80332640100
(1779322169.786045) can0 18F811F3#D60C1001D30C0C01
(1779322169.787059) can0 18F812F3#4001014001010000
(1779322169.788071) can0 18F813F3#0101000000000000
(1779322169.789033) can0 18F814F3#3200EA1AA9015F00
(1779322169.790064) can0 18F815F3#0000000010030000
(1779322169.790965) can0 273#000000000D023200
(1779322169.791961) can0 1E1#020D271001FA01FA
(1779322169.792989) can0 1F5#0000000000000000
(1779322169.794065) can0 0800A6A9#0000000000000000
(1779322169.795021) can0 1000A6A9#0D028813324A4A4A
(1779322169.796061) can0 1C00A6A9#0000000000030000
(1779322169.797065) can0 02018100#1003020D00000000
(1779322169.798059) can0 02028100#0000003264000000
(1779322169.799046) can0 02038100#0CD601100CD3010C
(1779322169.800059) can0 02048100#4A01014A01010000
(1779322169.800944) can0 1AD#8814000059321818
(1779322169.801957) can0 2AD#D60C800C88140016
(1779322169.802970) can0 3AD#0000000000008814
(1779322169.803964) can0 4AD#EB00000000000000
(1779322169.804970) can0 76A#7F00000000000000
(1779322169.863649) can0 0000E005#1702440003B60591
(1779322169.864240) can0 1806E5F4#13CC010003B6023A
(1779322169.865048) can0 0000E000#13CC13CC020D0000
(1779322169.866036) can0 0000E004#181803B603B601E1
(1779322169.867017) can0 0000E006#0CD50CD50CD50CD5
(1779322169.868036) can0 0000E007#0CD50CD50CD50CD5
(1779322169.869030) can0 0000E008#0CD50CD50CD50CD3
(1779322169.870030) can0 0000E009#0CD50CD50CD50CD6
(1779322169.871075) can0 0000E010#0000000000000000
(1779322169.872075) can0 0000E011#0000000000000000
(1779322169.873050) can0 0000E012#0CD5000200000000
(1779322169.874069) can0 0000F001#0000000000000000
(1779322169.875056) can0 18FF28F4#10320000020D0000
(1779322169.876036) can0 18FE28F4#0CD60CD340400000
(1779322169.877059) can0 18FD28F4#1702FA6F00000000
(1779322169.877966) can0 4D4#000032007D0D0203
(1779322169.878947) can0 4D5#D30CD60C40400000
(1779322169.880030) can0 18914010#0CD6100CD30C0000
(1779322169.881043) can0 18904010#020D020D753001FA
(1779322169.882043) can0 18FA28F4#123EA12C10270000
(1779322169.883037) can0 18FB28F4#D60CD30C40400000
(1779322169.884069) can0 18FC28F4#383200000D020000
(1779322169.885044) can0 18F810F3#0D02E80332640100
(1779322169.886062) can0 18F815F3#0000000010030000
(1779322169.886967) can0 273#000000000D023200
(1779322169.887947) can0 1E1#020D271001FA01FA
(1779322169.888974) can0 1F5#0000000000000000
(1779322169.890057) can0 0800A6A9#0000000000000000
(1779322169.891024) can0 1000A6A9#0D028813324A4A4A
(1779322169.892056) can0 1C00A6A9#0000000000030000
(1779322169.893082) can0 02018100#1003020D00000000
(1779322169.894069) can0 02028100#0000003264000000
(1779322169.895031) can0 02038100#0CD601100CD3010C
(1779322169.896046) can0 02048100#4A01014A01010000
(1779322169.896942) can0 1AD#8814000059321818
(1779322169.897956) can0 2AD#D60C800C88140016
(1779322169.898968) can0 3AD#0000000000008814
(1779322169.899967) can0 4AD#EB00000000000000
(1779322169.901009) can0 76A#7F00000000000000
(1779322169.963598) can0 0000E005#1702440003B60591
(1779322169.964144) can0 1806E5F4#13CC010003B6023A
(1779322169.965048) can0 0000E000#13CC13CC020D0000
(1779322169.966041) can0 0000E004#181803B603B601E1
(1779322169.967033) can0 0000E006#0CD50CD50CD50CD5
(1779322169.968032) can0 0000E007#0CD50CD50CD50CD5
(1779322169.969022) can0 0000E008#0CD50CD50CD50CD3
(1779322169.970033) can0 0000E009#0CD50CD50CD50CD6
(1779322169.971067) can0 0000E010#0000000000000000
(1779322169.972073) can0 0000E011#0000000000000000
(1779322169.973049) can0 0000E012#0CD5000200000000
(1779322169.974057) can0 0000F001#0000000000000000
(1779322169.975060) can0 18FF28F4#10320000020D0000
(1779322169.976042) can0 18FE28F4#0CD60CD340400000
(1779322169.977041) can0 18FD28F4#1702FA6F00000000
(1779322169.977990) can0 4D4#000032007D0D0203
(1779322169.978939) can0 4D5#D30CD60C40400000
(1779322169.980035) can0 18914010#0CD6100CD30C0000
(1779322169.981035) can0 18904010#020D020D753001FA
(1779322169.982026) can0 18FA28F4#123EA12C10270000
(1779322169.983029) can0 18FB28F4#D60CD30C40400000
(1779322169.984061) can0 18FC28F4#383200000D020000
(1779322169.985029) can0 18F810F3#0D02E80332640100
(1779322169.986100) can0 18F815F3#0000000010030000
(1779322169.986959) can0 273#000000000D023200
(1779322169.987940) can0 1E1#020D271001FA01FA
(1779322169.988976) can0 1F5#0000000000000000
(1779322169.990049) can0 0800A6A9#0000000000000000
(1779322169.991016) can0 1000A6A9#0D028813324A4A4A
(1779322169.992049) can0 1C00A6A9#0000000000030000
(1779322169.993064) can0 02018100#1003020D00000000
(1779322169.994102) can0 02028100#0000003264000000
(1779322169.995024) can0 02038100#0CD601100CD3010C
(1779322169.996036) can0 02048100#4A01014A01010000
(1779322169.996934) can0 1AD#8814000059321818
(1779322169.997943) can0 2AD#D60C800C88140016
(1779322169.998959) can0 3AD#0000000000008814
(1779322169.999959) can0 4AD#EB00000000000000
(1779322170.000953) can0 76A#7F00000000000000
(1779322170.063594) can0 0000E005#1702440003B60591
(1779322170.064145) can0 1806E5F4#13CC010003B6023A
(1779322170.065033) can0 0000E000#13CC13CC020D0000
(1779322170.066032) can0 0000E004#181803B603B601E1
(1779322170.067007) can0 0000E006#0CD50CD50CD50CD5
(1779322170.068013) can0 0000E007#0CD50CD30CD50CD5
(1779322170.069013) can0 0000E008#0CD50CD50CD50CD5
(1779322170.070007) can0 0000E009#0CD50CD50CD50CD6
(1779322170.071122) can0 0000E010#0000000000000000
(1779322170.072051) can0 0000E011#0000000000000000
(1779322170.073032) can0 0000E012#0CD5000200000000
(1779322170.074065) can0 0000F001#0000000000000000
(1779322170.075045) can0 18FF28F4#10320000020D0000
(1779322170.076026) can0 18FE28F4#0CD60CD340400000
(1779322170.077045) can0 18FD28F4#1702FA6F00000000
(1779322170.077939) can0 4D4#000032007D0D0203
(1779322170.078943) can0 4D5#D30CD60C40400000
(1779322170.080022) can0 18914010#0CD6100CD3060000
(1779322170.081022) can0 18904010#020D020D753001FA
(1779322170.082030) can0 18FA28F4#123EA12C10270000
(1779322170.083015) can0 18FB28F4#D60CD30C40400000
(1779322170.084045) can0 18FC28F4#383200000D020000
(1779322170.085013) can0 18F810F3#0D02E80332640100
(1779322170.086059) can0 18F815F3#0000000010030000
(1779322170.086944) can0 273#000000000D023200
(1779322170.087943) can0 1E1#020D271001FA01FA
(1779322170.088975) can0 1F5#0000000000000000
(1779322170.090046) can0 0800A6A9#0000000000000000
(1779322170.091020) can0 1000A6A9#0D028813324A4A4A
(1779322170.092046) can0 1C00A6A9#0000000000030000
(1779322170.093046) can0 02018100#1003020D00000000
(1779322170.094044) can0 02028100#0000003264000000
(1779322170.095027) can0 02038100#0CD601100CD30106
(1779322170.096039) can0 02048100#4A01014A01010000
(1779322170.096937) can0 1AD#8814000059321818
(1779322170.097937) can0 2AD#D60C800C88140016
(1779322170.098951) can0 3AD#0000000000008814
(1779322170.099963) can0 4AD#EB00000000000000
(1779322170.100957) can0 76A#7F00000000000000
(1779322170.163634) can0 0000E005#1702440003B60591
(1779322170.164190) can0 1806E5F4#13CC010003B6023A
(1779322170.165043) can0 0000E000#13CC13CC020D0000
(1779322170.166023) can0 0000E004#181803B603B601E1
(1779322170.167003) can0 0000E006#0CD50CD50CD50CD5
(1779322170.168005) can0 0000E007#0CD50CD30CD50CD5
(1779322170.169017) can0 0000E008#0CD50CD50CD50CD5
(1779322170.170006) can0 0000E009#0CD50CD50CD50CD6
(1779322170.171071) can0 0000E010#0000000000000000
(1779322170.172063) can0 0000E011#0000000000000000
(1779322170.173043) can0 0000E012#0CD5000200000000
(1779322170.174062) can0 0000F001#0000000000000000
(1779322170.175035) can0 18FF28F4#10320000020D0000
(1779322170.176024) can0 18FE28F4#0CD60CD340400000
(1779322170.177037) can0 18FD28F4#1702FA6F00000000
(1779322170.177954) can0 4D4#000032007D0D0203
(1779322170.178932) can0 4D5#D30CD60C40400000
(1779322170.180018) can0 18914010#0CD6100CD3060000
(1779322170.181031) can0 18904010#020D020D753001FA
(1779322170.182030) can0 18FA28F4#123EA12C10270000
(1779322170.183031) can0 18FB28F4#D60CD30C40400000
(1779322170.184043) can0 18FC28F4#383200000D020000
(1779322170.185024) can0 18F810F3#0D02E80332640100
(1779322170.186056) can0 18F815F3#0000000010030000
(1779322170.186951) can0 273#000000000D023200
(1779322170.187935) can0 1E1#020D271001FA01FA
(1779322170.188967) can0 1F5#0000000000000000
(1779322170.190050) can0 0800A6A9#0000000000000000
(1779322170.191012) can0 1000A6A9#0D028813324A4A4A
(1779322170.192044) can0 1C00A6A9#0000000000030000
(1779322170.193076) can0 02018100#1003020D00000000
(1779322170.194044) can0 02028100#0000003264000000
(1779322170.195025) can0 02038100#0CD601100CD30106
(1779322170.196037) can0 02048100#4A01014A01010000
(1779322170.196935) can0 1AD#8814000059321818
(1779322170.197929) can0 2AD#D60C800C88140016
(1779322170.198937) can0 3AD#0000000000008814
(1779322170.199954) can0 4AD#EB00000000000000
(1779322170.200987) can0 76A#7F00000000000000
(1779322170.280623) can0 0000E005#1702440003B60591
(1779322170.281178) can0 1806E5F4#13CC010003B6023A
(1779322170.282029) can0 0000E000#13CC13CC020D0000
(1779322170.283029) can0 0000E004#181803B603B601E1
(1779322170.284010) can0 0000E006#0CD50CD50CD50CD5
(1779322170.285009) can0 0000E007#0CD50CD50CD50CD5
(1779322170.286054) can0 0000E008#0CD50CD50CD50CD5
(1779322170.287003) can0 0000E009#0CD50CD50CD50CD6
(1779322170.288055) can0 0000E010#0000000000000000
(1779322170.289047) can0 0000E011#0000000000000000
(1779322170.290035) can0 0000E012#0CD5000000000000
(1779322170.290997) can0 0000E013#4542323630354C43
(1779322170.292028) can0 0000E014#3134323300000000
(1779322170.293039) can0 0000E015#0000000000000003
(1779322170.294106) can0 0000F000#0000000000000000
(1779322170.295056) can0 0000F001#0000000000000000
(1779322170.296042) can0 18FF28F4#10320000020D0000
(1779322170.297022) can0 18FE28F4#0CD60CD540400000
(1779322170.298035) can0 18FD28F4#1702FA6F00000000
(1779322170.298940) can0 4D4#000032007D0D0203
(1779322170.299933) can0 4D5#D50CD60C40400000
(1779322170.301010) can0 18914010#0CD6100CD5010000
(1779322170.302010) can0 18904010#020D020D753001FA
(1779322170.303042) can0 18924010#4001400100000000
(1779322170.304029) can0 18934010#000000F70000BC19
(1779322170.305037) can0 18944010#1003000000000000
(1779322170.306055) can0 18954010#0000000000000000
(1779322170.307055) can0 18954010#0100000000000000
(1779322170.308055) can0 18954010#0200000000000000
(1779322170.309049) can0 18954010#0300000000000000
(1779322170.310101) can0 18954010#0400000000000000
(1779322170.311049) can0 18954010#0500000000000000
(1779322170.312046) can0 18964010#0040404000000000
(1779322170.313043) can0 18974010#0000000000000000
(1779322170.314037) can0 18984010#0000000000000000
(1779322170.315018) can0 18FA28F4#123EA12C10270000
(1779322170.316017) can0 18FB28F4#D60CD50C40400000
(1779322170.317040) can0 18FC28F4#383200000D020000
(1779322170.318010) can0 18F810F3#0D02E80332640100
(1779322170.319024) can0 18F811F3#D60C1001D50C0101
(1779322170.320017) can0 18F812F3#4001014001010000
(1779322170.321049) can0 18F813F3#0101000000000000
(1779322170.322011) can0 18F814F3#3200EA1AA9015F00
(1779322170.323043) can0 18F815F3#0000000010030000
(1779322170.323941) can0 273#000000000D023200
(1779322170.324919) can0 1E1#020D271001FA01FA
(1779322170.325954) can0 1F5#0000000000000000
(1779322170.327049) can0 0800A6A9#0000000000000000
(1779322170.327999) can0 1000A6A9#0D028813324A4A4A
(1779322170.329023) can0 1C00A6A9#0000000000030000
(1779322170.330043) can0 02018100#1003020D00000000
(1779322170.331043) can0 02028100#0000003264000000
(1779322170.332024) can0 02038100#0CD601100CD50101
(1779322170.333018) can0 02048100#4A01014A01010000
(1779322170.333922) can0 1AD#8814000059321818
(1779322170.334935) can0 2AD#D60C800C88140016
(1779322170.335948) can0 3AD#0000000000008814
(1779322170.336942) can0 4AD#EB00000000000000
(1779322170.337947) can0 76A#7F00000000000000
(1779322170.396570) can0 0000E005#1702440003B60591
(1779322170.397133) can0 1806E5F4#13CC010003B6023A
(1779322170.398022) can0 0000E000#13CC13CC020D0000
(1779322170.399028) can0 0000E004#181803B603B601E1
(1779322170.400008) can0 0000E006#0CD50CD50CD50CD5
(1779322170.401008) can0 0000E007#0CD50CD50CD50CD5
(1779322170.402004) can0 0000E008#0CD50CD50CD50CD5
(1779322170.403003) can0 0000E009#0CD50CD50CD50CD6
(1779322170.404053) can0 0000E010#0000000000000000
(1779322170.405047) can0 0000E011#0000000000000000
(1779322170.406029) can0 0000E012#0CD5000000000000
(1779322170.407046) can0 0000F001#0000000000000000
(1779322170.408040) can0 18FF28F4#10320000020D0000
(1779322170.409027) can0 18FE28F4#0CD60CD540400000
(1779322170.410018) can0 18FD28F4#1702FA6F00000000
(1779322170.410938) can0 4D4#000032007D0D0203
(1779322170.411919) can0 4D5#D50CD60C40400000
(1779322170.413015) can0 18914010#0CD6100CD5010000
(1779322170.414015) can0 18904010#020D020D753001FA
(1779322170.415014) can0 18FA28F4#123EA12C10270000
(1779322170.416028) can0 18FB28F4#D60CD50C40400000
(1779322170.417041) can0 18FC28F4#383200000D020000
(1779322170.418006) can0 18F810F3#0D02E80332640100
(1779322170.419043) can0 18F815F3#0000000010030000
(1779322170.419941) can0 273#000000000D023200
(1779322170.420919) can0 1E1#020D271001FA01FA
(1779322170.421943) can0 1F5#0000000000000000
(1779322170.423047) can0 0800A6A9#0000000000000000
(1779322170.424027) can0 1000A6A9#0D028813324A4A4A
(1779322170.425028) can0 1C00A6A9#0000000000030000
(1779322170.426041) can0 02018100#1003020D00000000
(1779322170.427041) can0 02028100#0000003264000000
(1779322170.428021) can0 02038100#0CD601100CD50101
(1779322170.429015) can0 02048100#4A01014A01010000
(1779322170.429916) can0 1AD#8814000059321818
(1779322170.430932) can0 2AD#D60C800C88140016
(1779322170.431977) can0 3AD#0000000000008814
(1779322170.432939) can0 4AD#EB00000000000000
(1779322170.433935) can0 76A#7F00000000000000
(1779322170.496561) can0 0000E005#1702440003B60591
(1779322170.497117) can0 1806E5F4#13CC010003B6023A
(1779322170.498018) can0 0000E000#13CC13CC020D0000
(1779322170.499019) can0 0000E004#181803B603B601E1
(1779322170.499999) can0 0000E006#0CD50CD50CD50CD5
(1779322170.501031) can0 0000E007#0CD50CD50CD50CD5
(1779322170.501995) can0 0000E008#0CD50CD50CD50CD5
(1779322170.502989) can0 0000E009#0CD50CD50CD50CD6
(1779322170.504038) can0 0000E010#0000000000000000
(1779322170.505038) can0 0000E011#0000000000000000
(1779322170.506019) can0 0000E012#0CD5000000000000
(1779322170.507048) can0 0000F001#0000000000000000
(1779322170.508032) can0 18FF28F4#10320000020D0000
(1779322170.509045) can0 18FE28F4#0CD60CD540400000
(1779322170.510031) can0 18FD28F4#1702FA6F00000000
(1779322170.510930) can0 4D4#000032007D0D0203
(1779322170.511930) can0 4D5#D50CD60C40400000
(1779322170.513006) can0 18914010#0CD6100CD5010000
(1779322170.514006) can0 18904010#020D020D753001FA
(1779322170.515019) can0 18FA28F4#123EA12C10270000
(1779322170.516000) can0 18FB28F4#D60CD50C40400000
(1779322170.517083) can0 18FC28F4#383200000D020000
(1779322170.517999) can0 18F810F3#0D02E80332640100
(1779322170.519037) can0 18F815F3#0000000010030000
(1779322170.519930) can0 273#000000000D023200
(1779322170.520930) can0 1E1#020D271001FA01FA
(1779322170.521942) can0 1F5#0000000000000000
(1779322170.523039) can0 0800A6A9#0000000000000000
(1779322170.523987) can0 1000A6A9#0D028813324A4A4A
(1779322170.525064) can0 1C00A6A9#0000000000030000
(1779322170.526032) can0 02018100#1003020D00000000
(1779322170.527027) can0 02028100#0000003264000000
(1779322170.528013) can0 02038100#0CD601100CD50101
(1779322170.529026) can0 02048100#4A01014A01010000
(1779322170.529924) can0 1AD#8814000059321818
(1779322170.530918) can0 2AD#D60C800C88140016
(1779322170.531937) can0 3AD#0000000000008814
(1779322170.532943) can0 4AD#EB00000000000000
(1779322170.533943) can0 76A#7F00000000000000
(1779322170.596602) can0 0000E005#1702440003B60591
(1779322170.597158) can0 1806E5F4#13CC010003B6023A
(1779322170.598010) can0 0000E000#13CC13CC020D0000
(1779322170.599010) can0 0000E004#181803B603B601E1
(1779322170.599992) can0 0000E006#0CD50CD50CD50CD5
(1779322170.600991) can0 0000E007#0CD50CD50CD50CD5
(1779322170.602036) can0 0000E008#0CD50CD50CD50CD5
(1779322170.602985) can0 0000E009#0CD50CD50CD50CD6
(1779322170.604050) can0 0000E010#0000000000000000
(1779322170.605029) can0 0000E011#0000000000000000
(1779322170.606016) can0 0000E012#0CD5000000000000
(1779322170.607042) can0 0000F001#0000000000000000
(1779322170.608029) can0 18FF28F4#10320000020D0000
(1779322170.609010) can0 18FE28F4#0CD60CD540400000
(1779322170.610023) can0 18FD28F4#1702FA6F00000000
(1779322170.610927) can0 4D4#000032007D0D0203
(1779322170.611916) can0 4D5#D50CD60C40400000
(1779322170.613004) can0 18914010#0CD6100CD5010000
(1779322170.613998) can0 18904010#020D020D753001FA
(1779322170.615017) can0 18FA28F4#123EA12C10270000
(1779322170.615990) can0 18FB28F4#D60CD50C40400000
(1779322170.617030) can0 18FC28F4#383200000D020000
(1779322170.617991) can0 18F810F3#0D02E80332640100
(1779322170.619043) can0 18F815F3#0000000010030000
(1779322170.619927) can0 273#000000000D023200
(1779322170.620921) can0 1E1#020D271001FA01FA
(1779322170.621940) can0 1F5#0000000000000000
(1779322170.623036) can0 0800A6A9#0000000000000000
(1779322170.623977) can0 1000A6A9#0D028813324A4A4A
(1779322170.625017) can0 1C00A6A9#0000000000030000
(1779322170.626030) can0 02018100#1003020D00000000
(1779322170.627024) can0 02028100#0000003264000000
(1779322170.628006) can0 02038100#0CD601100CD50101
(1779322170.629023) can0 02048100#4A01014A01010000
(1779322170.629921) can0 1AD#8814000059321818
(1779322170.630915) can0 2AD#D60C800C88140016
(1779322170.631928) can0 3AD#0000000000008814
(1779322170.632941) can0 4AD#EB00000000000000
(1779322170.633941) can0 76A#7F00000000000000
(1779322170.696554) can0 0000E005#1702440003B60591
(1779322170.697105) can0 1806E5F4#13CC010003B6023A
(1779322170.698008) can0 0000E000#13CC13CC020D0000
(1779322170.699007) can0 0000E004#181803B603B601E1
(1779322170.699988) can0 0000E006#0CD50CD50CD50CD5
(1779322170.700984) can0 0000E007#0CD50CD50CD50CD5
(1779322170.701989) can0 0000E008#0CD50CD50CD50CD5
(1779322170.702989) can0 0000E009#0CD50CD50CD50CD6
(1779322170.704034) can0 0000E010#0000000000000000
(1779322170.705033) can0 0000E011#0000000000000000
(1779322170.706014) can0 0000E012#0CD5000000000000
(1779322170.707050) can0 0000F001#0000000000000000
(1779322170.708029) can0 18FF28F4#10320000020D0000
(1779322170.709009) can0 18FE28F4#0CD60CD540400000
(1779322170.710021) can0 18FD28F4#1702FA6F00000000
(1779322170.710926) can0 4D4#000032007D0D0203
(1779322170.711916) can0 4D5#D50CD60C40400000
(1779322170.713002) can0 18914010#0CD6100CD5010000
(1779322170.714002) can0 18904010#020D020D753001FA
(1779322170.715015) can0 18FA28F4#123EA12C10270000
(1779322170.716015) can0 18FB28F4#D60CD50C40400000
(1779322170.717027) can0 18FC28F4#383200000D020000
(1779322170.717995) can0 18F810F3#0D02E80332640100
(1779322170.719021) can0 18F815F3#0000000010030000
(1779322170.719920) can0 273#000000000D023200
(1779322170.720907) can0 1E1#020D271001FA01FA
(1779322170.721938) can0 1F5#0000000000000000
(1779322170.723034) can0 0800A6A9#0000000000000000
(1779322170.723997) can0 1000A6A9#0D028813324A4A4A
(1779322170.725015) can0 1C00A6A9#0000000000030000
(1779322170.726028) can0 02018100#1003020D00000000
(1779322170.727028) can0 02028100#0000003264000000
(1779322170.728008) can0 02038100#0CD601100CD50101
(1779322170.729002) can0 02048100#4A01014A01010000
(1779322170.729900) can0 1AD#8814000059321818
(1779322170.730914) can0 2AD#D60C800C88140016
(1779322170.731958) can0 3AD#0000000000008814
(1779322170.732926) can0 4AD#EB00000000000000
(1779322170.733939) can0 76A#7F00000000000000
(1779322170.813587) can0 0000E005#1702440003B60591
(1779322170.814142) can0 1806E5F4#13CC010003B6023A
(1779322170.815013) can0 0000E000#13CC13CC020D0000
(1779322170.816006) can0 0000E004#181803B603B601E1
(1779322170.817020) can0 0000E006#0CD50CD50CD50CD5
(1779322170.817987) can0 0000E007#0CD30CD50CD50CD5
(1779322170.818987) can0 0000E008#0CD50CD50CD50CD5
(1779322170.819987) can0 0000E009#0CD50CD50CD50CD6
(1779322170.821032) can0 0000E010#0000000000000000
(1779322170.822023) can0 0000E011#0000000000000000
(1779322170.823014) can0 0000E012#0CD5000300000000
(1779322170.823974) can0 0000E013#4542323630354C43
(1779322170.825058) can0 0000E014#3134323300000000
(1779322170.826015) can0 0000E015#0000000000000003
(1779322170.827039) can0 0000F000#0000000000000000
(1779322170.828039) can0 0000F001#0000000000000000
(1779322170.829020) can0 18FF28F4#10320000020D0000
(1779322170.830000) can0 18FE28F4#0CD60CD340400000
(1779322170.831014) can0 18FD28F4#1702FA6F00000000
(1779322170.831918) can0 4D4#000032007D0D0203
(1779322170.832943) can0 4D5#D30CD60C40400000
(1779322170.833986) can0 18914010#0CD6100CD3050000
(1779322170.834994) can0 18904010#020D020D753001FA
(1779322170.836020) can0 18924010#4001400100000000
(1779322170.837020) can0 18934010#000000F80000BC19
(1779322170.838013) can0 18944010#1003000000000000
(1779322170.839033) can0 18954010#0000000000000000
(1779322170.840032) can0 18954010#0100000000000000
(1779322170.841077) can0 18954010#0200000000000000
(1779322170.842026) can0 18954010#0300000000000000
(1779322170.843027) can0 18954010#0400000000000000
(1779322170.844026) can0 18954010#0500000000000000
(1779322170.845020) can0 18964010#0040404000000000
(1779322170.846017) can0 18974010#0000000000000000
(1779322170.847015) can0 18984010#0000000000000000
(1779322170.847994) can0 18FA28F4#123EA12C10270000
(1779322170.848995) can0 18FB28F4#D60CD30C40400000
(1779322170.850017) can0 18FC28F4#383200000D020000
(1779322170.850989) can0 18F810F3#0D02E80332640100
(1779322170.852001) can0 18F811F3#D60C1001D30C0501
(1779322170.852995) can0 18F812F3#4001014001010000
(1779322170.854028) can0 18F813F3#0101000000000000
(1779322170.854995) can0 18F814F3#3200EA1AA9015F00
(1779322170.856020) can0 18F815F3#0000000010030000
(1779322170.856918) can0 273#000000000D023200
(1779322170.857896) can0 1E1#020D271001FA01FA
(1779322170.858931) can0 1F5#0000000000000000
(1779322170.860028) can0 0800A6A9#0000000000000000
(1779322170.860976) can0 1000A6A9#0D028813324A4A4A
(1779322170.862015) can0 1C00A6A9#0000000000030000
(1779322170.863021) can0 02018100#1003020D00000000
(1779322170.864021) can0 02028100#0000003264000000
(1779322170.865002) can0 02038100#0CD601100CD30105
(1779322170.866002) can0 02048100#4A01014A01010000
(1779322170.866900) can0 1AD#8814000059321818
(1779322170.867912) can0 2AD#D60C800C88140016
(1779322170.868931) can0 3AD#0000000000008814
(1779322170.869942) can0 4AD#EB00000000000000
(1779322170.870925) can0 76A#7F00000000000000
(1779322170.929553) can0 0000E005#1702440003B60591
(1779322170.930109) can0 1806E5F4#13CC010003B6023A
(1779322170.931005) can0 0000E000#13CC13CC020D0000
(1779322170.931985) can0 0000E004#181803B603B601E1
(1779322170.932972) can0 0000E006#0CD50CD50CD50CD5
(1779322170.933986) can0 0000E007#0CD30CD50CD50CD5
(1779322170.934986) can0 0000E008#0CD50CD50CD50CD5
(1779322170.935980) can0 0000E009#0CD50CD50CD50CD6
(1779322170.937030) can0 0000E010#0000000000000000
(1779322170.938024) can0 0000E011#0000000000000000
(1779322170.939005) can0 0000E012#0CD5000300000000
(1779322170.940024) can0 0000F001#0000000000000000
(1779322170.941005) can0 18FF28F4#10320000020D0000
(1779322170.941986) can0 18FE28F4#0CD60CD340400000
(1779322170.942996) can0 18FD28F4#1702FA6F00000000
(1779322170.943916) can0 4D4#000032007D0D0203
(1779322170.944903) can0 4D5#D30CD60C40400000
(1779322170.945999) can0 18914010#0CD6100CD3050000
(1779322170.947012) can0 18904010#020D020D753001FA
(1779322170.947992) can0 18FA28F4#123EA12C10270000
(1779322170.948993) can0 18FB28F4#D60CD30C40400000
(1779322170.950025) can0 18FC28F4#383200000D020000
(1779322170.950984) can0 18F810F3#0D02E80332640100
(1779322170.952018) can0 18F815F3#0000000010030000
(1779322170.952922) can0 273#000000000D023200
(1779322170.953903) can0 1E1#020D271001FA01FA
(1779322170.954943) can0 1F5#0000000000000000
(1779322170.956011) can0 0800A6A9#0000000000000000
(1779322170.956980) can0 1000A6A9#0D028813324A4A4A
(1779322170.958005) can0 1C00A6A9#0000000000030000
(1779322170.959025) can0 02018100#1003020D00000000
(1779322170.960019) can0 02028100#0000003264000000
(1779322170.960999) can0 02038100#0CD601100CD30105
(1779322170.962000) can0 02048100#4A01014A01010000
(1779322170.962924) can0 1AD#8814000059321818
(1779322170.963910) can0 2AD#D60C800C88140016
(1779322170.964923) can0 3AD#0000000000008814
(1779322170.965923) can0 4AD#EB00000000000000
(1779322170.966912) can0 76A#7F00000000000000
(1779322171.029615) can0 0000E005#1702440003B60591
(1779322171.030166) can0 1806E5F4#13CC010003B6023A
(1779322171.030999) can0 0000E000#13CC13CC020D0000
(1779322171.032011) can0 0000E004#181803B603B601E1
(1779322171.032977) can0 0000E006#0CD50CD50CD50CD5
(1779322171.033978) can0 0000E007#0CD30CD50CD50CD5
(1779322171.034972) can0 0000E008#0CD50CD50CD50CD5
(1779322171.035972) can0 0000E009#0CD50CD50CD50CD6
(1779322171.037016) can0 0000E010#0000000000000000
(1779322171.038015) can0 0000E011#0000000000000000
(1779322171.038997) can0 0000E012#0CD5000300000000
(1779322171.040039) can0 0000F001#0000000000000000
(1779322171.041009) can0 18FF28F4#10320000020D0000
(1779322171.041990) can0 18FE28F4#0CD60CD340400000
(1779322171.042990) can0 18FD28F4#1702FA6F00000000
(1779322171.043906) can0 4D4#000032007D0D0203
(1779322171.044894) can0 4D5#D30CD60C40400000
(1779322171.045984) can0 18914010#0CD6100CD3050000
(1779322171.046984) can0 18904010#020D020D753001FA
(1779322171.048026) can0 18FA28F4#123EA12C10270000
(1779322171.048984) can0 18FB28F4#D60CD30C40400000
(1779322171.050010) can0 18FC28F4#383200000D020000
(1779322171.050978) can0 18F810F3#0D02E80332640100
(1779322171.052000) can0 18F815F3#0000000010030000
(1779322171.052907) can0 273#000000000D023200
(1779322171.053907) can0 1E1#020D271001FA01FA
(1779322171.054921) can0 1F5#0000000000000000
(1779322171.056048) can0 0800A6A9#0000000000000000
(1779322171.056965) can0 1000A6A9#0D028813324A4A4A
(1779322171.057997) can0 1C00A6A9#0000000000030000
(1779322171.059010) can0 02018100#1003020D00000000
(1779322171.060002) can0 02028100#0000003264000000
(1779322171.060991) can0 02038100#0CD601100CD30105
(1779322171.061984) can0 02048100#4A01014A01010000
(1779322171.062889) can0 1AD#8814000059321818
(1779322171.063894) can0 2AD#D60C800C88140016
(1779322171.064914) can0 3AD#0000000000008814
(1779322171.065927) can0 4AD#EB00000000000000
(1779322171.066921) can0 76A#7F00000000000000
(1779322171.129579) can0 0000E005#1702440003B60591
(1779322171.130136) can0 1806E5F4#13CC010003B6023A
(1779322171.131001) can0 0000E000#13CC13CC020D0000
(1779322171.131987) can0 0000E004#181803B603B601E1
(1779322171.133014) can0 0000E006#0CD50CD50CD50CD5
(1779322171.133968) can0 0000E007#0CD50CD50CD50CD5
(1779322171.134981) can0 0000E008#0CD50CD50CD50CD5
(1779322171.135962) can0 0000E009#0CD50CD50CD50CD6
(1779322171.137025) can0 0000E010#0000000000000000
(1779322171.138026) can0 0000E011#0000000000000000
(1779322171.139007) can0 0000E012#0CD5000000000000
(1779322171.140019) can0 0000F001#0000000000000000
(1779322171.141001) can0 18FF28F4#10320000020D0000
(1779322171.141982) can0 18FE28F4#0CD60CD540400000
(1779322171.143001) can0 18FD28F4#1702FA6F00000000
(1779322171.143918) can0 4D4#000032007D0D0203
(1779322171.144892) can0 4D5#D50CD60C40400000
(1779322171.145995) can0 18914010#0CD6100CD5010000
(1779322171.146988) can0 18904010#020D020D753001FA
(1779322171.147989) can0 18FA28F4#123EA12C10270000
(1779322171.148984) can0 18FB28F4#D60CD50C40400000
(1779322171.150001) can0 18FC28F4#383200000D020000
(1779322171.150982) can0 18F810F3#0D02E80332640100
(1779322171.152014) can0 18F815F3#0000000010030000
(1779322171.152918) can0 273#000000000D023200
(1779322171.153899) can0 1E1#020D271001FA01FA
(1779322171.154924) can0 1F5#0000000000000000
(1779322171.156007) can0 0800A6A9#0000000000000000
(1779322171.156969) can0 1000A6A9#0D028813324A4A4A
(1779322171.158001) can0 1C00A6A9#0000000000030000
(1779322171.159002) can0 02018100#1003020D00000000
(1779322171.160014) can0 02028100#0000003264000000
(1779322171.160974) can0 02038100#0CD601100CD50101
(1779322171.161995) can0 02048100#4A01014A01010000
(1779322171.162893) can0 1AD#8814000059321818
(1779322171.163906) can0 2AD#D60C800C88140016
(1779322171.164918) can0 3AD#0000000000008814
(1779322171.165919) can0 4AD#EB00000000000000
(1779322171.166913) can0 76A#7F00000000000000
(1779322171.229541) can0 0000E005#1702440003B60591
(1779322171.230091) can0 1806E5F4#13CC010003B6023A
(1779322171.230998) can0 0000E000#13CC13CC020D0000
(1779322171.231979) can0 0000E004#181803B603B601E1
(1779322171.232960) can0 0000E006#0CD50CD50CD50CD5
(1779322171.233970) can0 0000E007#0CD50CD50CD50CD5
(1779322171.234973) can0 0000E008#0CD50CD50CD50CD5
(1779322171.235973) can0 0000E009#0CD50CD50CD50CD6
(1779322171.237017) can0 0000E010#0000000000000000
(1779322171.238017) can0 0000E011#0000000000000000
(1779322171.238999) can0 0000E012#0CD5000000000000
(1779322171.240011) can0 0000F001#0000000000000000
(1779322171.240998) can0 18FF28F4#10320000020D0000
(1779322171.241974) can0 18FE28F4#0CD60CD540400000
(1779322171.242992) can0 18FD28F4#1702FA6F00000000
(1779322171.243909) can0 4D4#000032007D0D0203
(1779322171.244890) can0 4D5#D50CD60C40400000
(1779322171.245984) can0 18914010#0CD6100CD5010000
(1779322171.246986) can0 18904010#020D020D753001FA
(1779322171.247986) can0 18FA28F4#123EA12C10270000
(1779322171.248979) can0 18FB28F4#D60CD50C40400000
(1779322171.250012) can0 18FC28F4#383200000D020000
(1779322171.250980) can0 18F810F3#0D02E80332640100
(1779322171.252011) can0 18F815F3#0000000010030000
(1779322171.252910) can0 273#000000000D023200
(1779322171.253889) can0 1E1#020D271001FA01FA
(1779322171.254936) can0 1F5#0000000000000000
(1779322171.256000) can0 0800A6A9#0000000000000000
(1779322171.256967) can0 1000A6A9#0D028813324A4A4A
(1779322171.257996) can0 1C00A6A9#0000000000030000
(1779322171.259012) can0 02018100#1003020D00000000
(1779322171.260012) can0 02028100#0000003264000000
(1779322171.260993) can0 02038100#0CD601100CD50101
(1779322171.261987) can0 02048100#4A01014A01010000
(1779322171.262904) can0 1AD#8814000059321818
(1779322171.263904) can0 2AD#D60C800C88140016
(1779322171.264916) can0 3AD#0000000000008814
(1779322171.265905) can0 4AD#EB00000000000000
(1779322171.266910) can0 76A#7F00000000000000
(1779322171.346537) can0 0000E005#1702440003B60591
(1779322171.347093) can0 1806E5F4#13CC010003B6023A
(1779322171.348005) can0 0000E000#13CC13CC020D0000
(1779322171.348977) can0 0000E004#181803B603B601E1
(1779322171.349958) can0 0000E006#0CD50CD50CD30CD5
(1779322171.350959) can0 0000E007#0CD50CD50CD50CD5
(1779322171.351952) can0 0000E008#0CD50CD50CD50CD5
(1779322171.352952) can0 0000E009#0CD50CD50CD50CD6
(1779322171.354016) can0 0000E010#0000000000000000
(1779322171.354997) can0 0000E011#0000000000000000
(1779322171.356029) can0 0000E012#0CD4000200000000
(1779322171.356959) can0 0000E013#4542323630354C43
(1779322171.357990) can0 0000E014#3134323300000000
(1779322171.359001) can0 0000E015#0000000000000003
(1779322171.360004) can0 0000F000#0000000000000000
(1779322171.361004) can0 0000F001#0000000000000000
(1779322171.361985) can0 18FF28F4#10320000020D0000
(1779322171.362966) can0 18FE28F4#0CD60CD340400000
(1779322171.364029) can0 18FD28F4#1702FA6F00000000
(1779322171.364901) can0 4D4#000032007D0D0203
(1779322171.365882) can0 4D5#D30CD60C40400000
(1779322171.366971) can0 18914010#0CD6100CD3030000
(1779322171.367972) can0 18904010#020D020D753001FA
(1779322171.368991) can0 18924010#4001400100000000
(1779322171.369985) can0 18934010#000000F90000BC19
(1779322171.370982) can0 18944010#1003000000000000
(1779322171.372061) can0 18954010#0000000000000000
(1779322171.373018) can0 18954010#0100000000000000
(1779322171.374010) can0 18954010#0200000000000000
(1779322171.375011) can0 18954010#0300000000000000
(1779322171.376010) can0 18954010#0400000000000000
(1779322171.376991) can0 18954010#0500000000000000
(1779322171.378004) can0 18964010#0040404000000000
(1779322171.378993) can0 18974010#0000000000000000
(1779322171.379998) can0 18984010#0000000000000000
(1779322171.380979) can0 18FA28F4#123EA12C10270000
(1779322171.381973) can0 18FB28F4#D60CD30C40400000
(1779322171.382986) can0 18FC28F4#383200000D020000
(1779322171.383966) can0 18F810F3#0D02E80332640100
(1779322171.384967) can0 18F811F3#D60C1001D30C0301
(1779322171.385979) can0 18F812F3#4001014001010000
(1779322171.387011) can0 18F813F3#0101000000000000
(1779322171.387973) can0 18F814F3#3200EA1AA9015F00
(1779322171.389005) can0 18F815F3#0000000010030000
(1779322171.389903) can0 273#000000000D023200
(1779322171.390880) can0 1E1#020D271001FA01FA
(1779322171.391909) can0 1F5#0000000000000000
(1779322171.392993) can0 0800A6A9#0000000000000000
(1779322171.393953) can0 1000A6A9#0D028813324A4A4A
(1779322171.394984) can0 1C00A6A9#0000000000030000
(1779322171.395999) can0 02018100#1003020D00000000
(1779322171.396999) can0 02028100#0000003264000000
(1779322171.397979) can0 02038100#0CD601100CD30103
(1779322171.398980) can0 02048100#4A01014A01010000
(1779322171.399878) can0 1AD#8714000059321818
(1779322171.400877) can0 2AD#D60C800C87140016
(1779322171.401890) can0 3AD#0000000000008714
(1779322171.402905) can0 4AD#EB00000000000000
(1779322171.403905) can0 76A#7F00000000000000
(1779322171.462587) can0 0000E005#1702440003B60591
(1779322171.463143) can0 1806E5F4#13CC010003B6023A
(1779322171.463973) can0 0000E000#13CC13CC020D0000
(1779322171.464976) can0 0000E004#181803B603B601E1
(1779322171.465963) can0 0000E006#0CD50CD50CD30CD5
(1779322171.466958) can0 0000E007#0CD50CD50CD50CD5
(1779322171.467957) can0 0000E008#0CD50CD50CD50CD5
(1779322171.468957) can0 0000E009#0CD50CD50CD50CD6
(1779322171.470002) can0 0000E010#0000000000000000
(1779322171.471002) can0 0000E011#0000000000000000
(1779322171.471975) can0 0000E012#0CD4000200000000
(1779322171.473015) can0 0000F001#0000000000000000
(1779322171.473996) can0 18FF28F4#10320000020D0000
(1779322171.474977) can0 18FE28F4#0CD60CD340400000
(1779322171.475972) can0 18FD28F4#1702FA6F00000000
(1779322171.476894) can0 4D4#000032007D0D0203
(1779322171.477893) can0 4D5#D30CD60C40400000
(1779322171.478970) can0 18914010#0CD6100CD3030000
(1779322171.479970) can0 18904010#020D020D753001FA
(1779322171.480964) can0 18FA28F4#123EA12C10270000
(1779322171.481964) can0 18FB28F4#D60CD30C40400000
(1779322171.482997) can0 18FC28F4#383200000D020000
(1779322171.483953) can0 18F810F3#0D02E80332640100
(1779322171.484990) can0 18F815F3#0000000010030000
(1779322171.485906) can0 273#000000000D023200
(1779322171.486875) can0 1E1#020D271001FA01FA
(1779322171.487904) can0 1F5#0000000000000000
(1779322171.489003) can0 0800A6A9#0000000000000000
(1779322171.489951) can0 1000A6A9#0D028813324A4A4A
(1779322171.490984) can0 1C00A6A9#0000000000030000
(1779322171.491996) can0 02018100#1003020D00000000
(1779322171.492990) can0 02028100#0000003264000000
(1779322171.493990) can0 02038100#0CD601100CD30103
(1779322171.494971) can0 02048100#4A01014A01010000
(1779322171.495869) can0 1AD#8714000059321818
(1779322171.496869) can0 2AD#D60C800C87140016
(1779322171.497901) can0 3AD#0000000000008714
(1779322171.498894) can0 4AD#EB00000000000000
(1779322171.499903) can0 76A#7F00000000000000
(1779322171.562584) can0 0000E005#1702440003B60591
(1779322171.563141) can0 1806E5F4#13CC010003B6023A
(1779322171.563974) can0 0000E000#13CC13CC020D0000
(1779322171.564974) can0 0000E004#181803B603B601E1
(1779322171.565955) can0 0000E006#0CD50CD50CD30CD5
(1779322171.566955) can0 0000E007#0CD50CD50CD50CD5
(1779322171.567955) can0 0000E008#0CD50CD50CD50CD5
(1779322171.568948) can0 0000E009#0CD50CD50CD50CD6
(1779322171.569999) can0 0000E010#0000000000000000
(1779322171.571026) can0 0000E011#0000000000000000
(1779322171.571980) can0 0000E012#0CD4000200000000
(1779322171.573002) can0 0000F001#0000000000000000
(1779322171.573994) can0 18FF28F4#10320000020D0000
(1779322171.574975) can0 18FE28F4#0CD60CD340400000
(1779322171.575968) can0 18FD28F4#1702FA6F00000000
(1779322171.576891) can0 4D4#000032007D0D0203
(1779322171.577872) can0 4D5#D30CD60C40400000
(1779322171.579000) can0 18914010#0CD6100CD3030000
(1779322171.579962) can0 18904010#020D020D753001FA
(1779322171.580957) can0 18FA28F4#123EA12C10270000
(1779322171.581962) can0 18FB28F4#D60CD30C40400000
(1779322171.582994) can0 18FC28F4#383200000D020000
(1779322171.583956) can0 18F810F3#0D02E80332640100
(1779322171.584984) can0 18F815F3#0000000010030000
(1779322171.585891) can0 273#000000000D023200
(1779322171.586918) can0 1E1#020D271001FA01FA
(1779322171.587905) can0 1F5#0000000000000000
(1779322171.588994) can0 0800A6A9#0000000000000000
(1779322171.589950) can0 1000A6A9#0D028813324A4A4A
(1779322171.590975) can0 1C00A6A9#0000000000030000
(1779322171.591994) can0 02018100#1003020D00000000
(1779322171.592987) can0 02028100#0000003264000000
(1779322171.593969) can0 02038100#0CD601100CD30103
(1779322171.595020) can0 02048100#4A01014A01010000
(1779322171.595867) can0 1AD#8714000059321818
(1779322171.596864) can0 2AD#D60C800C87140016
(1779322171.597892) can0 3AD#0000000000008714
(1779322171.598892) can0 4AD#EB00000000000000
(1779322171.599906) can0 76A#7F00000000000000
(1779322171.662518) can0 0000E005#1702440003B60591
(1779322171.663075) can0 1806E5F4#13CC010003B6023A
(1779322171.664010) can0 0000E000#13CC13CC020D0000
(1779322171.664972) can0 0000E004#181803B603B601E1
(1779322171.665939) can0 0000E006#0CD50CD50CD50CD5
(1779322171.666953) can0 0000E007#0CD50CD50CD50CD5
(1779322171.667953) can0 0000E008#0CD50CD50CD50CD5
(1779322171.668952) can0 0000E009#0CD50CD50CD50CD6
(1779322171.669994) can0 0000E010#0000000000000000
(1779322171.670998) can0 0000E011#0000000000000000
(1779322171.672023) can0 0000E012#0CD5000000000000
(1779322171.672991) can0 0000F001#0000000000000000
(1779322171.673991) can0 18FF28F4#10320000020D0000
(1779322171.674960) can0 18FE28F4#0CD60CD540400000
(1779322171.675973) can0 18FD28F4#1702FA6F00000000
(1779322171.676889) can0 4D4#000032007D0D0203
(1779322171.677870) can0 4D5#D50CD60C40400000
(1779322171.678966) can0 18914010#0CD6100CD5010000
(1779322171.679966) can0 18904010#020D020D753001FA
(1779322171.680960) can0 18FA28F4#123EA12C10270000
(1779322171.681959) can0 18FB28F4#D60CD50C40400000
(1779322171.682992) can0 18FC28F4#383200000D020000
(1779322171.683961) can0 18F810F3#0D02E80332640100
(1779322171.684991) can0 18F815F3#0000000010030000
(1779322171.685890) can0 273#000000000D023200
(1779322171.686871) can0 1E1#020D271001FA01FA
(1779322171.687903) can0 1F5#0000000000000000
(1779322171.688979) can0 0800A6A9#0000000000000000
(1779322171.689946) can0 1000A6A9#0D028813324A4A4A
(1779322171.690979) can0 1C00A6A9#0000000000030000
(1779322171.691992) can0 02018100#1003020D00000000
(1779322171.692992) can0 02028100#0000003264000000
(1779322171.693965) can0 02038100#0CD601100CD50101
(1779322171.694967) can0 02048100#4A01014A01010000
(1779322171.695871) can0 1AD#8814000059321818
(1779322171.696883) can0 2AD#D60C800C88140016
(1779322171.697897) can0 3AD#0000000000008814
(1779322171.698891) can0 4AD#EB00000000000000
(1779322171.699890) can0 76A#7F00000000000000
(1779322171.762519) can0 0000E005#1702440003B60591
(1779322171.763078) can0 1806E5F4#13CC010003B6023A
(1779322171.763965) can0 0000E000#13CC13CC020D0000
(1779322171.764957) can0 0000E004#181803B603B601E1
(1779322171.765944) can0 0000E006#0CD50CD50CD50CD5
(1779322171.766933) can0 0000E007#0CD50CD50CD50CD5
(1779322171.767937) can0 0000E008#0CD50CD50CD50CD5
(1779322171.768938) can0 0000E009#0CD50CD50CD50CD6
(1779322171.770001) can0 0000E010#0000000000000000
(1779322171.770983) can0 0000E011#0000000000000000
(1779322171.771983) can0 0000E012#0CD5000000000000
(1779322171.772995) can0 0000F001#0000000000000000
(1779322171.773976) can0 18FF28F4#10320000020D0000
(1779322171.774958) can0 18FE28F4#0CD60CD540400000
(1779322171.775970) can0 18FD28F4#1702FA6F00000000
(1779322171.776874) can0 4D4#000032007D0D0203
(1779322171.777874) can0 4D5#D50CD60C40400000
(1779322171.778961) can0 18914010#0CD6100CD5010000
(1779322171.779951) can0 18904010#020D020D753001FA
(1779322171.780964) can0 18FA28F4#123EA12C10270000
(1779322171.781945) can0 18FB28F4#D60CD50C40400000
(1779322171.782978) can0 18FC28F4#383200000D020000
(1779322171.783945) can0 18F810F3#0D02E80332640100
(1779322171.784990) can0 18F815F3#0000000010030000
(1779322171.785894) can0 273#000000000D023200
(1779322171.786867) can0 1E1#020D271001FA01FA
(1779322171.787888) can0 1F5#0000000000000000
(1779322171.788983) can0 0800A6A9#0000000000000000
(1779322171.789932) can0 1000A6A9#0D028813324A4A4A
(1779322171.790972) can0 1C00A6A9#0000000000030000
(1779322171.791978) can0 02018100#1003020D00000000
(1779322171.792977) can0 02028100#0000003264000000
(1779322171.793971) can0 02038100#0CD601100CD50101
(1779322171.794971) can0 02048100#4A01014A01010000
(1779322171.795868) can0 1AD#8814000059321818
(1779322171.796869) can0 2AD#D60C800C88140016
(1779322171.797881) can0 3AD#0000000000008814
(1779322171.798890) can0 4AD#EB00000000000000
(1779322171.799888) can0 76A#7F00000000000000
(1779322171.879521) can0 0000E005#1702440003B60591
(1779322171.880078) can0 1806E5F4#13CC010003B6023A
(1779322171.880959) can0 0000E000#13CC13CC020D0000
(1779322171.881962) can0 0000E004#181803B603B601E1
(1779322171.882943) can0 0000E006#0CD50CD50CD50CD5
(1779322171.883936) can0 0000E007#0CD50CD50CD50CD5
(1779322171.884936) can0 0000E008#0CD50CD50CD50CD3
(1779322171.885936) can0 0000E009#0CD50CD50CD50CD6
(1779322171.887033) can0 0000E010#0000000000000000
(1779322171.887982) can0 0000E011#0000000000000000
(1779322171.888962) can0 0000E012#0CD5000200000000
(1779322171.889930) can0 0000E013#4542323630354C43
(1779322171.890963) can0 0000E014#3134323300000000
(1779322171.891975) can0 0000E015#0000000000000003
(1779322171.892983) can0 0000F000#0000000000000000
(1779322171.893988) can0 0000F001#0000000000000000
(1779322171.895021) can0 18FF28F4#10320000020D0000
(1779322171.895950) can0 18FE28F4#0CD60CD340400000
(1779322171.896963) can0 18FD28F4#1702FA6F00000000
(1779322171.897880) can0 4D4#000032007D0D0203
(1779322171.898868) can0 4D5#D30CD60C40400000
(1779322171.899944) can0 18914010#0CD6100CD30C0000
(1779322171.900955) can0 18904010#020D020D753001FA
(1779322171.901975) can0 18924010#4001400100000000
(1779322171.903020) can0 18934010#000000FA0000BC19
(1779322171.903972) can0 18944010#1003000000000000
(1779322171.904984) can0 18954010#0000000000000000
(1779322171.905982) can0 18954010#0100000000000000
(1779322171.906982) can0 18954010#0200000000000000
(1779322171.907976) can0 18954010#0300000000000000
(1779322171.908976) can0 18954010#0400000000000000
(1779322171.909976) can0 18954010#0500000000000000
(1779322171.910969) can0 18964010#0040404000000000
(1779322171.911989) can0 18974010#0000000000000000
(1779322171.912979) can0 18984010#0000000000000000
(1779322171.913950) can0 18FA28F4#123EA12C10270000
(1779322171.914944) can0 18FB28F4#D60CD30C40400000
(1779322171.915976) can0 18FC28F4#383200000D020000
(1779322171.916939) can0 18F810F3#0D02E80332640100
(1779322171.917950) can0 18F811F3#D60C1001D30C0C01
(1779322171.918963) can0 18F812F3#4001014001010000
(1779322171.919976) can0 18F813F3#0101000000000000
(1779322171.920945) can0 18F814F3#3200EA1AA9015F00
(1779322171.921977) can0 18F815F3#0000000010030000
(1779322171.922874) can0 273#000000000D023200
(1779322171.923868) can0 1E1#020D271001FA01FA
(1779322171.924880) can0 1F5#0000000000000000
(1779322171.925976) can0 0800A6A9#0000000000000000
(1779322171.926931) can0 1000A6A9#0D028813324A4A4A
(1779322171.927958) can0 1C00A6A9#0000000000030000
(1779322171.928980) can0 02018100#1003020D00000000
(1779322171.929982) can0 02028100#0000003264000000
(1779322171.930970) can0 02038100#0CD601100CD3010C
(1779322171.931985) can0 02048100#4A01014A01010000
(1779322171.932866) can0 1AD#8814000059321818
(1779322171.933882) can0 2AD#D60C800C88140016
(1779322171.934892) can0 3AD#0000000000008814
(1779322171.935887) can0 4AD#EB00000000000000
(1779322171.936900) can0 76A#7F00000000000000
(1779322171.995577) can0 0000E005#1702440003B60591
(1779322171.996146) can0 1806E5F4#13CC010003B6023A
(1779322171.996992) can0 0000E000#13CC13CC020D0000
(1779322171.997994) can0 0000E004#181803B603B601E1
(1779322171.998958) can0 0000E006#0CD50CD50CD50CD5
(1779322171.999985) can0 0000E007#0CD50CD50CD50CD5
(1779322172.001035) can0 0000E008#0CD50CD50CD50CD3
(1779322172.001993) can0 0000E009#0CD50CD50CD50CD6
(1779322172.003009) can0 0000E010#0000000000000000
(1779322172.004039) can0 0000E011#0000000000000000
(1779322172.005018) can0 0000E012#0CD5000200000000
(1779322172.006051) can0 0000F001#0000000000000000
(1779322172.007020) can0 18FF28F4#10320000020D0000
(1779322172.007964) can0 18FE28F4#0CD60CD340400000
(1779322172.008970) can0 18FD28F4#1702FA6F00000000
(1779322172.009900) can0 4D4#000032007D0D0203
(1779322172.010876) can0 4D5#D30CD60C40400000
(1779322172.011946) can0 18914010#0CD6100CD30C0000
(1779322172.012972) can0 18904010#020D020D753001FA
(1779322172.013975) can0 18FA28F4#123EA12C10270000
(1779322172.014959) can0 18FB28F4#D60CD30C40400000
(1779322172.015967) can0 18FC28F4#383200000D020000
(1779322172.016947) can0 18F810F3#0D02E80332640100
(1779322172.017975) can0 18F815F3#0000000010030000
(1779322172.018892) can0 273#000000000D023200
(1779322172.019879) can0 1E1#020D271001FA01FA
(1779322172.020909) can0 1F5#0000000000000000
(1779322172.021982) can0 0800A6A9#0000000000000000
(1779322172.022944) can0 1000A6A9#0D028813324A4A4A
(1779322172.023990) can0 1C00A6A9#0000000000030000
(1779322172.025013) can0 02018100#1003020D00000000
(1779322172.025996) can0 02028100#0000003264000000
(1779322172.026945) can0 02038100#0CD601100CD3010C
(1779322172.027959) can0 02048100#4A01014A01010000
(1779322172.028857) can0 1AD#8814000059321818
(1779322172.029875) can0 2AD#D60C800C88140016
(1779322172.030867) can0 3AD#0000000000008814
(1779322172.031879) can0 4AD#EB00000000000000
(1779322172.032906) can0 76A#7F00000000000000
(1779322172.038834) can0 00000E00#00354C4331343233
(1779322172.095512) can0 0000E005#1702440003B60591
(1779322172.096065) can0 1806E5F4#13CC010003B6023A
(1779322172.096952) can0 0000E000#13CC13CC020D0000
(1779322172.097946) can0 0000E004#181803B603B601E1
(1779322172.098933) can0 0000E006#0CD50CD50CD50CD5
(1779322172.099926) can0 0000E007#0CD50CD50CD50CD5
(1779322172.100926) can0 0000E008#0CD50CD50CD50CD3
(1779322172.101939) can0 0000E009#0CD50CD50CD50CD6
(1779322172.102990) can0 0000E010#0000000000000000
(1779322172.103971) can0 0000E011#0000000000000000
(1779322172.104947) can0 0000E012#0CD5000200000000
(1779322172.105984) can0 0000F001#0000000000000000
(1779322172.106965) can0 18FF28F4#10320000020D0000
(1779322172.107945) can0 18FE28F4#0CD60CD340400000
(1779322172.108965) can0 18FD28F4#1702FA6F00000000
(1779322172.109895) can0 4D4#000032007D0D0203
(1779322172.110844) can0 4D5#D30CD60C40400000
(1779322172.111939) can0 18914010#0CD6100CD30C0000
(1779322172.112934) can0 18904010#020D020D753001FA
(1779322172.113952) can0 18FA28F4#123EA12C10270000
(1779322172.114934) can0 18FB28F4#D60CD30C40400000
(1779322172.115965) can0 18FC28F4#383200000D020000
(1779322172.116929) can0 18F810F3#0D02E80332640100
(1779322172.118010) can0 18F815F3#0000000010030000
(1779322172.118863) can0 273#000000000D023200
(1779322172.119863) can0 1E1#020D271001FA01FA
(1779322172.120876) can0 1F5#0000000000000000
(1779322172.121972) can0 0800A6A9#0000000000000000
(1779322172.122920) can0 1000A6A9#0D028813324A4A4A
(1779322172.123952) can0 1C00A6A9#0000000000030000
(1779322172.124964) can0 02018100#1003020D00000000
(1779322172.126010) can0 02028100#0000003264000000
(1779322172.126947) can0 02038100#0CD601100CD3010C
(1779322172.127960) can0 02048100#4A01014A01010000
(1779322172.128856) can0 1AD#8814000059321818
(1779322172.129857) can0 2AD#D60C800C88140016
(1779322172.130870) can0 3AD#0000000000008814
(1779322172.131882) can0 4AD#EB00000000000000
(1779322172.132876) can0 76A#7F00000000000000
(1779322172.195508) can0 0000E005#1702440003B60591
(1779322172.196055) can0 1806E5F4#13CC010003B6023A
(1779322172.196962) can0 0000E000#13CC13CC020D0000
(1779322172.197949) can0 0000E004#181803B603B601E1
(1779322172.198933) can0 0000E006#0CD50CD30CD50CD5
(1779322172.199933) can0 0000E007#0CD30CD50CD50CD5
(1779322172.200925) can0 0000E008#0CD50CD50CD50CD5
(1779322172.201919) can0 0000E009#0CD50CD50CD50CD6
(1779322172.203020) can0 0000E010#0000000000000000
(1779322172.203969) can0 0000E011#0000000000000000
(1779322172.204950) can0 0000E012#0CD4000200000000
(1779322172.205969) can0 0000F001#0000000000000000
(1779322172.206963) can0 18FF28F4#10320000020D0000
(1779322172.207934) can0 18FE28F4#0CD60CD340400000
(1779322172.208946) can0 18FD28F4#1702FA6F00000000
(1779322172.209862) can0 4D4#000032007D0D0203
(1779322172.210841) can0 4D5#D30CD60C40400000
(1779322172.211938) can0 18914010#0CD6100CD3020000
(1779322172.212938) can0 18904010#020D020D753001FA
(1779322172.213952) can0 18FA28F4#123EA12C10270000
(1779322172.214939) can0 18FB28F4#D60CD30C40400000
(1779322172.215964) can0 18FC28F4#383200000D020000
(1779322172.216932) can0 18F810F3#0D02E80332640100
(1779322172.217963) can0 18F815F3#0000000010030000
(1779322172.218862) can0 273#000000000D023200
(1779322172.219849) can0 1E1#020D271001FA01FA
(1779322172.220876) can0 1F5#0000000000000000
(1779322172.221956) can0 0800A6A9#0000000000000000
(1779322172.222920) can0 1000A6A9#0D028813324A4A4A
(1779322172.223952) can0 1C00A6A9#0000000000030000
(1779322172.224964) can0 02018100#1003020D00000000
(1779322172.225960) can0 02028100#0000003264000000
(1779322172.226945) can0 02038100#0CD601100CD30102
(1779322172.227954) can0 02048100#4A01014A01010000
(1779322172.228845) can0 1AD#8714000059321818
(1779322172.229836) can0 2AD#D60C800C87140016
(1779322172.230869) can0 3AD#0000000000008714
(1779322172.231863) can0 4AD#EB00000000000000
(1779322172.232864) can0 76A#7F00000000000000
(1779322172.295557) can0 0000E005#1702440003B60591
(1779322172.296119) can0 1806E5F4#13CC010003B6023A
(1779322172.296970) can0 0000E000#13CC13CC020D0000
(1779322172.297962) can0 0000E004#181803B603B601E1
(1779322172.298946) can0 0000E006#0CD50CD30CD50CD5
(1779322172.299952) can0 0000E007#0CD30CD50CD50CD5
(1779322172.301002) can0 0000E008#0CD50CD50CD50CD5
(1779322172.301955) can0 0000E009#0CD50CD50CD50CD6
(1779322172.302994) can0 0000E010#0000000000000000
(1779322172.303996) can0 0000E011#0000000000000000
(1779322172.304973) can0 0000E012#0CD4000200000000
(1779322172.305983) can0 0000F001#0000000000000000
(1779322172.306966) can0 18FF28F4#10320000020D0000
(1779322172.307950) can0 18FE28F4#0CD60CD340400000
(1779322172.308957) can0 18FD28F4#1702FA6F00000000
(1779322172.309881) can0 4D4#000032007D0D0203
(1779322172.310872) can0 4D5#D30CD60C40400000
(1779322172.311958) can0 18914010#0CD6100CD3020000
(1779322172.312955) can0 18904010#020D020D753001FA
(1779322172.313952) can0 18FA28F4#123EA12C10270000
(1779322172.314953) can0 18FB28F4#D60CD30C40400000
(1779322172.315981) can0 18FC28F4#383200000D020000
(1779322172.316943) can0 18F810F3#0D02E80332640100
(1779322172.317977) can0 18F815F3#0000000010030000
(1779322172.318881) can0 273#000000000D023200
(1779322172.319863) can0 1E1#020D271001FA01FA
(1779322172.320894) can0 1F5#0000000000000000
(1779322172.321979) can0 0800A6A9#0000000000000000
(1779322172.322943) can0 1000A6A9#0D028813324A4A4A
(1779322172.323967) can0 1C00A6A9#0000000000030000
(1779322172.324998) can0 02018100#1003020D00000000
(1779322172.325977) can0 02028100#0000003264000000
(1779322172.326962) can0 02038100#0CD601100CD30102
(1779322172.327959) can0 02048100#4A01014A01010000
(1779322172.328840) can0 1AD#8714000059321818
(1779322172.329900) can0 2AD#D60C800C87140016
(1779322172.330897) can0 3AD#0000000000008714
(1779322172.331914) can0 4AD#EB00000000000000
(1779322172.332947) can0 76A#7F00000000000000
(1779322172.412560) can0 0000E005#1702440003B60591
(1779322172.413101) can0 1806E5F4#13CC010003B6023A
(1779322172.413953) can0 0000E000#13CC13CC020D0000
(1779322172.414938) can0 0000E004#181803B603B601E1
(1779322172.415916) can0 0000E006#0CD50CD50CD30CD3
(1779322172.416935) can0 0000E007#0CD50CD50CD50CD5
(1779322172.417960) can0 0000E008#0CD50CD50CD50CD5
(1779322172.418935) can0 0000E009#0CD50CD50CD50CD6
(1779322172.419974) can0 0000E010#0000000000000000
(1779322172.420976) can0 0000E011#0000000000000000
(1779322172.421953) can0 0000E012#0CD4000200000000
(1779322172.422920) can0 0000E013#4542323630354C43
(1779322172.423955) can0 0000E014#3134323300000000
(1779322172.424971) can0 0000E015#0000000000000003
(1779322172.426016) can0 0000F000#0000000000000000
(1779322172.426975) can0 0000F001#0000000000000000
(1779322172.427964) can0 18FF28F4#10320000020D0000
(1779322172.428942) can0 18FE28F4#0CD60CD340400000
(1779322172.429936) can0 18FD28F4#1702FA6F00000000
(1779322172.430852) can0 4D4#000032007D0D0203
(1779322172.431833) can0 4D5#D30CD60C40400000
(1779322172.432927) can0 18914010#0CD6100CD3030000
(1779322172.433979) can0 18904010#020D020D753001FA
(1779322172.434941) can0 18924010#4001400100000000
(1779322172.435940) can0 18934010#000000FB0000BC19
(1779322172.436951) can0 18944010#1003000000000000
(1779322172.437973) can0 18954010#0000000000000000
(1779322172.438967) can0 18954010#0100000000000000
(1779322172.439953) can0 18954010#0200000000000000
(1779322172.440947) can0 18954010#0300000000000000
(1779322172.442011) can0 18954010#0400000000000000
(1779322172.442948) can0 18954010#0500000000000000
(1779322172.443947) can0 18964010#0040404000000000
(1779322172.444955) can0 18974010#0000000000000000
(1779322172.445954) can0 18984010#0000000000000000
(1779322172.446936) can0 18FA28F4#123EA12C10270000
(1779322172.447950) can0 18FB28F4#D60CD30C40400000
(1779322172.448960) can0 18FC28F4#383200000D020000
(1779322172.449943) can0 18F810F3#0D02E80332640100
(1779322172.450934) can0 18F811F3#D60C1001D30C0301
(1779322172.451954) can0 18F812F3#4001014001010000
(1779322172.452963) can0 18F813F3#0101000000000000
(1779322172.453944) can0 18F814F3#3200EA1AA9015F00
(1779322172.454957) can0 18F815F3#0000000010030000
(1779322172.455856) can0 273#000000000D023200
(1779322172.456843) can0 1E1#020D271001FA01FA
(1779322172.457879) can0 1F5#0000000000000000
(1779322172.458960) can0 0800A6A9#0000000000000000
(1779322172.459933) can0 1000A6A9#0D028813324A4A4A
(1779322172.460959) can0 1C00A6A9#0000000000030000
(1779322172.461961) can0 02018100#1003020D00000000
(1779322172.462966) can0 02028100#0000003264000000
(1779322172.463934) can0 02038100#0CD601100CD30103
(1779322172.464943) can0 02048100#4A01014A01010000
(1779322172.465829) can0 1AD#8714000059321818
(1779322172.466842) can0 2AD#D60C800C87140016
(1779322172.467859) can0 3AD#0000000000008714
(1779322172.468854) can0 4AD#EB00000000000000
(1779322172.469866) can0 76A#7F00000000000000
(1779322172.528495) can0 0000E005#1702440003B60591
(1779322172.529044) can0 1806E5F4#13CC010003B6023A
(1779322172.529939) can0 0000E000#13CC13CC020D0000
(1779322172.530946) can0 0000E004#181803B603B601E1
(1779322172.531939) can0 0000E006#0CD50CD50CD30CD3
(1779322172.532936) can0 0000E007#0CD50CD50CD50CD5
(1779322172.533921) can0 0000E008#0CD50CD50CD50CD5
(1779322172.534916) can0 0000E009#0CD50CD50CD50CD6
(1779322172.535968) can0 0000E010#0000000000000000
(1779322172.536969) can0 0000E011#0000000000000000
(1779322172.537941) can0 0000E012#0CD4000200000000
(1779322172.538962) can0 0000F001#0000000000000000
(1779322172.539942) can0 18FF28F4#10320000020D0000
(1779322172.540989) can0 18FE28F4#0CD60CD340400000
(1779322172.541943) can0 18FD28F4#1702FA6F00000000
(1779322172.542891) can0 4D4#000032007D0D0203
(1779322172.543870) can0 4D5#D30CD60C40400000
(1779322172.544950) can0 18914010#0CD6100CD3030000
(1779322172.545949) can0 18904010#020D020D753001FA
(1779322172.546939) can0 18FA28F4#123EA12C10270000
(1779322172.547931) can0 18FB28F4#D60CD30C40400000
(1779322172.548963) can0 18FC28F4#383200000D020000
(1779322172.549947) can0 18F810F3#0D02E80332640100
(1779322172.550974) can0 18F815F3#0000000010030000
(1779322172.551931) can0 273#000000000D023200
(1779322172.552875) can0 1E1#020D271001FA01FA
(1779322172.553894) can0 1F5#0000000000000000
(1779322172.554966) can0 0800A6A9#0000000000000000
(1779322172.555941) can0 1000A6A9#0D028813324A4A4A
(1779322172.556958) can0 1C00A6A9#0000000000030000
(1779322172.557943) can0 02018100#1003020D00000000
(1779322172.558968) can0 02028100#0000003264000000
(1779322172.559947) can0 02038100#0CD601100CD30103
(1779322172.560939) can0 02048100#4A01014A01010000
(1779322172.561834) can0 1AD#8714000059321818
(1779322172.562834) can0 2AD#D60C800C87140016
(1779322172.563878) can0 3AD#0000000000008714
(1779322172.564853) can0 4AD#EB00000000000000
(1779322172.565853) can0 76A#7F00000000000000
(1779322172.628509) can0 0000E005#1702440003B60591
(1779322172.629047) can0 1806E5F4#13CC010003B6023A
(1779322172.629954) can0 0000E000#13CC13CC020D0000
(1779322172.630946) can0 0000E004#181803B603B601E1
(1779322172.631929) can0 0000E006#0CD50CD50CD30CD3
(1779322172.632969) can0 0000E007#0CD50CD50CD50CD5
(1779322172.633917) can0 0000E008#0CD50CD50CD50CD5
(1779322172.634986) can0 0000E009#0CD50CD50CD50CD6
(1779322172.635980) can0 0000E010#0000000000000000
(1779322172.636985) can0 0000E011#0000000000000000
(1779322172.637952) can0 0000E012#0CD4000200000000
(1779322172.638993) can0 0000F001#0000000000000000
(1779322172.639971) can0 18FF28F4#10320000020D0000
(1779322172.640980) can0 18FE28F4#0CD60CD340400000
(1779322172.641955) can0 18FD28F4#1702FA6F00000000
(1779322172.642855) can0 4D4#000032007D0D0203
(1779322172.643834) can0 4D5#D30CD60C40400000
(1779322172.644932) can0 18914010#0CD6100CD3030000
(1779322172.645927) can0 18904010#020D020D753001FA
(1779322172.646942) can0 18FA28F4#123EA12C10270000
(1779322172.647926) can0 18FB28F4#D60CD30C40400000
(1779322172.648988) can0 18FC28F4#383200000D020000
(1779322172.649915) can0 18F810F3#0D02E80332640100
(1779322172.650959) can0 18F815F3#0000000010030000
(1779322172.651867) can0 273#000000000D023200
(1779322172.652866) can0 1E1#020D271001FA01FA
(1779322172.653876) can0 1F5#0000000000000000
(1779322172.654977) can0 0800A6A9#0000000000000000
(1779322172.655921) can0 1000A6A9#0D028813324A4A4A
(1779322172.656993) can0 1C00A6A9#0000000000030000
